(1708108019.114192) can1 04EF001C#F5555AFB0BB2A418
(1708108019.118176) can1 0CEF1100#F6A8F10F57C0BCE2
(1708108019.118837) can1 18FF1080#000000FFFFFFFD00
(1708108019.119547) can1 18FF1180#0300FBFDFFFF00FF
(1708108019.123188) can1 18FFDC00#C014010000507B19
(1708108019.124284) can1 04EF001C#B45871FE4ABF8F1D
(1708108019.128182) can1 18FFDC00#C100000000A4FFA3
(1708108019.128762) can1 0CF00300#CF004FFF00FFFFFF
(1708108019.129343) can1 0CF00400#FF7D7D000000FFFF
(1708108019.133187) can1 18FFDC00#C2FFFF6E921B00FF
(1708108019.133766) can1 09F20000#000000FFFFFFFFFF
(1708108019.134405) can1 0CEF0100#B020000000625400
(1708108019.134934) can1 04EF001C#DF5B01A521BCFF46
(1708108019.138210) can1 09F20100#A016000200FFFFCB
(1708108019.142957) can1 0CEF0017#812B8813CD0AFFFF
(1708108019.143515) can1 09F20100#A172C90400006E92
(1708108019.144481) can1 04EF001C#345EC5F8CA993B3B
(1708108019.148187) can1 0CF00400#FF7D7D000000FFFF
(1708108019.148755) can1 09F20100#A21B00FFFFFFFF00
(1708108019.149360) can1 18FEEE00#3DFFFFFFFFFF42FF
(1708108019.153198) can1 09F20100#A30100FFFFFFFFFF
(1708108019.153770) can1 0CEF0100#B020000000625400
(1708108019.154448) can1 18E8FF00#02FFFFFFFF00EF00
(1708108019.154939) can1 04EF001C#F540F2EE0B870C2D
(1708108019.155486) can1 18FEEF00#FFFFFF00FFFFFFFF
(1708108019.158213) can1 18FEF200#0000FFFFFFFF37FF
(1708108019.162986) can1 18FF1CF3#0000000000000000
(1708108019.163578) can1 18FEF700#FFFF1A01F500F600
(1708108019.164747) can1 04EF001C#1F443FBAE183C179
(1708108019.168187) can1 0CF00400#FF7D7D000000FFFF
(1708108019.168761) can1 0CEF1100#36ADAF0E93304AC4
(1708108019.173208) can1 18FFDC00#E014010000507B19
(1708108019.173812) can1 0CEF0100#B020000000625400
(1708108019.174855) can1 04EF001C#D146E7C82FE1196B
(1708108019.178192) can1 18FFDC00#E100000000A4FFA3
(1708108019.178755) can1 0CF00300#CF004FFF00FFFFFF
(1708108019.183176) can1 18FFDC00#E2FFFF6E921B00FF
(1708108019.183773) can1 0CEF1700#01AB8813CD0AFFFF
(1708108019.184955) can1 04EF001C#9449D8EF6A8E262C
(1708108019.188188) can1 0CF00400#FF7D7D000000FFFF
(1708108019.188789) can1 18FEFC00#FFA3FFFFFFFFFFFF
(1708108019.193215) can1 0CEF0100#B020000000625400
(1708108019.193796) can1 18FEF600#FFFF3D2AFFFFFFFF
(1708108019.195061) can1 04EF001C#534C31D2ADABCF31
(1708108019.198197) can1 18FEF100#FF0000F5FF11DFFF
(1708108019.202944) can1 0CEF0017#812B8813CD0AFFFF
(1708108019.205175) can1 04EF001C#1E4F66B9E14899BA
(1708108019.208188) can1 0CF00400#FF7D7D000000FFFF
(1708108019.213204) can1 0CEF0100#B020000000625400
(1708108019.213784) can1 18E8FF00#02FFFFFFFF00EF00
(1708108019.215298) can1 04EF001C#6652F56499750A47
(1708108019.218172) can1 0CEF1100#84DD0601C2E4C4D6
(1708108019.219527) can1 18FF1080#000000FFFFFFFD00
(1708108019.220526) can1 18FF1180#0300FBFDFFFF00FF
(1708108019.221520) can1 18FF1380#000000003FC0C006
(1708108019.223195) can1 18FFDC00#0014010000507B19
(1708108019.225410) can1 04EF001C#FA545D820573A2A1
(1708108019.228178) can1 18FFDC00#0100000000A4FFA3
(1708108019.228769) can1 0CF00300#CF004FFF00FFFFFF
(1708108019.229356) can1 0CF00400#FF7D7D000000FFFF
(1708108019.233188) can1 18FFDC00#02FFFF6E921B00FF
(1708108019.233797) can1 09F20000#000000FFFFFFFFFF
(1708108019.234381) can1 0CEF0100#B020000000625400
(1708108019.235551) can1 04EF001C#BE5703A14110FCE2
(1708108019.242993) can1 18FF1CF3#0000000000000000
(1708108019.245639) can1 04EF001C#1F5ACFA4E07D3087
(1708108019.248183) can1 0CF00400#FF7D7D000000FFFF
(1708108019.253215) can1 0CEF0100#B020000000625400
(1708108019.255736) can1 04EF001C#3D5DD4B3C27A2B90
(1708108019.258207) can1 18FEF200#0000FFFFFFFF37FF
(1708108019.265847) can1 04EF001C#9E5F62A961189DEA
(1708108019.268187) can1 0CF00400#FF7D7D000000FFFF
(1708108019.268750) can1 0CEF1100#44D288029A8D7E16
(1708108019.273210) can1 18FFDC00#2014010000507B19
(1708108019.273801) can1 0CEF0100#B020000000625400
(1708108019.275938) can1 04EF001C#2D423C2CD225C34F
(1708108019.278187) can1 18FFDC00#2100000000A4FFA3
(1708108019.278785) can1 0CF00300#CF004FFF00FFFFFF
(1708108019.282964) can1 0CEF0017#812B8813CD0AFFFF
(1708108019.283557) can1 0DF50B9B#E5FFFFFFFF0000FF
(1708108019.284089) can1 18FFDC00#22FFFF6E921B00FF
(1708108019.286055) can1 04EF001C#EB44CC1A14233379
(1708108019.288184) can1 0CF00400#FF7D7D000000FFFF
(1708108019.288874) can1 18FF1C17#0000000000000000
(1708108019.293213) can1 0CEF0100#B020000000625400
(1708108019.293769) can1 18E8FF00#02FFFFFFFF00EF00
(1708108019.296162) can1 04EF001C#AB47961954C0699A
(1708108019.298200) can1 18FEF100#FF0000F5FF11DFFF
(1708108019.306284) can1 04EF001C#384A698CC7ED962F
(1708108019.307313) can1 09F8021C#91FC88120500FFFF
(1708108019.308189) can1 0CF00400#FF7D7D000000FFFF
(1708108019.308770) can1 09F8011C#3E6D2618326B5BC1
(1708108019.309350) can1 19FA031C#91D252009D006500
(1708108019.310341) can1 0DF0101C#91F0A34D8082BD2B
(1708108019.311354) can1 18FEE81C#980D00002064437E
(1708108019.312426) can1 19FA041C#A0AB91FF0E017512
(1708108019.313310) can1 0CEF0100#B020000000625400
(1708108019.313830) can1 19FA041C#A1FAC8CC10FFFFFF
(1708108019.314465) can1 19FA041C#A2FFFF05A627D020
(1708108019.315458) can1 19FA041C#A3740EFFFFFFFFFF
(1708108019.316391) can1 04EF001C#9B4DF793642A08F0
(1708108019.317475) can1 19FA041C#A40C0D020C7B9808
(1708108019.318173) can1 0CEF1100#1ECDA455F56883EE
(1708108019.318755) can1 19FA041C#A5FFFFFFFFFF0D82
(1708108019.319532) can1 18FF1080#000000FFFFFFFD00
(1708108019.320083) can1 19FA041C#A6141847100EFFFF
(1708108019.320663) can1 18FF1180#0300FBFDFFFF00FF
(1708108019.321524) can1 19FA041C#A7FFFFFF0F9C182C
(1708108019.322526) can1 19FA041C#A8656810FFFFFFFF
(1708108019.323188) can1 18FFDC00#4014010000507B19
(1708108019.323737) can1 19FA041C#A9FF10AF0096E100
(1708108019.324570) can1 19FA041C#AA00FFFFFFFFFF12
(1708108019.325545) can1 19FA041C#ABB61C3EC6CC10FF
(1708108019.326504) can1 04EF001C#6D50EE3E9237115D
(1708108019.327581) can1 19FA041C#ACFFFFFFFF14D313
(1708108019.328179) can1 18FFDC00#4100000000A4FFA3
(1708108019.328785) can1 0CF00300#CF004FFF00FFFFFF
(1708108019.329330) can1 0CF00400#FF7D7D000000FFFF
(1708108019.329922) can1 19FA041C#AD2E22E40CFFFFFF
(1708108019.330628) can1 19FA041C#AEFFFF174E0C2099
(1708108019.331635) can1 19FA041C#AFFC08FFFFFFFFFF
(1708108019.332638) can1 19FA041C#B0199F0B168AFC08
(1708108019.333243) can1 09F20000#000000FFFFFFFFFF
(1708108019.333826) can1 0CEF0100#B020000000625400
(1708108019.334383) can1 18FFDC00#42FFFF6E921B00FF
(1708108019.334956) can1 19FA041C#B1FFFFFFFFFF1AFD
(1708108019.335694) can1 19FA041C#B20C14CD3C0FFFFF
(1708108019.336625) can1 04EF001C#6453FF759BD400F6
(1708108019.337702) can1 19FA041C#B3FFFFFF1D283CC2
(1708108019.338700) can1 19FA041C#B4976810FFFFFFFF
(1708108019.339698) can1 19FA041C#B5FF2CB61CFC85CC
(1708108019.340724) can1 19FA041C#B610FFFFFFFFFF30
(1708108019.341724) can1 19FA041C#B7A91A308E3C0FFF
(1708108019.342747) can1 19FA041C#B8FFFFFFFFFFFFFF
(1708108019.346743) can1 04EF001C#36559FE3C9D26060
(1708108019.348190) can1 0CF00400#FF7D7D000000FFFF
(1708108019.353205) can1 0CEF0100#B020000000625400
(1708108019.356838) can1 04EF001C#F5574AF90AD0B57A
(1708108019.358195) can1 18FEF200#0000FFFFFFFF37FF
(1708108019.366948) can1 04EF001C#B75A62E448DD9D67
(1708108019.368186) can1 0CF00400#FF7D7D000000FFFF
(1708108019.368756) can1 0CEF1100#D3C3617E1219BF96
(1708108019.373199) can1 18FFDC00#6014010000507B19
(1708108019.373805) can1 0CEF0100#B020000000625400
(1708108019.377054) can1 04EF001C#755D9EF38A3A6190
(1708108019.378185) can1 18FFDC00#6100000000A4FFA3
(1708108019.378754) can1 0CF00300#CF004FFF00FFFFFF
(1708108019.381541) can1 15FD069B#CEF873FFFFFFFFFF
(1708108019.382986) can1 18FF1CF3#0000000000000000
(1708108019.383560) can1 18FFDC00#62FFFF6E921B00FF
(1708108019.387177) can1 04EF001C#354034EECAC7CB6D
(1708108019.388192) can1 0CF00400#FF7D7D000000FFFF
(1708108019.393213) can1 0CEF0100#B020000000625400
(1708108019.397283) can1 04EF001C#F642E1F409251E97
(1708108019.398192) can1 18FEF100#FF0000F5FF11DFFF
(1708108019.402972) can1 0CEF0017#812B8813CD0AFFFF
(1708108019.407463) can1 04EF001C#20461140DFC1EEC3
(1708108019.408195) can1 0CF00400#FF7D7D000000FFFF
(1708108019.413216) can1 0CEF0100#B020000000625400
(1708108019.413770) can1 18E8FF00#02FFFFFFFF00EF00
(1708108019.417532) can1 04EF001C#E148A6461ECF59C5
(1708108019.418169) can1 0CEF1100#BCF169CB21906DC6
(1708108019.420531) can1 18FF1080#000000FFFFFFFD00
(1708108019.421527) can1 18FF1180#0300FBFDFFFF00FF
(1708108019.422525) can1 18FF1380#000000003FC0C006
(1708108019.423194) can1 18FFDC00#8014010000507B19
(1708108019.427628) can1 04EF001C#C44B9A6D3BEC65CE
(1708108019.428256) can1 0CF00300#CF004FFF00FFFFFF
(1708108019.428866) can1 0CF00400#FF7D7D000000FFFF
(1708108019.429359) can1 18FFDC00#8100000000A4FFA3
(1708108019.433172) can1 18FFDC00#82FFFF6E921B00FF
(1708108019.433815) can1 09F20000#000000FFFFFFFFFF
(1708108019.434389) can1 0CEF0100#B020000000625400
(1708108019.437747) can1 04EF001C#614E12409EE9EDE3
(1708108019.442972) can1 0CEF0017#812B8813CD0AFFFF
(1708108019.447875) can1 04EF001C#1F5197AFE0D6682C
(1708108019.448448) can1 0CF00400#FF7D7D000000FFFF
(1708108019.453208) can1 0CEF0100#B020000000625400
(1708108019.453768) can1 18E8FF00#02FFFFFFFF00EF00
(1708108019.457976) can1 04EF001C#0454A472FB335B11
(1708108019.458559) can1 18FEF200#0000FFFFFFFF37FF
(1708108019.463010) can1 18FF1CF3#0000000000000000
(1708108019.468080) can1 04EF001C#A05615505F31EA33
(1708108019.468670) can1 0CEF1100#7EF4375A65E4BF64
(1708108019.469210) can1 0CF00400#FF7D7D000000FFFF
(1708108019.473206) can1 18FFDC00#A014010000507B19
(1708108019.473815) can1 0CEF0100#B020000000625400
(1708108019.478194) can1 18FFDC00#A100000000A4FFA3
(1708108019.478784) can1 04EF001C#F75830E608DFCF65
(1708108019.479358) can1 0CF00300#CF004FFF00FFFFFF
(1708108019.479903) can1 18FF1C17#0000000000000000
(1708108019.483184) can1 18FFDC00#A2FFFF6E921B00FF
(1708108019.488194) can1 0CF00400#FF7D7D000000FFFF
(1708108019.488721) can1 04EF001C#B75B6AE548DC9566
(1708108019.493210) can1 0CEF0100#B020000000625400
(1708108019.498196) can1 18FEF100#FF0000F5FF11DFFF
(1708108019.498728) can1 04EF001C#795E8A9086F97533
(1708108019.508197) can1 0CF00400#FF7D7D000000FFFF
(1708108019.508757) can1 04EF001C#35413CEFCAE6C34C
(1708108019.513217) can1 0CEF0100#B020000000625400
(1708108019.518170) can1 0CEF1100#21E632661209431F
(1708108019.518707) can1 04EF001C#F543EAED0A84152E
(1708108019.520519) can1 18FF1080#000000FFFFFFFD00
(1708108019.521518) can1 18FF1180#0300FBFDFFFF00FF
(1708108019.522968) can1 0CEF0017#812B8813CD0AFFFF
(1708108019.523572) can1 18FFDC00#C014010000507B19
(1708108019.528191) can1 18FFDC00#C100000000A4FFA3
(1708108019.528785) can1 0CF00300#CF004FFF00FFFFFF
(1708108019.529325) can1 04EF001C#B64683F049A17C13
(1708108019.529909) can1 0CF00400#FF7D7D000000FFFF
(1708108019.533183) can1 18FFDC00#C2FFFF6E921B00FF
(1708108019.533767) can1 09F20000#000000FFFFFFFFFF
(1708108019.534345) can1 0CEF0100#B020000000625400
(1708108019.534919) can1 18E8FF00#02FFFFFFFF00EF00
(1708108019.538848) can1 04EF001C#7849338F786933AB
(1708108019.543014) can1 18FF1CF3#0000000000000000
(1708108019.548194) can1 0CF00400#FF7D7D000000FFFF
(1708108019.548978) can1 04EF001C#374C56F2372C5696
(1708108019.553200) can1 0CEF0100#B020000000625400
(1708108019.558209) can1 18FEF200#0000FFFFFFFF37FF
(1708108019.559088) can1 04EF001C#F74E80F0F7EE8054
(1708108019.568199) can1 0CF00400#FF7D7D000000FFFF
(1708108019.568734) can1 0CEF1100#9E9AF842AF9DC92C
(1708108019.569280) can1 04EF001C#B7513AEFB7913A2B
(1708108019.573224) can1 18FFDC00#E014010000507B19
(1708108019.573789) can1 0CEF0100#B020000000625400
(1708108019.578201) can1 18FFDC00#E100000000A4FFA3
(1708108019.578775) can1 0CF00300#CF004FFF00FFFFFF
(1708108019.579317) can1 04EF001C#7754D4EA77B4D40E
(1708108019.583176) can1 18FFDC00#E2FFFF6E921B00FF
(1708108019.588198) can1 0CF00400#FF7D7D000000FFFF
(1708108019.589412) can1 04EF001C#A1571C59A0571D5D
(1708108019.593202) can1 0CEF0100#B020000000625400
(1708108019.598196) can1 18FEF100#FF0000F5FF11DFFF
(1708108019.599534) can1 04EF001C#1D5ACDB41DBACD50
(1708108019.608196) can1 0CF00400#FF7D7D000000FFFF
(1708108019.609656) can1 04EF001C#6B5D80036BBD80E7
(1708108019.613201) can1 0CEF0100#B020000000625400
(1708108019.618174) can1 0CEF1100#D59418D9E25A6181
(1708108019.619783) can1 04EF001C#0940090E0860082A
(1708108019.621533) can1 18FF1080#000000FFFFFFFD00
(1708108019.622550) can1 18FF1180#0300FBFDFFFF00FF
(1708108019.623079) can1 0CEF0017#812B8813CD0AFFFF
(1708108019.623663) can1 18FF1380#000000003FC0C006
(1708108019.624233) can1 18FFDC00#0014010000507B19
(1708108019.628175) can1 18FFDC00#0100000000A4FFA3
(1708108019.628741) can1 0CF00300#CF004FFF00FFFFFF
(1708108019.629317) can1 0CF00400#FF7D7D000000FFFF
(1708108019.629971) can1 04EF001C#4C4356254D635701
(1708108019.633182) can1 18FFDC00#02FFFF6E921B00FF
(1708108019.633807) can1 09F20000#000000FFFFFFFFFF
(1708108019.634368) can1 0CEF0100#B020000000625400
(1708108019.634949) can1 18E8FF00#02FFFFFFFF00EF00
(1708108019.639975) can1 04EF001C#8645AA738705AB37
(1708108019.643016) can1 18FF1CF3#0000000000000000
(1708108019.648193) can1 0CF00400#FF7D7D000000FFFF
(1708108019.650087) can1 04EF001C#58481A8E59081BCA
(1708108019.653191) can1 18FEEF00#FFFFFF00FFFFFFFF
(1708108019.653808) can1 0CEF0100#B020000000625400
(1708108019.658195) can1 18FEF200#0000FFFFFFFF37FF
(1708108019.660199) can1 04EF001C#3D4B64A53C2B65C1
(1708108019.668189) can1 0CF00400#FF7D7D000000FFFF
(1708108019.668730) can1 0CEF1100#F688F1061FC8FEAA
(1708108019.670308) can1 04EF001C#5D4E2FA05C6E2E84
(1708108019.673199) can1 18FFDC00#2014010000507B19
(1708108019.673812) can1 0CEF0100#B020000000625400
(1708108019.678198) can1 18FFDC00#2100000000A4FFA3
(1708108019.678797) can1 0CF00300#CF004FFF00FFFFFF
(1708108019.679886) can1 18FF1C17#0000000000000000
(1708108019.680455) can1 04EF001C#8C5008368D700912
(1708108019.682986) can1 0CEF0017#812B8813CD0AFFFF
(1708108019.683534) can1 0CEF1700#01AB8813CD0AFFFF
(1708108019.684223) can1 18FFDC00#22FFFF6E921B00FF
(1708108019.688186) can1 0CF00400#FF7D7D000000FFFF
(1708108019.690524) can1 04EF001C#EA527D04EB527C00
(1708108019.693202) can1 0CEF0100#B020000000625400
(1708108019.693820) can1 18E8FF00#02FFFFFFFF00EF00
(1708108019.694372) can1 18FEF600#FFFF3D2AFFFFFFFF
(1708108019.698204) can1 18FEF100#FF0000F5FF11DFFF
(1708108019.700626) can1 04EF001C#AC550133AC9501F7
(1708108019.708197) can1 0CF00400#FF7D7D000000FFFF
(1708108019.710729) can1 04EF001C#6958AA1669F8AAB2
(1708108019.713203) can1 0CEF0100#B020000000625400
(1708108019.718169) can1 0CEF1100#01BADB730B57BBC2
(1708108019.720858) can1 04EF001C#F55A22F4F51A22B0
(1708108019.721529) can1 18FF1080#000000FFFFFFFD00
(1708108019.722528) can1 18FF1180#0300FBFDFFFF00FF
(1708108019.723190) can1 18FFDC00#4014010000507B19
(1708108019.728187) can1 18FFDC00#4100000000A4FFA3
(1708108019.728756) can1 0CF00300#CF004FFF00FFFFFF
(1708108019.729391) can1 0CF00400#FF7D7D000000FFFF
(1708108019.730953) can1 04EF001C#485EBA18485EBA1C
(1708108019.733174) can1 18FFDC00#42FFFF6E921B00FF
(1708108019.733786) can1 09F20000#000000FFFFFFFFFF
(1708108019.734445) can1 0CEF0100#B020000000625400
(1708108019.741089) can1 04EF001C#764075F6764075F2
(1708108019.743014) can1 18FF1CF3#0000000000000000
(1708108019.748195) can1 0CF00400#FF7D7D000000FFFF
(1708108019.751199) can1 04EF001C#37432EFDC884D13E
(1708108019.753201) can1 0CEF0100#B020000000625400
(1708108019.758196) can1 18FEF200#0000FFFFFFFF37FF
(1708108019.761290) can1 04EF001C#F545DAEB0AE22548
(1708108019.762989) can1 0CEF0017#812B8813CD0AFFFF
(1708108019.768197) can1 0CF00400#FF7D7D000000FFFF
(1708108019.768721) can1 0CEF1100#46BEE88A6D085131
(1708108019.771401) can1 04EF001C#B648F3FE492F0C9D
(1708108019.773190) can1 18FFDC00#6014010000507B19
(1708108019.773805) can1 0CEF0100#B020000000625400
(1708108019.774368) can1 18E8FF00#02FFFFFFFF00EF00
(1708108019.778194) can1 18FFDC00#6100000000A4FFA3
(1708108019.778747) can1 0CF00300#CF004FFF00FFFFFF
(1708108019.781515) can1 04EF001C#774B2CF588CCD376
(1708108019.783164) can1 18FFDC00#62FFFF6E921B00FF
(1708108019.788197) can1 0CF00400#FF7D7D000000FFFF
(1708108019.791660) can1 04EF001C#344E45E8CBE9BA4B
(1708108019.793203) can1 0CEF0100#B020000000625400
(1708108019.798200) can1 18FEF100#FF0000F5FF11DFFF
(1708108019.801760) can1 04EF001C#6351E84F9C96178C
(1708108019.808197) can1 0CF00400#FF7D7D000000FFFF
(1708108019.811866) can1 04EF001C#2054815220548156
(1708108019.812909) can1 09F8021C#92FC88120400FFFF
(1708108019.813507) can1 0CEF0100#B020000000625400
(1708108019.814118) can1 09F8011C#3E6D2618306B5BC1
(1708108019.814934) can1 19FA031C#92D252009D006500
(1708108019.815926) can1 0DF0101C#92F0A34D8082BD2B
(1708108019.816971) can1 18FEE81C#980D00002064427E
(1708108019.818164) can1 0CEF1100#9DA8E89733CDCD02
(1708108019.821991) can1 04EF001C#0E57B6210E17B665
(1708108019.822598) can1 18FF1080#000000FFFFFFFD00
(1708108019.823192) can1 18FFDC00#8014010000507B19
(1708108019.823790) can1 18FF1180#0300FBFDFFFF00FF
(1708108019.824577) can1 18FF1380#000000003FC0C006
(1708108019.828175) can1 18FFDC00#8100000000A4FFA3
(1708108019.828765) can1 0CF00300#CF004FFF00FFFFFF
(1708108019.829370) can1 0CF00400#FF7D7D000000FFFF
(1708108019.832097) can1 04EF001C#CD590337CDD903B3
(1708108019.833189) can1 18FFDC00#82FFFF6E921B00FF
(1708108019.833786) can1 09F20000#000000FFFFFFFFFF
(1708108019.834383) can1 0CEF0100#B020000000625400
(1708108019.838270) can1 19FA041C#C0AB92FF0E017512
(1708108019.839247) can1 19FA041C#C1FAC8CC10FFFFFF
(1708108019.840256) can1 19FA041C#C2FFFF05A627D020
(1708108019.841265) can1 19FA041C#C3D80EFFFFFFFFFF
(1708108019.842210) can1 04EF001C#2C5DC53B2CFDC59F
(1708108019.842993) can1 0CEF0017#812B8813CD0AFFFF
(1708108019.843559) can1 19FA041C#C40C0D020C7B9808
(1708108019.844301) can1 19FA041C#C5FFFFFFFFFF0D82
(1708108019.845294) can1 19FA041C#C6141847740EFFFF
(1708108019.846325) can1 19FA041C#C7FFFFFF0F9C182C
(1708108019.847329) can1 19FA041C#C8656810FFFFFFFF
(1708108019.848196) can1 0CF00400#FF7D7D000000FFFF
(1708108019.848796) can1 18FECA00#40FF00000000FFFF
(1708108019.849334) can1 19FA041C#C9FF10AF0096E100
(1708108019.850409) can1 19FA041C#CA00FFFFFFFFFF12
(1708108019.851358) can1 19FA041C#CBB61C3EC6CC10FF
(1708108019.852345) can1 04EF001C#0140014E0180018A
(1708108019.853207) can1 0CEF0100#B020000000625400
(1708108019.853780) can1 18E8FF00#02FFFFFFFF00EF00
(1708108019.854349) can1 19FA041C#CCFFFFFFFF14D313
(1708108019.855457) can1 19FA041C#CD2E22E40CFFFFFF
(1708108019.856442) can1 19FA041C#CEFFFF174E0C2099
(1708108019.857450) can1 19FA041C#CF9808FFFFFFFFFF
(1708108019.858199) can1 18FEF200#0000FFFFFFFF37FF
(1708108019.858763) can1 19FA041C#D0199F0B168AFC08
(1708108019.859488) can1 19FA041C#D1FFFFFFFFFF1AFD
(1708108019.860474) can1 19FA041C#D20C14CDD80EFFFF
(1708108019.861509) can1 19FA041C#D3FFFFFF1D283CC2
(1708108019.862420) can1 04EF001C#B942AC8CB9A2AC68
(1708108019.863019) can1 18FF1CF3#0000000000000000
(1708108019.863591) can1 19FA041C#D4976810FFFFFFFF
(1708108019.864504) can1 19FA041C#D5FF2CB61CFC8530
(1708108019.865531) can1 19FA041C#D611FFFFFFFFFF30
(1708108019.866532) can1 19FA041C#D7A91A308E3C0FFF
(1708108019.867563) can1 19FA041C#D8FFFFFFFFFFFFFF
(1708108019.868189) can1 0CF00400#FF7D7D000000FFFF
(1708108019.868740) can1 0CEF1100#DFAD92065C82E6F9
(1708108019.872540) can1 04EF001C#3844198239441886
(1708108019.873188) can1 18FFDC00#A014010000507B19
(1708108019.873785) can1 0CEF0100#B020000000625400
(1708108019.878197) can1 18FFDC00#A100000000A4FFA3
(1708108019.878803) can1 0CF00300#CF004FFF00FFFFFF
(1708108019.882649) can1 04EF001C#F746C0F8F606C1BC
(1708108019.883241) can1 18FFDC00#A2FFFF6E921B00FF
(1708108019.886175) can1 15FD069B#CFF873FFFFFFFFFF
(1708108019.888190) can1 0CF00400#FF7D7D000000FFFF
(1708108019.892743) can1 04EF001C#B749FAF7B609FBB3
(1708108019.893328) can1 0CEF0100#B020000000625400
(1708108019.898194) can1 18FEF100#FF0000F5FF11DFFF
(1708108019.902868) can1 04EF001C#774C14F2766C15D6
(1708108019.908196) can1 0CF00400#FF7D7D000000FFFF
(1708108019.912964) can1 04EF001C#374F4EF137AF4E15
(1708108019.913542) can1 0CEF0100#B020000000625400
(1708108019.918177) can1 0CEF1100#F7D87158E185910C
(1708108019.922542) can1 18FF1080#000000FFFFFFFD00
(1708108019.923092) can1 04EF001C#F5517AFFF5F17A5B
(1708108019.923683) can1 0CEF0017#812B8813CD0AFFFF
(1708108019.924264) can1 18FF1180#0300FBFDFFFF00FF
(1708108019.924891) can1 18FFDC00#C014010000507B19
(1708108019.928087) can1 18FF2117#06FFFFFF00FFFFFF
(1708108019.928703) can1 0CF00300#CF004FFF00FFFFFF
(1708108019.929229) can1 0CF00400#FF7D7D000000FFFF
(1708108019.929799) can1 18FFDC00#C100000000A4FFA3
(1708108019.933174) can1 18FFDC00#C2FFFF6E921B00FF
(1708108019.933756) can1 04EF001C#B75412EAB734128E
(1708108019.934318) can1 09F20000#000000FFFFFFFFFF
(1708108019.935022) can1 0CEF0100#B020000000625400
(1708108019.935513) can1 18E8FF00#02FFFFFFFF00EF00
(1708108019.943033) can1 0CEA1C00#00EE000000000000
(1708108019.943569) can1 04EF001C#7757CCE97777CCCD
(1708108019.944363) can1 18EEFF1C#0204450E00000042
(1708108019.948191) can1 0CF00400#FF7D7D000000FFFF
(1708108019.953205) can1 0CEF0100#B020000000625400
(1708108019.953759) can1 04EF001C#355AE4F4CABD1B17
(1708108019.958195) can1 18FEF200#0000FFFFFFFF37FF
(1708108019.963041) can1 18FF1CF3#0000000000000000
(1708108019.963625) can1 04EF001C#F55C12F20AFBED51
(1708108019.968200) can1 0CF00400#FF7D7D000000FFFF
(1708108019.968727) can1 0CEF1100#B3DF9A7935C65EAF
(1708108019.973194) can1 18FFDC00#E014010000507B19
(1708108019.973739) can1 04EF001C#B55F48F14A38B792
(1708108019.974328) can1 0CEF0100#B020000000625400
(1708108019.978191) can1 18FFDC00#E100000000A4FFA3
(1708108019.978797) can1 0CF00300#CF004FFF00FFFFFF
(1708108019.979832) can1 18FF1C17#0000000000000000
(1708108019.983182) can1 18FFDC00#E2FFFF6E921B00FF
(1708108019.983801) can1 04EF001C#754266EC8A6599CF
(1708108019.988199) can1 0CF00400#FF7D7D000000FFFF
(1708108019.993204) can1 0CEF0100#B020000000625400
(1708108019.993897) can1 04EF001C#35451CEBCBA2E208
(1708108019.998197) can1 18FEF100#FF0000F5FF11DFFF
(1708108020.003005) can1 0CEF0017#812B8813CD0AFFFF
(1708108020.003986) can1 04EF001C#5F481DB6A1CFE335
(1708108020.008201) can1 0CF00400#FF7D7D000000FFFF
(1708108020.013203) can1 0CEF0100#B020000000625400
(1708108020.013817) can1 18E8FF00#02FFFFFFFF00EF00
(1708108020.014357) can1 04EF001C#3B4B6295C50C9CD6
(1708108020.018174) can1 0CEF1100#64CDB905611911CD
(1708108020.023198) can1 18FFDC00#0014010000507B19
(1708108020.023806) can1 18FF1080#000000FFFFFFFD00
(1708108020.024343) can1 04EF001C#E14D8E431F6A7060
(1708108020.024909) can1 18FF1180#0300FBFDFFFF00FF
(1708108020.026520) can1 18FF1380#000000003FC0C006
(1708108020.028179) can1 18FFDC00#0100000000A4FFA3
(1708108020.028745) can1 0CF00300#CF004FFF00FFFFFF
(1708108020.029326) can1 0CF00400#FF7D7D000000FFFF
(1708108020.033174) can1 18FFDC00#02FFFF6E921B00FF
(1708108020.033788) can1 09F20000#000000FFFFFFFFFF
(1708108020.034374) can1 0CEF0100#B020000000625400
(1708108020.034940) can1 04EF001C#2D51A43FD3765A1C
(1708108020.044459) can1 04EF001C#7D53E6BD8374189E
(1708108020.048192) can1 0CF00400#FF7D7D000000FFFF
(1708108020.053201) can1 0CEF0100#B020000000625400
(1708108020.054562) can1 04EF001C#4956FB18B731057B
(1708108020.058195) can1 18FEF200#0000FFFFFFFF37FF
(1708108020.064671) can1 04EF001C#0559CD77FBDE33F4
(1708108020.068184) can1 0CF00400#FF7D7D000000FFFF
(1708108020.068721) can1 0CEF1100#2BCDA8BD0C556167
(1708108020.073201) can1 18FFDC00#2014010000507B19
(1708108020.073821) can1 0CEF0100#B020000000625400
(1708108020.074797) can1 04EF001C#5C5B86BDA29C787E
(1708108020.078205) can1 18FFDC00#2100000000A4FFA3
(1708108020.078760) can1 0CF00300#CF004FFF00FFFFFF
(1708108020.083047) can1 18FF1CF3#0000000000000000
(1708108020.083595) can1 18FFDC00#22FFFF6E921B00FF
(1708108020.084892) can1 04EF001C#1A5EEA88E4B9146B
(1708108020.088185) can1 0CF00400#FF7D7D000000FFFF
(1708108020.093207) can1 0CEF0100#B020000000625400
(1708108020.094972) can1 04EF001C#EC40EB2613471425
(1708108020.098201) can1 18FEF100#FF0000F5FF11DFFF
(1708108020.103021) can1 0CEF0017#812B8813CD0AFFFF
(1708108020.105086) can1 04EF001C#7843638587649CA6
(1708108020.108185) can1 0CF00400#FF7D7D000000FFFF
(1708108020.113203) can1 0CEF0100#B020000000625400
(1708108020.113798) can1 18E8FF00#02FFFFFFFF00EF00
(1708108020.115229) can1 04EF001C#9346A7D86CC1585B
(1708108020.118183) can1 0CEF1100#D0F3E1AB00D2E7CC
(1708108020.123193) can1 18FFDC00#4014010000507B19
(1708108020.123778) can1 18FF1080#000000FFFFFFFD00
(1708108020.124526) can1 18FF1180#0300FBFDFFFF00FF
(1708108020.125355) can1 04EF001C#2B496217D48E9DD4
(1708108020.128176) can1 18FFDC00#4100000000A4FFA3
(1708108020.128750) can1 0CF00300#CF004FFF00FFFFFF
(1708108020.129326) can1 0CF00400#FF7D7D000000FFFF
(1708108020.133165) can1 18FFDC00#42FFFF6E921B00FF
(1708108020.133768) can1 09F20000#000000FFFFFFFFFF
(1708108020.134381) can1 0CEF0100#B020000000625400
(1708108020.135436) can1 04EF001C#EC4BB32DEC4BB329
(1708108020.138209) can1 09F20100#C016000200FFFFCB
(1708108020.143052) can1 18FF1CF3#0000000000000000
(1708108020.143598) can1 09F20100#C172C90400006E92
(1708108020.144194) can1 18FEE500#36270000FFFFFFFF
(1708108020.145580) can1 04EF001C#9D4EE9A09DCEE924
(1708108020.148190) can1 0CF00400#FF7D7D000000FFFF
(1708108020.148782) can1 09F20100#C21B00FFFFFFFF00
(1708108020.149346) can1 18FEEE00#3DFFFFFFFFFF42FF
(1708108020.153188) can1 09F20100#C30100FFFFFFFFFF
(1708108020.153788) can1 0CEF0100#B020000000625400
(1708108020.154367) can1 18FEEF00#FFFFFF00FFFFFFFF
(1708108020.155683) can1 04EF001C#93511FCF93911F0B
(1708108020.158194) can1 18FEF200#0000FFFFFFFF37FF
(1708108020.163027) can1 0CEF0017#812B8813CD0AFFFF
(1708108020.163633) can1 18FEF700#FFFF1A01F500F600
(1708108020.165776) can1 04EF001C#2B548A0A2BB48AEE
(1708108020.168185) can1 0CF00400#FF7D7D000000FFFF
(1708108020.168765) can1 0CEF1100#91F163E3609A348E
(1708108020.173190) can1 18FFDC00#6014010000507B19
(1708108020.173810) can1 0CEF0100#B020000000625400
(1708108020.174375) can1 18E8FF00#02FFFFFFFF00EF00
(1708108020.175895) can1 04EF001C#1057A8D11177A9F5
(1708108020.178189) can1 18FFDC00#6100000000A4FFA3
(1708108020.178779) can1 0CF00300#CF004FFF00FFFFFF
(1708108020.179826) can1 18FF1C17#0000000000000000
(1708108020.183163) can1 18FFDC00#62FFFF6E921B00FF
(1708108020.183756) can1 0CEF1700#01AB8813CD0AFFFF
(1708108020.185993) can1 04EF001C#AB596607AA396763
(1708108020.188187) can1 0CF00400#FF7D7D000000FFFF
(1708108020.188784) can1 18FEFC00#FFA3FFFFFFFFFFFF
(1708108020.193204) can1 0CEF0100#B020000000625400
(1708108020.193825) can1 18FEF600#FFFF3D2AFFFFFFFF
(1708108020.196080) can1 04EF001C#6B5C88026A3C8966
(1708108020.198203) can1 18FEF100#FF0000F5FF11DFFF
(1708108020.206228) can1 04EF001C#855F797184DF78F5
(1708108020.208191) can1 0CF00400#FF7D7D000000FFFF
(1708108020.213207) can1 0CEF0100#B020000000625400
(1708108020.216343) can1 04EF001C#2142304C20223128
(1708108020.218170) can1 0CEF1100#7FE207173839D5CF
(1708108020.223189) can1 18FFDC00#8014010000507B19
(1708108020.224540) can1 18FF1080#000000FFFFFFFD00
(1708108020.225519) can1 18FF1180#0300FBFDFFFF00FF
(1708108020.226443) can1 04EF001C#05452D6B04252C0F
(1708108020.227050) can1 18FF1380#000000003FC0C006
(1708108020.228173) can1 18FFDC00#8100000000A4FFA3
(1708108020.228760) can1 0CF00300#CF004FFF00FFFFFF
(1708108020.229330) can1 0CF00400#FF7D7D000000FFFF
(1708108020.233175) can1 18FFDC00#82FFFF6E921B00FF
(1708108020.233806) can1 09F20000#000000FFFFFFFFFF
(1708108020.234366) can1 0CEF0100#B020000000625400
(1708108020.236564) can1 04EF001C#FC47C3A1FD07C2E5
(1708108020.243027) can1 0CEF0017#812B8813CD0AFFFF
(1708108020.246673) can1 04EF001C#614A3244602A3320
(1708108020.248189) can1 0CF00400#FF7D7D000000FFFF
(1708108020.253201) can1 0CEF0100#B020000000625400
(1708108020.253810) can1 18E8FF00#02FFFFFFFF00EF00
(1708108020.256772) can1 04EF001C#444D2E6B45CD2FEF
(1708108020.258200) can1 18FEF200#0000FFFFFFFF37FF
(1708108020.263061) can1 18FF1CF3#0000000000000000
(1708108020.266899) can1 04EF001C#0650866607D087E2
(1708108020.268186) can1 0CF00400#FF7D7D000000FFFF
(1708108020.268843) can1 0CEF1100#3BE1CC37E57B1225
(1708108020.273191) can1 18FFDC00#A014010000507B19
(1708108020.273811) can1 0CEF0100#B020000000625400
(1708108020.277000) can1 04EF001C#3652A7E43732A680
(1708108020.278185) can1 18FFDC00#A100000000A4FFA3
(1708108020.278763) can1 0CF00300#CF004FFF00FFFFFF
(1708108020.283185) can1 18FFDC00#A2FFFF6E921B00FF
(1708108020.285869) can1 0DF50B9B#E6FFFFFFFF0000FF
(1708108020.287106) can1 04EF001C#F8545F92F9745EB6
(1708108020.288188) can1 0CF00400#FF7D7D000000FFFF
(1708108020.293204) can1 0CEF0100#B020000000625400
(1708108020.297204) can1 04EF001C#B55708F9B597083D
(1708108020.298194) can1 18FEF100#FF0000F5FF11DFFF
(1708108020.307316) can1 04EF001C#765AA5EC763AA588
(1708108020.308194) can1 0CF00400#FF7D7D000000FFFF
(1708108020.313205) can1 0CEF0100#B020000000625400
(1708108020.317455) can1 04EF001C#345DDDFB347DDDDF
(1708108020.318165) can1 0CEF1100#87902EC8757021B9
(1708108020.319556) can1 09F8021C#93FC88120600FFFF
(1708108020.320555) can1 09F8011C#466D2618346B5BC1
(1708108020.321489) can1 19FA031C#93D252009D006500
(1708108020.322489) can1 0DF0101C#93F0A34D90A9BD2B
(1708108020.323081) can1 0CEF0017#812B8813CD0AFFFF
(1708108020.323645) can1 18FEE81C#980D00002064427E
(1708108020.324241) can1 18FFDC00#C014010000507B19
(1708108020.324879) can1 18FF1080#000000FFFFFFFD00
(1708108020.325334) can1 19FA041C#E0AB93FF0E017512
(1708108020.325922) can1 18FF1180#0300FBFDFFFF00FF
(1708108020.326602) can1 19FA041C#E1FAC8CC10FFFFFF
(1708108020.327548) can1 04EF001C#A540A06E5A875FAD
(1708108020.328182) can1 18FFDC00#C100000000A4FFA3
(1708108020.328749) can1 0CF00300#CF004FFF00FFFFFF
(1708108020.329333) can1 0CF00400#FF7D7D000000FFFF
(1708108020.329889) can1 19FA041C#E2FFFF05F726D020
(1708108020.330674) can1 19FA041C#E3D80EFFFFFFFFFF
(1708108020.331654) can1 19FA041C#E40C0D020C7B9808
(1708108020.332668) can1 19FA041C#E5FFFFFFFFFF0D82
(1708108020.333290) can1 09F20000#000000FFFFFFFFFF
(1708108020.333877) can1 0CEF0100#B020000000625400
(1708108020.334439) can1 18E8FF00#02FFFFFFFF00EF00
(1708108020.334994) can1 18FFDC00#C2FFFF6E921B00FF
(1708108020.335552) can1 19FA041C#E6141847740EFFFF
(1708108020.336718) can1 19FA041C#E7FFFFFF0F9C182C
(1708108020.337661) can1 04EF001C#65437E6D9AC481EE
(1708108020.338739) can1 19FA041C#E8656810FFFFFFFF
(1708108020.339731) can1 19FA041C#E9FF10AF0096E100
(1708108020.340757) can1 19FA041C#EA00FFFFFFFFFF12
(1708108020.341756) can1 19FA041C#EBB61C3EC6CC10FF
(1708108020.342778) can1 19FA041C#ECFFFFFFFF14D313
(1708108020.343363) can1 18FF1CF3#0000000000000000
(1708108020.343946) can1 19FA041C#ED2E22E40CFFFFFF
(1708108020.344791) can1 19FA041C#EEFFFF174E0C2099
(1708108020.345818) can1 19FA041C#EF9808FFFFFFFFFF
(1708108020.346818) can1 19FA041C#F0199F0B168AFC08
(1708108020.347782) can1 04EF001C#304601C0CF21FEA3
(1708108020.348360) can1 0CF00400#FF7D7D000000FFFF
(1708108020.348946) can1 19FA041C#F1FFFFFFFFFF1AFD
(1708108020.349971) can1 19FA041C#F20C14CDD80EFFFF
(1708108020.350875) can1 19FA041C#F3FFFFFF1D283CC2
(1708108020.351874) can1 19FA041C#F4976810FFFFFFFF
(1708108020.352931) can1 19FA041C#F5FF2CB61CFC85CC
(1708108020.353460) can1 0CEF0100#B020000000625400
(1708108020.354035) can1 19FA041C#F610FFFFFFFFFF30
(1708108020.354926) can1 19FA041C#F7A91A308E0410FF
(1708108020.355926) can1 19FA041C#F8FFFFFFFFFFFFFF
(1708108020.357888) can1 04EF001C#344875EECB2F8A8D
(1708108020.358488) can1 18FEF200#0000FFFFFFFF37FF
(1708108020.368001) can1 04EF001C#F54AA2E40A6D5DC7
(1708108020.368527) can1 0CEF1100#DE8A6A462F13AD2C
(1708108020.369157) can1 0CF00400#FF7D7D000000FFFF
(1708108020.373194) can1 18FFDC00#E014010000507B19
(1708108020.373774) can1 0CEF0100#B020000000625400
(1708108020.378109) can1 04EF001C#B44DD9EB4AAA2708
(1708108020.378709) can1 0CF00300#CF004FFF00FFFFFF
(1708108020.379260) can1 18FFDC00#E100000000A4FFA3
(1708108020.383176) can1 18FFDC00#E2FFFF6E921B00FF
(1708108020.384147) can1 15FD069B#D0F973FFFFFFFFFF
(1708108020.388183) can1 0CF00400#FF7D7D000000FFFF
(1708108020.388772) can1 04EF001C#7650F5E688D70B65
(1708108020.393204) can1 0CEF0100#B020000000625400
(1708108020.398199) can1 18FEF100#FF0000F5FF11DFFF
(1708108020.398732) can1 04EF001C#3753AEEDC91450AE
(1708108020.403044) can1 0CEF0017#812B8813CD0AFFFF
(1708108020.408194) can1 0CF00400#FF7D7D000000FFFF
(1708108020.408840) can1 04EF001C#5E56ECA0A0711283
(1708108020.413200) can1 0CEF0100#B020000000625400
(1708108020.413799) can1 18E8FF00#02FFFFFFFF00EF00
(1708108020.418165) can1 0CEF1100#2ABB98EB3D8A18B4
(1708108020.418717) can1 04EF001C#1E59D6AFE05E28AC
(1708108020.423205) can1 18FFDC00#0014010000507B19
(1708108020.425546) can1 18FF1080#000000FFFFFFFD00
(1708108020.426527) can1 18FF1180#0300FBFDFFFF00FF
(1708108020.427536) can1 18FF1380#000000003FC0C006
(1708108020.428180) can1 18FFDC00#0100000000A4FFA3
(1708108020.428755) can1 04EF001C#075CE762F97B1941
(1708108020.429332) can1 0CF00300#CF004FFF00FFFFFF
(1708108020.429904) can1 0CF00400#FF7D7D000000FFFF
(1708108020.433177) can1 18FFDC00#02FFFF6E921B00FF
(1708108020.433770) can1 09F20000#000000FFFFFFFFFF
(1708108020.434375) can1 0CEF0100#B020000000625400
(1708108020.438816) can1 04EF001C#A25E57485C39A92B
(1708108020.443071) can1 18FF1CF3#0000000000000000
(1708108020.448170) can1 18FF1C17#0000000000000000
(1708108020.448786) can1 0CF00400#FF7D7D000000FFFF
(1708108020.449337) can1 04EF001C#5F4155BFA186AB7C
(1708108020.453200) can1 0CEF0100#B020000000625400
(1708108020.458195) can1 18FEF200#0000FFFFFFFF37FF
(1708108020.459023) can1 04EF001C#4544676ABA439869
(1708108020.468190) can1 0CF00400#FF7D7D000000FFFF
(1708108020.468757) can1 0CEF1100#76B8550B58FF649F
(1708108020.469282) can1 04EF001C#E146D6481EC129CB
(1708108020.473196) can1 18FFDC00#2014010000507B19
(1708108020.473833) can1 0CEF0100#B020000000625400
(1708108020.478192) can1 18FFDC00#2100000000A4FFA3
(1708108020.478785) can1 0CF00300#CF004FFF00FFFFFF
(1708108020.479324) can1 04EF001C#37497EF7C88E8134
(1708108020.483048) can1 0CEF0017#812B8813CD0AFFFF
(1708108020.483593) can1 18FFDC00#22FFFF6E921B00FF
(1708108020.488198) can1 0CF00400#FF7D7D000000FFFF
(1708108020.489356) can1 04EF001C#F84BA78D07AC586E
(1708108020.493204) can1 0CEF0100#B020000000625400
(1708108020.493792) can1 18E8FF00#02FFFFFFFF00EF00
(1708108020.498202) can1 18FEF100#FF0000F5FF11DFFF
(1708108020.499451) can1 04EF001C#DD4EABA0DD6EAB84
(1708108020.508189) can1 0CF00400#FF7D7D000000FFFF
(1708108020.509572) can1 04EF001C#9D5111BF9D3111DB
(1708108020.513205) can1 0CEF0100#B020000000625400
(1708108020.518168) can1 0CEF1100#A1AA76770C202BFD
(1708108020.519688) can1 04EF001C#5C54FEB25C94FE76
(1708108020.523191) can1 18FFDC00#4014010000507B19
(1708108020.525547) can1 18FF1080#000000FFFFFFFD00
(1708108020.526526) can1 18FF1180#0300FBFDFFFF00FF
(1708108020.528179) can1 18FFDC00#4100000000A4FFA3
(1708108020.528746) can1 0CF00300#CF004FFF00FFFFFF
(1708108020.529324) can1 0CF00400#FF7D7D000000FFFF
(1708108020.529874) can1 04EF001C#5557EFF95457EEFD
(1708108020.533170) can1 18FFDC00#42FFFF6E921B00FF
(1708108020.533772) can1 09F20000#000000FFFFFFFFFF
(1708108020.534379) can1 0CEF0100#B020000000625400
(1708108020.539886) can1 04EF001C#B7597AE7B6197BA3
(1708108020.543088) can1 18FF1CF3#0000000000000000
(1708108020.548194) can1 0CF00400#FF7D7D000000FFFF
(1708108020.550020) can1 04EF001C#AD5C4832AC9C49F6
(1708108020.553205) can1 0CEF0100#B020000000625400
(1708108020.558196) can1 18FEF200#0000FFFFFFFF37FF
(1708108020.560112) can1 04EF001C#6B5F90016A9F91C5
(1708108020.563058) can1 0CEF0017#812B8813CD0AFFFF
(1708108020.568193) can1 0CF00400#FF7D7D000000FFFF
(1708108020.568718) can1 0CEF1100#E6AE458EDE6514AE
(1708108020.570233) can1 04EF001C#514243CC502242A8
(1708108020.573189) can1 18FFDC00#6014010000507B19
(1708108020.573802) can1 0CEF0100#B020000000625400
(1708108020.574383) can1 18E8FF00#02FFFFFFFF00EF00
(1708108020.578195) can1 18FFDC00#6100000000A4FFA3
(1708108020.578792) can1 0CF00300#CF004FFF00FFFFFF
(1708108020.580327) can1 04EF001C#4845620349456307
(1708108020.583166) can1 18FFDC00#62FFFF6E921B00FF
(1708108020.588191) can1 0CF00400#FF7D7D000000FFFF
(1708108020.590437) can1 04EF001C#A9479409A98794CD
(1708108020.593203) can1 0CEF0100#B020000000625400
(1708108020.598197) can1 18FEF100#FF0000F5FF11DFFF
(1708108020.600548) can1 04EF001C#6B4A38146BCA3890
(1708108020.608198) can1 0CF00400#FF7D7D000000FFFF
(1708108020.610688) can1 04EF001C#BE4DD3BBBE2DD3DF
(1708108020.613203) can1 0CEF0100#B020000000625400
(1708108020.618165) can1 0CEF1100#DED87A50A186814C
(1708108020.620789) can1 04EF001C#4450C67644D0C6F2
(1708108020.623185) can1 18FFDC00#8014010000507B19
(1708108020.625549) can1 18FF1080#000000FFFFFFFD00
(1708108020.626529) can1 18FF1180#0300FBFDFFFF00FF
(1708108020.627538) can1 18FF1380#000000003FC0C006
(1708108020.628178) can1 18FFDC00#8100000000A4FFA3
(1708108020.628784) can1 0CF00300#CF004FFF00FFFFFF
(1708108020.629323) can1 0CF00400#FF7D7D000000FFFF
(1708108020.630914) can1 04EF001C#7953E29D7993E259
(1708108020.633173) can1 18FFDC00#82FFFF6E921B00FF
(1708108020.633766) can1 09F20000#000000FFFFFFFFFF
(1708108020.634382) can1 0CEF0100#B020000000625400
(1708108020.639784) can1 18FF1C17#0000000000000000
(1708108020.641024) can1 04EF001C#A1550C5BA0550D5F
(1708108020.643046) can1 0CEF0017#812B8813CD0AFFFF
(1708108020.648193) can1 0CF00400#FF7D7D000000FFFF
(1708108020.651138) can1 04EF001C#8558417684184032
(1708108020.653191) can1 18FEEF00#FFFFFF00FFFFFFFF
(1708108020.653774) can1 0CEF0100#B020000000625400
(1708108020.654350) can1 18E8FF00#02FFFFFFFF00EF00
(1708108020.658197) can1 18FEF200#0000FFFFFFFF37FF
(1708108020.661252) can1 04EF001C#225BFB4D23DBFAC9
(1708108020.663075) can1 18FF1CF3#0000000000000000
(1708108020.668195) can1 0CF00400#FF7D7D000000FFFF
(1708108020.668729) can1 0CEF1100#9FDC481946540633
(1708108020.671338) can1 04EF001C#E35D0C43E2FD0DE7
(1708108020.673189) can1 18FFDC00#A014010000507B19
(1708108020.673794) can1 0CEF0100#B020000000625400
(1708108020.678203) can1 18FFDC00#A100000000A4FFA3
(1708108020.678793) can1 0CF00300#CF004FFF00FFFFFF
(1708108020.681472) can1 04EF001C#374036FE36E0375A
(1708108020.683168) can1 18FFDC00#A2FFFF6E921B00FF
(1708108020.683760) can1 0CEF1700#01AB8813CD0AFFFF
(1708108020.688196) can1 0CF00400#FF7D7D000000FFFF
(1708108020.691550) can1 04EF001C#F542E2ECF422E388
(1708108020.693203) can1 0CEF0100#B020000000625400
(1708108020.693806) can1 18FEF600#FFFF3D2AFFFFFFFF
(1708108020.698196) can1 18FEF100#FF0000F5FF11DFFF
(1708108020.701673) can1 04EF001C#B44599E3B50598A7
(1708108020.708196) can1 0CF00400#FF7D7D000000FFFF
(1708108020.711789) can1 04EF001C#764835FE770834BA
(1708108020.713202) can1 0CEF0100#B020000000625400
(1708108020.718197) can1 0CEF1100#4ECE6AD5930624DD
(1708108020.721901) can1 04EF001C#374B6EF536CB6F71
(1708108020.723053) can1 0CEF0017#812B8813CD0AFFFF
(1708108020.723630) can1 18FFDC00#C014010000507B19
(1708108020.726555) can1 18FF1080#000000FFFFFFFD00
(1708108020.727518) can1 18FF1180#0300FBFDFFFF00FF
(1708108020.728185) can1 18FFDC00#C100000000A4FFA3
(1708108020.728767) can1 0CF00300#CF004FFF00FFFFFF
(1708108020.729359) can1 0CF00400#FF7D7D000000FFFF
(1708108020.732005) can1 04EF001C#F74D98F3F6AD9917
(1708108020.733171) can1 18FFDC00#C2FFFF6E921B00FF
(1708108020.733788) can1 09F20000#000000FFFFFFFFFF
(1708108020.734389) can1 0CEF0100#B020000000625400
(1708108020.734943) can1 18E8FF00#02FFFFFFFF00EF00
(1708108020.742147) can1 04EF001C#B65033E6B41031A2
(1708108020.748196) can1 0CF00400#FF7D7D000000FFFF
(1708108020.752221) can1 04EF001C#7753ECED75D3EE69
(1708108020.753207) can1 0CEF0100#B020000000625400
(1708108020.758197) can1 18FEF200#0000FFFFFFFF37FF
(1708108020.762346) can1 04EF001C#375686E83596842C
(1708108020.768195) can1 0CF00400#FF7D7D000000FFFF
(1708108020.768774) can1 0CEF1100#7EC34F567233C7D7
(1708108020.772451) can1 04EF001C#F75830E6F5983222
(1708108020.773195) can1 18FFDC00#E014010000507B19
(1708108020.773804) can1 0CEF0100#B020000000625400
(1708108020.778192) can1 18FFDC00#E100000000A4FFA3
(1708108020.778747) can1 0CF00300#CF004FFF00FFFFFF
(1708108020.782576) can1 04EF001C#B65B6BEDB4FB6949
(1708108020.783710) can1 18FF1CF3#0000000000000000
(1708108020.784298) can1 18FFDC00#E2FFFF6E921B00FF
(1708108020.788188) can1 0CF00400#FF7D7D000000FFFF
(1708108020.792665) can1 04EF001C#775E84E0759E8624
(1708108020.793254) can1 0CEF0100#B020000000625400
(1708108020.798195) can1 18FEF100#FF0000F5FF11DFFF
(1708108020.802811) can1 04EF001C#C541CB6FC7E1C9CB
(1708108020.803352) can1 0CEF0017#812B8813CD0AFFFF
(1708108020.808197) can1 0CF00400#FF7D7D000000FFFF
(1708108020.812903) can1 04EF001C#69444A0A6B8448CE
(1708108020.813485) can1 0CEF0100#B020000000625400
(1708108020.814064) can1 18E8FF00#02FFFFFFFF00EF00
(1708108020.818180) can1 0CEF1100#07FD22D0DF1044F1
(1708108020.823031) can1 04EF001C#2047194122A71BA5
(1708108020.823633) can1 18FFDC00#0014010000507B19
(1708108020.826095) can1 09F8021C#94FC88120400FFFF
(1708108020.826675) can1 18FF1080#000000FFFFFFFD00
(1708108020.827267) can1 09F8011C#4A6D26183A6B5BC1
(1708108020.827813) can1 18FF1180#0300FBFDFFFF00FF
(1708108020.828365) can1 0CF00300#CF004FFF00FFFFFF
(1708108020.828948) can1 0CF00400#FF7D7D000000FFFF
(1708108020.829552) can1 18FF1380#000000003FC0C006
(1708108020.830162) can1 18FFDC00#0100000000A4FFA3
(1708108020.830662) can1 19FA031C#94D252009D006500
(1708108020.832116) can1 0DF0101C#94F0A34D90A9BD2B
(1708108020.833140) can1 04EF001C#474A1574458A17B0
(1708108020.833759) can1 09F20000#000000FFFFFFFFFF
(1708108020.834318) can1 0CEF0100#B020000000625400
(1708108020.834881) can1 18FEE81C#980D00002064417E
(1708108020.835516) can1 18FFDC00#02FFFF6E921B00FF
(1708108020.838305) can1 19FA041C#00AB94FF0E017512
(1708108020.839286) can1 19FA041C#01FAC83011FFFFFF
(1708108020.839897) can1 18FF1C17#0000000000000000
(1708108020.840495) can1 19FA041C#02FFFF05F726D020
(1708108020.841377) can1 19FA041C#033C0FFFFFFFFFFF
(1708108020.842315) can1 19FA041C#040C0D020C7B3408
(1708108020.843154) can1 18FF1CF3#0000000000000000
(1708108020.843725) can1 04EF001C#664D0D7B64CD0FFF
(1708108020.845368) can1 19FA041C#05FFFFFFFFFF0D82
(1708108020.846358) can1 19FA041C#06141847D80EFFFF
(1708108020.847373) can1 19FA041C#07FFFFFF0F9C182C
(1708108020.848188) can1 0CF00400#FF7D7D000000FFFF
(1708108020.848774) can1 18FECA00#40FF00000000FFFF
(1708108020.849344) can1 19FA041C#0865CC10FFFFFFFF
(1708108020.850437) can1 19FA041C#09FF10AF0096E100
(1708108020.851417) can1 19FA041C#0A00FFFFFFFFFF12
(1708108020.852408) can1 19FA041C#0BB61C3EC6CC10FF
(1708108020.853208) can1 0CEF0100#B020000000625400
(1708108020.853796) can1 04EF001C#4050C2564250C052
(1708108020.854471) can1 19FA041C#0CFFFFFFFF14D313
(1708108020.855468) can1 19FA041C#0D2E22E40CFFFFFF
(1708108020.856472) can1 19FA041C#0EFFFF174E0C2099
(1708108020.857488) can1 19FA041C#0F9808FFFFFFFFFF
(1708108020.858199) can1 18FEF200#0000FFFFFFFF37FF
(1708108020.858760) can1 19FA041C#10199F0B168A9808
(1708108020.859526) can1 19FA041C#11FFFFFFFFFF1AFD
(1708108020.860511) can1 19FA041C#120C14CD3C0FFFFF
(1708108020.861535) can1 19FA041C#13FFFFFF1D283CC2
(1708108020.862529) can1 19FA041C#14976810FFFFFFFF
(1708108020.863479) can1 04EF001C#F05267D4F1126690
(1708108020.864543) can1 19FA041C#15FF2CB61CFC85CC
(1708108020.865564) can1 19FA041C#1610FFFFFFFFFF30
(1708108020.866570) can1 19FA041C#17A91A308EA00FFF
(1708108020.867601) can1 19FA041C#18FFFFFFFFFFFFFF
(1708108020.868212) can1 0CF00400#FF7D7D000000FFFF
(1708108020.868740) can1 0CEF1100#C5F2AC43B9FCD745
(1708108020.873204) can1 18FFDC00#2014010000507B19
(1708108020.873811) can1 04EF001C#7654D5E276D4D566
(1708108020.874363) can1 0CEF0100#B020000000625400
(1708108020.878196) can1 18FFDC00#2100000000A4FFA3
(1708108020.878783) can1 0CF00300#CF004FFF00FFFFFF
(1708108020.882245) can1 15FD069B#D1F973FFFFFFFFFF
(1708108020.883085) can1 0CEF0017#812B8813CD0AFFFF
(1708108020.883652) can1 18FFDC00#22FFFF6E921B00FF
(1708108020.884180) can1 04EF001C#34578DF1CBB07212
(1708108020.888186) can1 0CF00400#FF7D7D000000FFFF
(1708108020.893208) can1 0CEF0100#B020000000625400
(1708108020.893819) can1 18E8FF00#02FFFFFFFF00EF00
(1708108020.894353) can1 04EF001C#F5593AF70A1EC5B4
(1708108020.898198) can1 18FEF100#FF0000F5FF11DFFF
(1708108020.903899) can1 04EF001C#B45C51FA4ABBAF19
(1708108020.908194) can1 0CF00400#FF7D7D000000FFFF
(1708108020.913206) can1 0CEF0100#B020000000625400
(1708108020.914038) can1 04EF001C#755F8EF18BD87072
(1708108020.918162) can1 0CEF1100#98ECC9EC55961761
(1708108020.923105) can1 0CEA1C00#00EE000000000000
(1708108020.923653) can1 18FFDC00#4014010000507B19
(1708108020.924201) can1 04EF001C#344225E4CA25DB87
(1708108020.925188) can1 18EEFF1C#0204450E00000042
(1708108020.927546) can1 18FF1080#000000FFFFFFFD00
(1708108020.928180) can1 18FFDC00#4100000000A4FFA3
(1708108020.928782) can1 0CF00300#CF004FFF00FFFFFF
(1708108020.929326) can1 0CF00400#FF7D7D000000FFFF
(1708108020.929971) can1 18FF1180#0300FBFDFFFF00FF
(1708108020.933176) can1 18FFDC00#42FFFF6E921B00FF
(1708108020.933788) can1 09F20000#000000FFFFFFFFFF
(1708108020.934329) can1 04EF001C#F944DE8A072320E9
(1708108020.934895) can1 0CEF0100#B020000000625400
(1708108020.943100) can1 18FF1CF3#0000000000000000
(1708108020.944351) can1 04EF001C#B44789E14A6077C2
(1708108020.948189) can1 0CF00400#FF7D7D000000FFFF
(1708108020.953207) can1 0CEF0100#B020000000625400
(1708108020.954475) can1 04EF001C#9A4ACE9C67AD337F
(1708108020.958212) can1 18FEF200#0000FFFFFFFF37FF
(1708108020.963065) can1 0CEF0017#812B8813CD0AFFFF
(1708108020.964569) can1 04EF001C#344D5DEBC9CAA068
(1708108020.968182) can1 0CF00400#FF7D7D000000FFFF
(1708108020.968720) can1 0CEF1100#52E3453F8572C365
(1708108020.973198) can1 18FFDC00#6014010000507B19
(1708108020.973805) can1 0CEF0100#B020000000625400
(1708108020.974355) can1 18E8FF00#02FFFFFFFF00EF00
(1708108020.974898) can1 04EF001C#1B509B8EE657668D
(1708108020.978192) can1 18FFDC00#6100000000A4FFA3
(1708108020.978795) can1 0CF00300#CF004FFF00FFFFFF
(1708108020.983169) can1 18FFDC00#62FFFF6E921B00FF
(1708108020.984799) can1 04EF001C#12538AC5EE947606
(1708108020.988181) can1 0CF00400#FF7D7D000000FFFF
(1708108020.993214) can1 0CEF0100#B020000000625400
(1708108020.994899) can1 04EF001C#D1557FDB2D3283B8
(1708108020.998197) can1 18FEF100#FF0000F5FF11DFFF
(1708108021.005039) can1 04EF001C#3458F5FEC8DF097D
(1708108021.008187) can1 0CF00400#FF7D7D000000FFFF
(1708108021.013203) can1 0CEF0100#B020000000625400
(1708108021.015139) can1 04EF001C#965B4AED6AFCB64E
(1708108021.018180) can1 0CEF1100#7C9287D0B0F9D155
(1708108021.023197) can1 18FFDC00#8014010000507B19
(1708108021.025268) can1 04EF001C#7C5E8FB880B9735B
(1708108021.027559) can1 18FF1080#000000FFFFFFFD00
(1708108021.028180) can1 18FFDC00#8100000000A4FFA3
(1708108021.028751) can1 0CF00300#CF004FFF00FFFFFF
(1708108021.029319) can1 0CF00400#FF7D7D000000FFFF
(1708108021.029967) can1 18FF1180#0300FBFDFFFF00FF
(1708108021.030566) can1 18FF1380#000000003FC0C006
(1708108021.033189) can1 18FFDC00#82FFFF6E921B00FF
(1708108021.033803) can1 09F20000#000000FFFFFFFFFF
(1708108021.034371) can1 0CEF0100#B020000000625400
(1708108021.035394) can1 04EF001C#3A413397C766CEB4
(1708108021.043072) can1 0CEF0017#812B8813CD0AFFFF
(1708108021.045501) can1 04EF001C#A043BD455D044006
(1708108021.048182) can1 0CF00400#FF7D7D000000FFFF
(1708108021.053215) can1 0CEF0100#B020000000625400
(1708108021.053811) can1 18E8FF00#02FFFFFFFF00EF00
(1708108021.055599) can1 04EF001C#F546C2E808813F2B
(1708108021.058208) can1 18FEF200#0000FFFFFFFF37FF
(1708108021.063108) can1 18FF1CF3#0000000000000000
(1708108021.065701) can1 04EF001C#45490F67BB4EF164
(1708108021.068187) can1 0CF00400#FF7D7D000000FFFF
(1708108021.068756) can1 0CEF1100#BA916860721E1EC2
(1708108021.073199) can1 18FFDC00#A014010000507B19
(1708108021.073810) can1 0CEF0100#B020000000625400
(1708108021.075815) can1 04EF001C#194C7982E7CB8701
(1708108021.078184) can1 18FFDC00#A100000000A4FFA3
(1708108021.078749) can1 0CF00300#CF004FFF00FFFFFF
(1708108021.083179) can1 18FFDC00#A2FFFF6E921B00FF
(1708108021.085912) can1 04EF001C#384E4988C749B68B
(1708108021.088183) can1 0CF00400#FF7D7D000000FFFF
(1708108021.093219) can1 0CEF0100#B020000000625400
(1708108021.096040) can1 04EF001C#F8507F9607D78015
(1708108021.098203) can1 18FEF100#FF0000F5FF11DFFF
(1708108021.099663) can1 18FF1C17#0000000000000000
(1708108021.106156) can1 04EF001C#B6532BE5B6532BE1
(1708108021.108183) can1 0CF00400#FF7D7D000000FFFF
(1708108021.113216) can1 0CEF0100#B020000000625400
(1708108021.116244) can1 04EF001C#7856CB9078D6CB14
(1708108021.118162) can1 0CEF1100#E880B674806AEDD5
(1708108021.123082) can1 0CEF0017#812B8813CD0AFFFF
(1708108021.123674) can1 18FFDC00#C014010000507B19
(1708108021.126369) can1 04EF001C#3759FEE73799FE23
(1708108021.128181) can1 18FFDC00#C100000000A4FFA3
(1708108021.128756) can1 0CF00300#CF004FFF00FFFFFF
(1708108021.129382) can1 0CF00400#FF7D7D000000FFFF
(1708108021.129969) can1 18FF1080#000000FFFFFFFD00
(1708108021.131543) can1 18FF1180#0300FBFDFFFF00FF
(1708108021.133183) can1 18FFDC00#C2FFFF6E921B00FF
(1708108021.133774) can1 09F20000#000000FFFFFFFFFF
(1708108021.134394) can1 0CEF0100#B020000000625400
(1708108021.134948) can1 18E8FF00#02FFFFFFFF00EF00
(1708108021.136483) can1 04EF001C#555CB7F2545CB6F6
(1708108021.138196) can1 09F20100#E016000100FFFFCB
(1708108021.143111) can1 18FF1CF3#0000000000000000
(1708108021.143671) can1 09F20100#E172C90400006E92
(1708108021.146601) can1 04EF001C#B75E42E0B67E43C4
(1708108021.148183) can1 0CF00400#FF7D7D000000FFFF
(1708108021.148858) can1 09F20100#E21B00FFFFFFFF00
(1708108021.149375) can1 18FEEE00#3DFFFFFFFFFF42FF
(1708108021.153203) can1 09F20100#E30100FFFFFFFFFF
(1708108021.153768) can1 0CEF0100#B020000000625400
(1708108021.154352) can1 18FEEF00#FFFFFF00FFFFFFFF
(1708108021.156690) can1 04EF001C#AC41A127AD01A063
(1708108021.158204) can1 18FEF200#0000FFFFFFFF37FF
(1708108021.163185) can1 18FEF700#FFFF1A01F500F600
(1708108021.166820) can1 04EF001C#364417F2374416F6
(1708108021.168185) can1 0CF00400#FF7D7D000000FFFF
(1708108021.168738) can1 0CEF1100#2085EA35F2925C43
(1708108021.173201) can1 18FFDC00#E014010000507B19
(1708108021.173806) can1 0CEF0100#B020000000625400
(1708108021.176913) can1 04EF001C#F546C2E8F466C3CC
(1708108021.178184) can1 18FFDC00#E100000000A4FFA3
(1708108021.178752) can1 0CF00300#CF004FFF00FFFFFF
(1708108021.183179) can1 18FFDC00#E2FFFF6E921B00FF
(1708108021.183765) can1 0CEF1700#01AB8813CD0AFFFF
(1708108021.187035) can1 04EF001C#B749FAF7B649FBF3
(1708108021.188186) can1 0CF00400#FF7D7D000000FFFF
(1708108021.188778) can1 18FEFC00#FFA3FFFFFFFFFFFF
(1708108021.193211) can1 0CEF0100#B020000000625400
(1708108021.193790) can1 18FEF600#FFFF3D2AFFFFFFFF
(1708108021.197144) can1 04EF001C#794C1A82786C1BA6
(1708108021.198195) can1 18FEF100#FF0000F5FF11DFFF
(1708108021.207321) can1 04EF001C#A14FDC41A00FDD05
(1708108021.208237) can1 0CF00400#FF7D7D000000FFFF
(1708108021.213206) can1 0CEF0100#B020000000625400
(1708108021.217379) can1 04EF001C#6252F1446312F000
(1708108021.218158) can1 0CEF1100#54B6AC9845AB4CF6
(1708108021.223199) can1 18FFDC00#0014010000507B19
(1708108021.227499) can1 04EF001C#4255E8434315E907
(1708108021.228180) can1 18FFDC00#0100000000A4FFA3
(1708108021.228771) can1 0CF00300#CF004FFF00FFFFFF
(1708108021.229363) can1 0CF00400#FF7D7D000000FFFF
(1708108021.229914) can1 18FF1080#000000FFFFFFFD00
(1708108021.231540) can1 18FF1180#0300FBFDFFFF00FF
(1708108021.232532) can1 18FF1380#000000003FC0C006
(1708108021.233189) can1 18FFDC00#02FFFF6E921B00FF
(1708108021.233793) can1 09F20000#000000FFFFFFFFFF
(1708108021.234357) can1 0CEF0100#B020000000625400
(1708108021.237610) can1 04EF001C#DE5760A1DF776185
(1708108021.243086) can1 0CEF0017#812B8813CD0AFFFF
(1708108021.247716) can1 04EF001C#9E5A4AAC9EBA4A48
(1708108021.248300) can1 0CF00400#FF7D7D000000FFFF
(1708108021.253206) can1 0CEF0100#B020000000625400
(1708108021.253770) can1 18E8FF00#02FFFFFFFF00EF00
(1708108021.257838) can1 04EF001C#835D6F4383FD6FE7
(1708108021.258455) can1 18FEF200#0000FFFFFFFF37FF
(1708108021.263126) can1 18FF1CF3#0000000000000000
(1708108021.267932) can1 04EF001C#1E401EB61E001EF2
(1708108021.268467) can1 0CEF1100#B7A8E347B91333D4
(1708108021.269078) can1 0CF00400#FF7D7D000000FFFF
(1708108021.273212) can1 18FFDC00#2014010000507B19
(1708108021.273811) can1 0CEF0100#B020000000625400
(1708108021.278033) can1 04EF001C#754266EC754266E8
(1708108021.278619) can1 0CF00300#CF004FFF00FFFFFF
(1708108021.279182) can1 18FFDC00#2100000000A4FFA3
(1708108021.281940) can1 0DF50B9B#E7FFFFFFFF0000FF
(1708108021.283089) can1 0CEF0017#812B8813CD0AFFFF
(1708108021.283657) can1 18FFDC00#22FFFF6E921B00FF
(1708108021.288157) can1 04EF001C#36451FF3C9A2E010
(1708108021.288756) can1 0CF00400#FF7D7D000000FFFF
(1708108021.293217) can1 0CEF0100#B020000000625400
(1708108021.293817) can1 18E8FF00#02FFFFFFFF00EF00
(1708108021.298197) can1 18FEF100#FF0000F5FF11DFFF
(1708108021.298796) can1 04EF001C#F847C781F847C785
(1708108021.299496) can1 18FF1C17#0000000000000000
(1708108021.308202) can1 0CF00400#FF7D7D000000FFFF
(1708108021.308739) can1 04EF001C#B64AE3FC49AD1C1F
(1708108021.313211) can1 0CEF0100#B020000000625400
(1708108021.318175) can1 0CEF1100#06DADA90AC810F24
(1708108021.318756) can1 04EF001C#784D138B87AAEC68
(1708108021.323192) can1 18FFDC00#4014010000507B19
(1708108021.328182) can1 18FFDC00#4100000000A4FFA3
(1708108021.328725) can1 04EF001C#3650B7E6C9F74845
(1708108021.329357) can1 0CF00300#CF004FFF00FFFFFF
(1708108021.329876) can1 0CF00400#FF7D7D000000FFFF
(1708108021.330468) can1 18FF1080#000000FFFFFFFD00
(1708108021.331532) can1 18FF1180#0300FBFDFFFF00FF
(1708108021.333183) can1 18FFDC00#42FFFF6E921B00FF
(1708108021.333795) can1 09F20000#000000FFFFFFFFFF
(1708108021.334351) can1 0CEF0100#B020000000625400
(1708108021.335715) can1 09F8021C#95FC88120400FFFF
(1708108021.336691) can1 09F8011C#506D26183E6B5BC1
(1708108021.337698) can1 19FA031C#95D252009D006500
(1708108021.338710) can1 04EF001C#4553DF7DBAF420DE
(1708108021.339719) can1 0DF0101C#95F0A34DA0D0BD2B
(1708108021.340750) can1 18FEE81C#980D000020643F7E
(1708108021.341816) can1 19FA041C#20AB95FF0E017512
(1708108021.342818) can1 19FA041C#21FAC89411FFFFFF
(1708108021.343411) can1 18FF1CF3#0000000000000000
(1708108021.343996) can1 19FA041C#22FFFF05F726D020
(1708108021.344857) can1 19FA041C#233C0FFFFFFFFFFF
(1708108021.345851) can1 19FA041C#240C0D020C7B3408
(1708108021.346863) can1 19FA041C#25FFFFFFFFFF0D82
(1708108021.347874) can1 19FA041C#26141847D80EFFFF
(1708108021.348453) can1 0CF00400#FF7D7D000000FFFF
(1708108021.348989) can1 04EF001C#6956DA1896D1259B
(1708108021.349929) can1 19FA041C#27FFFFFF0F9C182C
(1708108021.350903) can1 19FA041C#28656810FFFFFFFF
(1708108021.351903) can1 19FA041C#29FF10AF0096E100
(1708108021.352947) can1 19FA041C#2A00FFFFFFFFFF12
(1708108021.353518) can1 0CEF0100#B020000000625400
(1708108021.354078) can1 19FA041C#2BB61C3EC66810FF
(1708108021.354965) can1 19FA041C#2CFFFFFFFF14D313
(1708108021.355954) can1 19FA041C#2D2E22E40CFFFFFF
(1708108021.356976) can1 19FA041C#2EFFFF174E0C2099
(1708108021.357992) can1 19FA041C#2F9808FFFFFFFFFF
(1708108021.358573) can1 18FEF200#0000FFFFFFFF37FF
(1708108021.359140) can1 04EF001C#1B59D387E43E2CE4
(1708108021.360025) can1 19FA041C#30199F0B168A9808
(1708108021.361037) can1 19FA041C#31FFFFFFFFFF1AFD
(1708108021.362025) can1 19FA041C#320C14CDD80EFFFF
(1708108021.363039) can1 19FA041C#33FFFFFF1D283CC2
(1708108021.363594) can1 0CEF0017#812B8813CD0AFFFF
(1708108021.364172) can1 19FA041C#3497CC10FFFFFFFF
(1708108021.365057) can1 19FA041C#35FF2CB61CFC85CC
(1708108021.366079) can1 19FA041C#3610FFFFFFFFFF30
(1708108021.367070) can1 19FA041C#37A91A308E3C0FFF
(1708108021.368092) can1 19FA041C#38FFFFFFFFFFFFFF
(1708108021.368638) can1 0CEF1100#C7DECCD960687102
(1708108021.369191) can1 04EF001C#B65B6BED497C94CE
(1708108021.369772) can1 0CF00400#FF7D7D000000FFFF
(1708108021.373202) can1 18FFDC00#6014010000507B19
(1708108021.373798) can1 0CEF0100#B020000000625400
(1708108021.374376) can1 18E8FF00#02FFFFFFFF00EF00
(1708108021.378192) can1 18FFDC00#6100000000A4FFA3
(1708108021.378784) can1 0CF00300#CF004FFF00FFFFFF
(1708108021.379313) can1 04EF001C#F55D1AF30BBAE410
(1708108021.383176) can1 18FFDC00#62FFFF6E921B00FF
(1708108021.386773) can1 15FD069B#D2F973FFFFFFFFFF
(1708108021.388187) can1 0CF00400#FF7D7D000000FFFF
(1708108021.389275) can1 04EF001C#B440B1E64AA74F05
(1708108021.393211) can1 0CEF0100#B020000000625400
(1708108021.398192) can1 18FEF100#FF0000F5FF11DFFF
(1708108021.399396) can1 04EF001C#DF43C1BD21843F7E
(1708108021.407976) can1 18FF2117#06FFFFFF00FFFFFF
(1708108021.408562) can1 0CF00400#FF7D7D000000FFFF
(1708108021.409568) can1 04EF001C#C446F2603AA10C83
(1708108021.413211) can1 0CEF0100#B020000000625400
(1708108021.418168) can1 0CEF1100#9EC8E8549F09E8BC
(1708108021.419644) can1 04EF001C#8849C40F776E3B2C
(1708108021.423198) can1 18FFDC00#8014010000507B19
(1708108021.428189) can1 18FFDC00#8100000000A4FFA3
(1708108021.428781) can1 0CF00300#CF004FFF00FFFFFF
(1708108021.429323) can1 0CF00400#FF7D7D000000FFFF
(1708108021.429926) can1 04EF001C#6B4C0812946BF731
(1708108021.430494) can1 18FF1080#000000FFFFFFFD00
(1708108021.431537) can1 18FF1180#0300FBFDFFFF00FF
(1708108021.432562) can1 18FF1380#000000003FC0C006
(1708108021.433178) can1 18FFDC00#82FFFF6E921B00FF
(1708108021.433782) can1 09F20000#000000FFFFFFFFFF
(1708108021.434385) can1 0CEF0100#B020000000625400
(1708108021.439843) can1 04EF001C#034F7B51FC088412
(1708108021.448196) can1 0CF00400#FF7D7D000000FFFF
(1708108021.449932) can1 04EF001C#D75159EF2876A6CC
(1708108021.453210) can1 0CEF0100#B020000000625400
(1708108021.458209) can1 18FEF200#0000FFFFFFFF37FF
(1708108021.460073) can1 04EF001C#BA541F824553E081
(1708108021.468189) can1 0CF00400#FF7D7D000000FFFF
(1708108021.468724) can1 0CEF1100#5FCCFE1DEDE19B6A
(1708108021.470177) can1 04EF001C#A1571C595E50E35A
(1708108021.473203) can1 18FFDC00#A014010000507B19
(1708108021.473794) can1 0CEF0100#B020000000625400
(1708108021.478198) can1 18FFDC00#A100000000A4FFA3
(1708108021.478762) can1 0CF00300#CF004FFF00FFFFFF
(1708108021.480285) can1 04EF001C#D4591AFF2ABEE41C
(1708108021.483100) can1 0CEF0017#812B8813CD0AFFFF
(1708108021.483708) can1 18FFDC00#A2FFFF6E921B00FF
(1708108021.488197) can1 0CF00400#FF7D7D000000FFFF
(1708108021.490372) can1 04EF001C#6B5C8802959B76C1
(1708108021.493211) can1 0CEF0100#B020000000625400
(1708108021.493819) can1 18E8FF00#02FFFFFFFF00EF00
(1708108021.498195) can1 18FEF100#FF0000F5FF11DFFF
(1708108021.500495) can1 04EF001C#2B5FD201D4582D02
(1708108021.503126) can1 18FF1CF3#0000000000000000
(1708108021.508200) can1 0CF00400#FF7D7D000000FFFF
(1708108021.510605) can1 04EF001C#EB41E41F14061B5C
(1708108021.513215) can1 0CEF0100#B020000000625400
(1708108021.518166) can1 0CEF1100#2EFEF1D859D39287
(1708108021.520706) can1 04EF001C#AD44882A52037769
(1708108021.523097) can1 0CEF0017#812B8813CD0AFFFF
(1708108021.523691) can1 18FFDC00#C014010000507B19
(1708108021.528188) can1 18FFDC00#C100000000A4FFA3
(1708108021.528834) can1 0CF00300#CF004FFF00FFFFFF
(1708108021.529343) can1 0CF00400#FF7D7D000000FFFF
(1708108021.530545) can1 18FF1080#000000FFFFFFFD00
(1708108021.531096) can1 04EF001C#9347AFD96CC0505A
(1708108021.531683) can1 18FF1180#0300FBFDFFFF00FF
(1708108021.533181) can1 18FFDC00#C2FFFF6E921B00FF
(1708108021.533767) can1 09F20000#000000FFFFFFFFFF
(1708108021.534350) can1 0CEF0100#B020000000625400
(1708108021.534944) can1 18E8FF00#02FFFFFFFF00EF00
(1708108021.540959) can1 04EF001C#F849B78F07EE482C
(1708108021.543128) can1 18FF1CF3#0000000000000000
(1708108021.548215) can1 0CF00400#FF7D7D000000FFFF
(1708108021.551036) can1 04EF001C#B44CD1EA4BAB2E09
(1708108021.553216) can1 0CEF0100#B020000000625400
(1708108021.558202) can1 18FEF200#0000FFFFFFFF37FF
(1708108021.561152) can1 04EF001C#774F0CF1774F0CF5
(1708108021.568193) can1 0CF00400#FF7D7D000000FFFF
(1708108021.568780) can1 0CEF1100#FFF2A31389070042
(1708108021.571265) can1 04EF001C#6D52FE3C6D72FE18
(1708108021.573210) can1 18FFDC00#E014010000507B19
(1708108021.573805) can1 0CEF0100#B020000000625400
(1708108021.578182) can1 18FFDC00#E100000000A4FFA3
(1708108021.578785) can1 0CF00300#CF004FFF00FFFFFF
(1708108021.581379) can1 04EF001C#F75450EAF734508E
(1708108021.583165) can1 18FFDC00#E2FFFF6E921B00FF
(1708108021.588201) can1 0CF00400#FF7D7D000000FFFF
(1708108021.591483) can1 04EF001C#B7570AE9B7F70A4D
(1708108021.593213) can1 0CEF0100#B020000000625400
(1708108021.598192) can1 18FEF100#FF0000F5FF11DFFF
(1708108021.601603) can1 04EF001C#775AA4E4779AA420
(1708108021.603105) can1 0CEF0017#812B8813CD0AFFFF
(1708108021.608233) can1 0CF00400#FF7D7D000000FFFF
(1708108021.608775) can1 18FF1C17#0000000000000000
(1708108021.611724) can1 04EF001C#C55D2B73C45D2A77
(1708108021.613214) can1 0CEF0100#B020000000625400
(1708108021.613825) can1 18E8FF00#02FFFFFFFF00EF00
(1708108021.618176) can1 0CEF1100#A9E37C277A7ABA5D
(1708108021.621864) can1 04EF001C#8540816E8400802A
(1708108021.623188) can1 18FFDC00#0014010000507B19
(1708108021.628188) can1 18FFDC00#0100000000A4FFA3
(1708108021.628761) can1 0CF00300#CF004FFF00FFFFFF
(1708108021.629326) can1 0CF00400#FF7D7D000000FFFF
(1708108021.630549) can1 18FF1080#000000FFFFFFFD00
(1708108021.631531) can1 18FF1180#0300FBFDFFFF00FF
(1708108021.632096) can1 04EF001C#22433B5523C33AD1
(1708108021.632676) can1 18FF1380#000000003FC0C006
(1708108021.633242) can1 18FFDC00#02FFFF6E921B00FF
(1708108021.633888) can1 09F20000#000000FFFFFFFFFF
(1708108021.634417) can1 0CEF0100#B020000000625400
(1708108021.642085) can1 04EF001C#06463670078637B4
(1708108021.643136) can1 18FF1CF3#0000000000000000
(1708108021.648197) can1 0CF00400#FF7D7D000000FFFF
(1708108021.652170) can1 04EF001C#C5488366C4A88282
(1708108021.653216) can1 18FEEF00#FFFFFF00FFFFFFFF
(1708108021.653776) can1 0CEF0100#B020000000625400
(1708108021.658249) can1 18FEF200#0000FFFFFFFF37FF
(1708108021.662272) can1 04EF001C#624B395D600B3B19
(1708108021.668198) can1 0CF00400#FF7D7D000000FFFF
(1708108021.668723) can1 0CEF1100#66E1D99FB88DB78A
(1708108021.672377) can1 04EF001C#454E3760472E3504
(1708108021.673205) can1 18FFDC00#2014010000507B19
(1708108021.673824) can1 0CEF0100#B020000000625400
(1708108021.678193) can1 18FFDC00#2100000000A4FFA3
(1708108021.678745) can1 0CF00300#CF004FFF00FFFFFF
(1708108021.682501) can1 04EF001C#7550F6FE77F0F45A
(1708108021.683171) can1 18FFDC00#22FFFF6E921B00FF
(1708108021.683757) can1 0CEF1700#01AB8813CD0AFFFF
(1708108021.688198) can1 0CF00400#FF7D7D000000FFFF
(1708108021.692601) can1 04EF001C#3753AEED35D3AC69
(1708108021.693201) can1 0CEF0100#B020000000625400
(1708108021.693780) can1 18FEF600#FFFF3D2AFFFFFFFF
(1708108021.698201) can1 18FEF100#FF0000F5FF11DFFF
(1708108021.702718) can1 04EF001C#F65559E3F4D55B67
(1708108021.708196) can1 0CF00400#FF7D7D000000FFFF
(1708108021.712837) can1 04EF001C#B65873EEB41871AA
(1708108021.713425) can1 0CEF0100#B020000000625400
(1708108021.718175) can1 0CEF1100#589C7FF392219940
(1708108021.722943) can1 04EF001C#775BACE5753BAE81
(1708108021.723517) can1 0CEF0017#812B8813CD0AFFFF
(1708108021.724068) can1 18FFDC00#4014010000507B19
(1708108021.728182) can1 18FFDC00#4100000000A4FFA3
(1708108021.728839) can1 0CF00300#CF004FFF00FFFFFF
(1708108021.729389) can1 0CF00400#FF7D7D000000FFFF
(1708108021.731543) can1 18FF1080#000000FFFFFFFD00
(1708108021.732533) can1 18FF1180#0300FBFDFFFF00FF
(1708108021.733105) can1 04EF001C#375EC6E035DEC464
(1708108021.733706) can1 09F20000#000000FFFFFFFFFF
(1708108021.734283) can1 0CEF0100#B020000000625400
(1708108021.734884) can1 18E8FF00#02FFFFFFFF00EF00
(1708108021.735403) can1 18FFDC00#42FFFF6E921B00FF
(1708108021.743156) can1 18FF1CF3#0000000000000000
(1708108021.743754) can1 04EF001C#F740F0FEF5E0F25A
(1708108021.748197) can1 0CF00400#FF7D7D000000FFFF
(1708108021.753212) can1 0CEF0100#B020000000625400
(1708108021.753785) can1 04EF001C#B643ABF5B483A931
(1708108021.758209) can1 18FEF200#0000FFFFFFFF37FF
(1708108021.763125) can1 0CEF0017#812B8813CD0AFFFF
(1708108021.763660) can1 04EF001C#764645F074A64714
(1708108021.768194) can1 0CF00400#FF7D7D000000FFFF
(1708108021.768781) can1 0CEF1100#91902BF8F0D96814
(1708108021.773198) can1 18FFDC00#6014010000507B19
(1708108021.773736) can1 04EF001C#35497CE737897E23
(1708108021.774327) can1 0CEF0100#B020000000625400
(1708108021.774915) can1 18E8FF00#02FFFFFFFF00EF00
(1708108021.778199) can1 18FFDC00#6100000000A4FFA3
(1708108021.778797) can1 0CF00300#CF004FFF00FFFFFF
(1708108021.783170) can1 18FFDC00#62FFFF6E921B00FF
(1708108021.783759) can1 04EF001C#F54BAAE5F7EBA841
(1708108021.788193) can1 0CF00400#FF7D7D000000FFFF
(1708108021.793206) can1 0CEF0100#B020000000625400
(1708108021.793736) can1 04EF001C#B84ECD88BACECF0C
(1708108021.798196) can1 18FEF100#FF0000F5FF11DFFF
(1708108021.799730) can1 18FF1C17#0000000000000000
(1708108021.803853) can1 04EF001C#E0516F57E2116D13
(1708108021.808194) can1 0CF00400#FF7D7D000000FFFF
(1708108021.813214) can1 0CEF0100#B020000000625400
(1708108021.813976) can1 04EF001C#C354654AC2B464AE
(1708108021.818169) can1 0CEF1100#BC8231D41B4C4C0C
(1708108021.823193) can1 18FFDC00#8014010000507B19
(1708108021.824095) can1 04EF001C#7C57C7B17D37C6D5
(1708108021.828173) can1 18FFDC00#8100000000A4FFA3
(1708108021.828759) can1 0CF00300#CF004FFF00FFFFFF
(1708108021.829336) can1 0CF00400#FF7D7D000000FFFF
(1708108021.831540) can1 18FF1080#000000FFFFFFFD00
(1708108021.832534) can1 18FF1180#0300FBFDFFFF00FF
(1708108021.833206) can1 18FFDC00#82FFFF6E921B00FF
(1708108021.833799) can1 09F20000#000000FFFFFFFFFF
(1708108021.834335) can1 04EF001C#1E5ACEAC1F7ACF88
(1708108021.834959) can1 0CEF0100#B020000000625400
(1708108021.835507) can1 18FF1380#000000003FC0C006
(1708108021.838261) can1 09F8021C#96FC88120600FFFF
(1708108021.839245) can1 09F8011C#546D26183E6B5BC1
(1708108021.840261) can1 19FA031C#96D252009D006500
(1708108021.841273) can1 0DF0101C#96F0A34DA0D0BD2B
(1708108021.842304) can1 18FEE81C#980D000020643E7E
(1708108021.843140) can1 0CEF0017#812B8813CD0AFFFF
(1708108021.844304) can1 04EF001C#1E5DF6AB1E9DF66F
(1708108021.845392) can1 19FA041C#40AB96FF0E017512
(1708108021.846390) can1 19FA041C#41FAC83011FFFFFF
(1708108021.847412) can1 19FA041C#42FFFF05F726D020
(1708108021.848243) can1 0CF00400#FF7D7D000000FFFF
(1708108021.848878) can1 18FECA00#40FF00000000FFFF
(1708108021.849376) can1 19FA041C#43A00FFFFFFFFFFF
(1708108021.850429) can1 19FA041C#440C0D020C7BFC08
(1708108021.851509) can1 19FA041C#45FFFFFFFFFF0D82
(1708108021.852453) can1 19FA041C#46141847D80EFFFF
(1708108021.853206) can1 0CEF0100#B020000000625400
(1708108021.853774) can1 18E8FF00#02FFFFFFFF00EF00
(1708108021.854351) can1 19FA041C#47FFFFFF0F9C182C
(1708108021.855425) can1 04EF001C#B940BC8EB9C0BC0A
(1708108021.856502) can1 19FA041C#47FFFFFF0F9C182C
(1708108021.857503) can1 19FA041C#48656810FFFFFFFF
(1708108021.858205) can1 18FEF200#0000FFFFFFFF37FF
(1708108021.858748) can1 19FA041C#49FF10AF0096E100
(1708108021.859640) can1 19FA041C#4A00FFFFFFFFFF12
(1708108021.860560) can1 19FA041C#4BB61C3EC6CC10FF
(1708108021.861541) can1 19FA041C#4CFFFFFFFF14D313
(1708108021.862564) can1 19FA041C#4D2E22800CFFFFFF
(1708108021.863144) can1 18FF1CF3#0000000000000000
(1708108021.863711) can1 19FA041C#4EFFFF174E0C2099
(1708108021.864553) can1 04EF001C#3D4324AD3DC32429
(1708108021.865620) can1 19FA041C#4F3408FFFFFFFFFF
(1708108021.866612) can1 19FA041C#50199F0B168A6009
(1708108021.867627) can1 19FA041C#51FFFFFFFFFF1AFD
(1708108021.868188) can1 0CEF1100#FD86039DFC9ECB73
(1708108021.868759) can1 0CF00400#FF7D7D000000FFFF
(1708108021.869323) can1 19FA041C#520C14CDD80EFFFF
(1708108021.870651) can1 19FA041C#53FFFFFF1D283CC2
(1708108021.871650) can1 19FA041C#54976810FFFFFFFF
(1708108021.872643) can1 19FA041C#55FF2CB61CFC85CC
(1708108021.873244) can1 0CEF0100#B020000000625400
(1708108021.873798) can1 18FFDC00#A014010000507B19
(1708108021.874377) can1 19FA041C#5610FFFFFFFFFF30
(1708108021.875618) can1 04EF001C#8445A86384E5A8C7
(1708108021.876713) can1 19FA041C#5610FFFFFFFFFF30
(1708108021.877701) can1 19FA041C#57A91A308EA00FFF
(1708108021.878270) can1 0CF00300#CF004FFF00FFFFFF
(1708108021.878846) can1 18FFDC00#A100000000A4FFA3
(1708108021.879434) can1 19FA041C#58FFFFFFFFFFFFFF
(1708108021.883184) can1 18FFDC00#A2FFFF6E921B00FF
(1708108021.884756) can1 04EF001C#9C47A0A19CE7A005
(1708108021.885381) can1 15FD069B#D3F973FFFFFFFFFF
(1708108021.888185) can1 0CF00400#FF7D7D000000FFFF
(1708108021.893219) can1 0CEF0100#B020000000625400
(1708108021.894828) can1 04EF001C#934AC7D4938AC710
(1708108021.898187) can1 18FEF100#FF0000F5FF11DFFF
(1708108021.904948) can1 04EF001C#F74C90F2F7AC9016
(1708108021.908191) can1 0CF00400#FF7D7D000000FFFF
(1708108021.913206) can1 0CEF0100#B020000000625400
(1708108021.915062) can1 04EF001C#E84F9709E8AF97ED
(1708108021.918159) can1 0CEF1100#08B009796184A2D6
(1708108021.923187) can1 18FFDC00#C014010000507B19
(1708108021.925182) can1 04EF001C#AC523934AC9239F0
(1708108021.928182) can1 18FFDC00#C100000000A4FFA3
(1708108021.928784) can1 0CF00300#CF004FFF00FFFFFF
(1708108021.929328) can1 0CF00400#FF7D7D000000FFFF
(1708108021.932539) can1 18FF1080#000000FFFFFFFD00
(1708108021.933175) can1 18FFDC00#C2FFFF6E921B00FF
(1708108021.933774) can1 09F20000#000000FFFFFFFFFF
(1708108021.934354) can1 0CEF0100#B020000000625400
(1708108021.934937) can1 18FF1180#0300FBFDFFFF00FF
(1708108021.935506) can1 04EF001C#6855C31368B5C3F7
(1708108021.945398) can1 04EF001C#F5574AF9F5F74A5D
(1708108021.948188) can1 0CF00400#FF7D7D000000FFFF
(1708108021.953197) can1 0CEF0100#B020000000625400
(1708108021.955508) can1 04EF001C#E85A3F1CE8DA3F98
(1708108021.958197) can1 18FEF200#0000FFFFFFFF37FF
(1708108021.963138) can1 0CEF0017#812B8813CD0AFFFF
(1708108021.965614) can1 04EF001C#755D9EF3751D9EB7
(1708108021.968197) can1 0CF00400#FF7D7D000000FFFF
(1708108021.968868) can1 0CEF1100#42B7E1A888599F19
(1708108021.973202) can1 18FFDC00#E014010000507B19
(1708108021.973798) can1 0CEF0100#B020000000625400
(1708108021.974371) can1 18E8FF00#02FFFFFFFF00EF00
(1708108021.975758) can1 04EF001C#C840CE06C840CE02
(1708108021.978182) can1 18FFDC00#E100000000A4FFA3
(1708108021.978746) can1 0CF00300#CF004FFF00FFFFFF
(1708108021.983178) can1 0CEA1C00#00EE000000000000
(1708108021.983737) can1 18FFDC00#E2FFFF6E921B00FF
(1708108021.984292) can1 18EEFF1C#0204450E00000042
(1708108021.985850) can1 04EF001C#1E4306B5E1C4F936
(1708108021.988190) can1 0CF00400#FF7D7D000000FFFF
(1708108021.993205) can1 0CEF0100#B020000000625400
(1708108021.995945) can1 04EF001C#B54598EB4A0267A8
(1708108021.998186) can1 18FEF100#FF0000F5FF11DFFF
(1708108021.999482) can1 18FF1C17#0000000000000000
(1708108022.003172) can1 18FF1CF3#0000000000000000
(1708108022.006089) can1 04EF001C#DF4899B6206F6695
(1708108022.008186) can1 0CF00400#FF7D7D000000FFFF
(1708108022.013218) can1 0CEF0100#B020000000625400
(1708108022.016185) can1 04EF001C#C64B987D390C673E
(1708108022.018173) can1 0CEF1100#94A61A9C5A04040F
(1708108022.023141) can1 0CEF0017#812B8813CD0AFFFF
(1708108022.023762) can1 18FFDC00#0014010000507B19
(1708108022.026304) can1 04EF001C#964EE2F869091DBB
(1708108022.028177) can1 18FFDC00#0100000000A4FFA3
(1708108022.028744) can1 0CF00300#CF004FFF00FFFFFF
(1708108022.029327) can1 0CF00400#FF7D7D000000FFFF
(1708108022.032552) can1 18FF1080#000000FFFFFFFD00
(1708108022.033253) can1 18FFDC00#02FFFF6E921B00FF
(1708108022.033769) can1 09F20000#000000FFFFFFFFFF
(1708108022.034359) can1 0CEF0100#B020000000625400
(1708108022.034958) can1 18E8FF00#02FFFFFFFF00EF00
(1708108022.035508) can1 18FF1180#0300FBFDFFFF00FF
(1708108022.036423) can1 04EF001C#A3512E4F5C56D14C
(1708108022.037037) can1 18FF1380#000000003FC0C006
(1708108022.043169) can1 18FF1CF3#0000000000000000
(1708108022.046530) can1 04EF001C#0354A34AFDB35DA9
(1708108022.048184) can1 0CF00400#FF7D7D000000FFFF
(1708108022.053217) can1 0CEF0100#B020000000625400
(1708108022.056617) can1 04EF001C#A15614585E51EB5B
(1708108022.058198) can1 18FEF200#0000FFFFFFFF37FF
(1708108022.066740) can1 04EF001C#6159AA579E7E5574
(1708108022.068186) can1 0CF00400#FF7D7D000000FFFF
(1708108022.068787) can1 0CEF1100#CAA5D7EC01F45150
(1708108022.073211) can1 18FFDC00#2014010000507B19
(1708108022.073823) can1 0CEF0100#B020000000625400
(1708108022.077214) can1 04EF001C#B45B69FD4ABC971E
(1708108022.078286) can1 18FFDC00#2100000000A4FFA3
(1708108022.078753) can1 0CF00300#CF004FFF00FFFFFF
(1708108022.083156) can1 0CEF0017#812B8813CD0AFFFF
(1708108022.083699) can1 18FFDC00#22FFFF6E921B00FF
(1708108022.086962) can1 04EF001C#755E86F08BD97873
(1708108022.088191) can1 0CF00400#FF7D7D000000FFFF
(1708108022.093207) can1 0CEF0100#B020000000625400
(1708108022.093814) can1 18E8FF00#02FFFFFFFF00EF00
(1708108022.097069) can1 04EF001C#34413DE7CA66C3C4
(1708108022.098196) can1 18FEF100#FF0000F5FF11DFFF
(1708108022.107198) can1 04EF001C#F643E9F50BA41416
(1708108022.108195) can1 0CF00400#FF7D7D000000FFFF
(1708108022.113208) can1 0CEF0100#B020000000625400
(1708108022.117294) can1 04EF001C#B44681E049E17C43
(1708108022.118231) can1 0CEF1100#F9D412AB7302AE1B
(1708108022.123197) can1 18FFDC00#4014010000507B19
(1708108022.127407) can1 04EF001C#75493EE7880EC3A4
(1708108022.128183) can1 18FFDC00#4100000000A4FFA3
(1708108022.128746) can1 0CF00300#CF004FFF00FFFFFF
(1708108022.129325) can1 0CF00400#FF7D7D000000FFFF
(1708108022.133179) can1 18FFDC00#42FFFF6E921B00FF
(1708108022.133796) can1 09F20000#000000FFFFFFFFFF
(1708108022.134349) can1 0CEF0100#B020000000625400
(1708108022.134990) can1 18FF1080#000000FFFFFFFD00
(1708108022.136536) can1 18FF1180#0300FBFDFFFF00FF
(1708108022.137509) can1 04EF001C#344C55EAC96BA8C9
(1708108022.138206) can1 09F20100#0016000100FFFFCC
(1708108022.143188) can1 18FF1CF3#0000000000000000
(1708108022.143735) can1 09F20100#0172C90400006E92
(1708108022.144331) can1 18FEE500#36270000FFFFFFFF
(1708108022.147634) can1 04EF001C#F54E82E008497FE3
(1708108022.148245) can1 09F20100#021B00FFFFFFFF00
(1708108022.148856) can1 0CF00400#FF7D7D000000FFFF
(1708108022.149389) can1 18FEEE00#3DFFFFFFFFFF42FF
(1708108022.153209) can1 09F20100#030100FFFFFFFFFF
(1708108022.153802) can1 0CEF0100#B020000000625400
(1708108022.154372) can1 18FEEF00#FFFFFF00FFFFFFFF
(1708108022.157743) can1 04EF001C#B55138FF4856C5FC
(1708108022.158321) can1 18FEF200#0000FFFFFFFF37FF
(1708108022.163172) can1 18FEF700#FFFF1A01F500F600
(1708108022.167848) can1 04EF001C#7754D4EA8A7329C9
(1708108022.168368) can1 0CEF1100#A6CCC7952C6CCB26
(1708108022.168947) can1 0CF00400#FF7D7D000000FFFF
(1708108022.173200) can1 18FFDC00#6014010000507B19
(1708108022.173768) can1 0CEF0100#B020000000625400
(1708108022.177963) can1 04EF001C#36578FE1CB307282
(1708108022.178578) can1 0CF00300#CF004FFF00FFFFFF
(1708108022.179103) can1 18FFDC00#6100000000A4FFA3
(1708108022.183175) can1 18FFDC00#62FFFF6E921B00FF
(1708108022.183753) can1 0CEF1700#01AB8813CD0AFFFF
(1708108022.188072) can1 04EF001C#F5593AF708DEC774
(1708108022.188682) can1 0CF00400#FF7D7D000000FFFF
(1708108022.189226) can1 18FEFC00#FFA3FFFFFFFFFFFF
(1708108022.193215) can1 0CEF0100#B020000000625400
(1708108022.193817) can1 18FEF600#FFFF3D2AFFFFFFFF
(1708108022.198186) can1 18FEF100#FF0000F5FF11DFFF
(1708108022.198730) can1 04EF001C#B75C52E24ABBAF01
(1708108022.203157) can1 0CEF0017#812B8813CD0AFFFF
(1708108022.208184) can1 0CF00400#FF7D7D000000FFFF
(1708108022.208732) can1 04EF001C#E25F1D491C18E30A
(1708108022.213210) can1 0CEF0100#B020000000625400
(1708108022.213828) can1 18E8FF00#02FFFFFFFF00EF00
(1708108022.218171) can1 0CEF1100#5BFC7F303EE5BCFE
(1708108022.218709) can1 04EF001C#C442D2643AE52CC7
(1708108022.223200) can1 18FFDC00#8014010000507B19
(1708108022.228184) can1 18FFDC00#8100000000A4FFA3
(1708108022.228707) can1 04EF001C#8545A96B7BA25788
(1708108022.229341) can1 0CF00300#CF004FFF00FFFFFF
(1708108022.229851) can1 0CF00400#FF7D7D000000FFFF
(1708108022.233191) can1 18FFDC00#82FFFF6E921B00FF
(1708108022.233823) can1 09F20000#000000FFFFFFFFFF
(1708108022.234382) can1 0CEF0100#B020000000625400
(1708108022.234944) can1 18FF1080#000000FFFFFFFD00
(1708108022.236550) can1 18FF1180#0300FBFDFFFF00FF
(1708108022.237555) can1 18FF1380#000000003FC0C006
(1708108022.238652) can1 04EF001C#21486046DE2F9F25
(1708108022.243160) can1 0CEF0017#812B8813CD0AFFFF
(1708108022.248196) can1 0CF00400#FF7D7D000000FFFF
(1708108022.248778) can1 04EF001C#054B5D65FAECA2C6
(1708108022.253221) can1 0CEF0100#B020000000625400
(1708108022.253772) can1 18E8FF00#02FFFFFFFF00EF00
(1708108022.258199) can1 18FEF200#0000FFFFFFFF37FF
(1708108022.258906) can1 04EF001C#C24DAC5BC24DAC5F
(1708108022.259624) can1 18FF1C17#0000000000000000
(1708108022.263178) can1 18FF1CF3#0000000000000000
(1708108022.268202) can1 0CF00400#FF7D7D000000FFFF
(1708108022.268728) can1 0CEF1100#18FC6DE85AA9CF1C
(1708108022.269281) can1 04EF001C#6350E04E6330E02A
(1708108022.273199) can1 18FFDC00#A014010000507B19
(1708108022.273768) can1 0CEF0100#B020000000625400
(1708108022.278182) can1 18FFDC00#A100000000A4FFA3
(1708108022.278789) can1 0CF00300#CF004FFF00FFFFFF
(1708108022.279333) can1 04EF001C#B65223E4B6D22360
(1708108022.283176) can1 18FFDC00#A2FFFF6E921B00FF
(1708108022.284551) can1 0DF50B9B#E8FFFFFFFF0000FF
(1708108022.288190) can1 0CF00400#FF7D7D000000FFFF
(1708108022.289194) can1 04EF001C#7855D3937895D357
(1708108022.293217) can1 0CEF0100#B020000000625400
(1708108022.298190) can1 18FEF100#FF0000F5FF11DFFF
(1708108022.299322) can1 04EF001C#3858F99E3958F89A
(1708108022.308195) can1 0CF00400#FF7D7D000000FFFF
(1708108022.309431) can1 04EF001C#1D5BC5B51C1BC4F1
(1708108022.313196) can1 0CEF0100#B020000000625400
(1708108022.318164) can1 0CEF1100#CFEE4E940E76807E
(1708108022.319551) can1 04EF001C#DB5D3583DAFD3427
(1708108022.323168) can1 0CEF0017#812B8813CD0AFFFF
(1708108022.323718) can1 18FFDC00#C014010000507B19
(1708108022.328191) can1 18FFDC00#C100000000A4FFA3
(1708108022.328834) can1 0CF00300#CF004FFF00FFFFFF
(1708108022.329335) can1 0CF00400#FF7D7D000000FFFF
(1708108022.329931) can1 04EF001C#9D4099AE9F409BAA
(1708108022.333187) can1 18FFDC00#C2FFFF6E921B00FF
(1708108022.333796) can1 09F20000#000000FFFFFFFFFF
(1708108022.334380) can1 0CEF0100#B020000000625400
(1708108022.334938) can1 18E8FF00#02FFFFFFFF00EF00
(1708108022.335600) can1 18FF1080#000000FFFFFFFD00
(1708108022.336557) can1 18FF1180#0300FBFDFFFF00FF
(1708108022.339751) can1 04EF001C#37432EFD35632CD9
(1708108022.343196) can1 18FF1CF3#0000000000000000
(1708108022.345852) can1 09F8021C#97FC88120800FFFF
(1708108022.346833) can1 09F8011C#5A6D26183E6B5BC1
(1708108022.347853) can1 19FA031C#97D252009D006500
(1708108022.348451) can1 0CF00400#FF7D7D000000FFFF
(1708108022.348992) can1 0DF0101C#97F0A34DB0F7BD2B
(1708108022.349880) can1 04EF001C#614652486326502C
(1708108022.350895) can1 18FEE81C#980D000020643D7E
(1708108022.351965) can1 19FA041C#60AB97FF0E017512
(1708108022.352984) can1 19FA041C#61FAC83011FFFFFF
(1708108022.353566) can1 0CEF0100#B020000000625400
(1708108022.354138) can1 19FA041C#62FFFF05F726D020
(1708108022.355010) can1 19FA041C#63A00FFFFFFFFFFF
(1708108022.355992) can1 19FA041C#640C0D020C7BFC08
(1708108022.357013) can1 19FA041C#65FFFFFFFFFF0D82
(1708108022.358010) can1 19FA041C#66141847740EFFFF
(1708108022.358603) can1 18FEF200#0000FFFFFFFF37FF
(1708108022.359188) can1 19FA041C#67FFFFFF0F9C182C
(1708108022.359995) can1 04EF001C#8F49C3378D09C173
(1708108022.361052) can1 19FA041C#68656810FFFFFFFF
(1708108022.362050) can1 19FA041C#69FF10AF0096E100
(1708108022.363078) can1 19FA041C#6A00FFFFFFFFFF12
(1708108022.364080) can1 19FA041C#6BB61C3EC63011FF
(1708108022.365103) can1 19FA041C#6CFFFFFFFF14D313
(1708108022.366094) can1 19FA041C#6D2E22AC0DFFFFFF
(1708108022.367109) can1 19FA041C#6EFFFF174E0C2099
(1708108022.368131) can1 19FA041C#6F3408FFFFFFFFFF
(1708108022.368680) can1 0CEF1100#BDE37987C156DA84
(1708108022.369263) can1 0CF00400#FF7D7D000000FFFF
(1708108022.369806) can1 19FA041C#70199F0B168AC409
(1708108022.371089) can1 04EF001C#5C4C3EAA5E6C3C8E
(1708108022.372170) can1 19FA041C#70199F0B168AC409
(1708108022.373185) can1 19FA041C#71FFFFFFFFFF1AFD
(1708108022.373770) can1 0CEF0100#B020000000625400
(1708108022.374341) can1 18FFDC00#E014010000507B19
(1708108022.374918) can1 19FA041C#720C14CDD80EFFFF
(1708108022.376217) can1 19FA041C#73FFFFFF1D283CC2
(1708108022.377222) can1 19FA041C#74976810FFFFFFFF
(1708108022.378186) can1 18FFDC00#E100000000A4FFA3
(1708108022.378772) can1 0CF00300#CF004FFF00FFFFFF
(1708108022.379333) can1 19FA041C#75FF2CB61CFC85CC
(1708108022.380212) can1 04EF001C#874EF370854EF174
(1708108022.381278) can1 19FA041C#7610FFFFFFFFFF30
(1708108022.382271) can1 19FA041C#77A91A308E0410FF
(1708108022.382843) can1 15FD069B#D4F973FFFFFFFFFF
(1708108022.383428) can1 18FFDC00#E2FFFF6E921B00FF
(1708108022.384028) can1 19FA041C#78FFFFFFFFFFFFFF
(1708108022.388200) can1 0CF00400#FF7D7D000000FFFF
(1708108022.390303) can1 04EF001C#2A51A3072BB1A2E3
(1708108022.393213) can1 0CEF0100#B020000000625400
(1708108022.398183) can1 18FEF100#FF0000F5FF11DFFF
(1708108022.400411) can1 04EF001C#EB53740DEA9375C9
(1708108022.408192) can1 0CF00400#FF7D7D000000FFFF
(1708108022.410539) can1 04EF001C#1857A09119F7A135
(1708108022.413211) can1 0CEF0100#B020000000625400
(1708108022.418155) can1 0CEF1100#079C6ACB4F53186B
(1708108022.420664) can1 04EF001C#FD5932B7FCF93313
(1708108022.423194) can1 18FFDC00#0014010000507B19
(1708108022.428188) can1 18FFDC00#0100000000A4FFA3
(1708108022.428742) can1 0CF00300#CF004FFF00FFFFFF
(1708108022.429319) can1 0CF00400#FF7D7D000000FFFF
(1708108022.430798) can1 04EF001C#105DF8DB11DDF95F
(1708108022.433186) can1 18FFDC00#02FFFF6E921B00FF
(1708108022.433791) can1 09F20000#000000FFFFFFFFFF
(1708108022.434356) can1 0CEF0100#B020000000625400
(1708108022.434963) can1 18FF1080#000000FFFFFFFD00
(1708108022.436551) can1 18FF1180#0300FBFDFFFF00FF
(1708108022.437540) can1 18FF1380#000000003FC0C006
(1708108022.440890) can1 04EF001C#205FD95921DFD8DD
(1708108022.443166) can1 0CEF0017#812B8813CD0AFFFF
(1708108022.448194) can1 0CF00400#FF7D7D000000FFFF
(1708108022.450992) can1 04EF001C#0642167407221710
(1708108022.453211) can1 0CEF0100#B020000000625400
(1708108022.453797) can1 18E8FF00#02FFFFFFFF00EF00
(1708108022.458196) can1 18FEF200#0000FFFFFFFF37FF
(1708108022.459758) can1 18FF1C17#0000000000000000
(1708108022.461100) can1 04EF001C#B74492FAB60493BE
(1708108022.463193) can1 18FF1CF3#0000000000000000
(1708108022.468195) can1 0CF00400#FF7D7D000000FFFF
(1708108022.468743) can1 0CEF1100#48901B70391C701A
(1708108022.471207) can1 04EF001C#9947A5899867A4AD
(1708108022.473212) can1 18FFDC00#2014010000507B19
(1708108022.473777) can1 0CEF0100#B020000000625400
(1708108022.478182) can1 18FFDC00#2100000000A4FFA3
(1708108022.478746) can1 0CF00300#CF004FFF00FFFFFF
(1708108022.481316) can1 04EF001C#EB49A417EA49A513
(1708108022.483167) can1 18FFDC00#22FFFF6E921B00FF
(1708108022.483741) can1 0CEF0017#812B8813CD0AFFFF
(1708108022.488201) can1 0CF00400#FF7D7D000000FFFF
(1708108022.491422) can1 04EF001C#754C16E2744C17E6
(1708108022.493215) can1 0CEF0100#B020000000625400
(1708108022.493801) can1 18E8FF00#02FFFFFFFF00EF00
(1708108022.498186) can1 18FEF100#FF0000F5FF11DFFF
(1708108022.501538) can1 04EF001C#364F4FF936AF4F1D
(1708108022.508197) can1 0CF00400#FF7D7D000000FFFF
(1708108022.511648) can1 04EF001C#F5517AFFF5F17A5B
(1708108022.513215) can1 0CEF0100#B020000000625400
(1708108022.518162) can1 0CEF1100#97823A4C6FD1AD68
(1708108022.521780) can1 04EF001C#B55410FAB5D4107E
(1708108022.523182) can1 18FFDC00#4014010000507B19
(1708108022.528190) can1 18FFDC00#4100000000A4FFA3
(1708108022.528776) can1 0CF00300#CF004FFF00FFFFFF
(1708108022.529325) can1 0CF00400#FF7D7D000000FFFF
(1708108022.531858) can1 04EF001C#AA571701AA171745
(1708108022.533178) can1 18FFDC00#42FFFF6E921B00FF
(1708108022.533776) can1 09F20000#000000FFFFFFFFFF
(1708108022.534348) can1 0CEF0100#B020000000625400
(1708108022.535548) can1 18FF1080#000000FFFFFFFD00
(1708108022.536590) can1 18FF1180#0300FBFDFFFF00FF
(1708108022.541987) can1 04EF001C#375AE6E4377AE6C0
(1708108022.543194) can1 18FF1CF3#0000000000000000
(1708108022.548197) can1 0CF00400#FF7D7D000000FFFF
(1708108022.552115) can1 04EF001C#F75C10E2F77C10C6
(1708108022.553221) can1 0CEF0100#B020000000625400
(1708108022.558194) can1 18FEF200#0000FFFFFFFF37FF
(1708108022.562200) can1 04EF001C#B75F4AE148B8B502
(1708108022.563167) can1 0CEF0017#812B8813CD0AFFFF
(1708108022.568196) can1 0CF00400#FF7D7D000000FFFF
(1708108022.568777) can1 0CEF1100#D58740DD009E8693
(1708108022.572307) can1 04EF001C#754266EC8A85992F
(1708108022.573222) can1 18FFDC00#6014010000507B19
(1708108022.573807) can1 0CEF0100#B020000000625400
(1708108022.574366) can1 18E8FF00#02FFFFFFFF00EF00
(1708108022.578188) can1 18FFDC00#6100000000A4FFA3
(1708108022.578821) can1 0CF00300#CF004FFF00FFFFFF
(1708108022.582438) can1 04EF001C#35451CEBCAE2E348
(1708108022.583169) can1 18FFDC00#62FFFF6E921B00FF
(1708108022.588198) can1 0CF00400#FF7D7D000000FFFF
(1708108022.592558) can1 04EF001C#F847C78107C03802
(1708108022.593237) can1 0CEF0100#B020000000625400
(1708108022.598186) can1 18FEF100#FF0000F5FF11DFFF
(1708108022.602667) can1 04EF001C#B74AE2F448CD1D77
(1708108022.608226) can1 0CF00400#FF7D7D000000FFFF
(1708108022.612768) can1 04EF001C#034E7350FC298C33
(1708108022.613381) can1 0CEF0100#B020000000625400
(1708108022.618156) can1 0CEF1100#3DB295911C39C47B
(1708108022.622878) can1 04EF001C#9E501AA66137E5C5
(1708108022.623437) can1 18FFDC00#8014010000507B19
(1708108022.628189) can1 18FFDC00#8100000000A4FFA3
(1708108022.628737) can1 0CF00300#CF004FFF00FFFFFF
(1708108022.629357) can1 0CF00400#FF7D7D000000FFFF
(1708108022.633015) can1 04EF001C#83531F4D7C34E02E
(1708108022.633650) can1 09F20000#000000FFFFFFFFFF
(1708108022.634203) can1 0CEF0100#B020000000625400
(1708108022.634755) can1 18FFDC00#82FFFF6E921B00FF
(1708108022.635550) can1 18FF1080#000000FFFFFFFD00
(1708108022.636552) can1 18FF1180#0300FBFDFFFF00FF
(1708108022.637539) can1 18FF1380#000000003FC0C006
(1708108022.643122) can1 04EF001C#4256F040BDD10FC3
(1708108022.648190) can1 0CF00400#FF7D7D000000FFFF
(1708108022.653197) can1 18FEEF00#FFFFFF00FFFFFFFF
(1708108022.653792) can1 04EF001C#E258254E1D9FDA8D
(1708108022.654341) can1 0CEF0100#B020000000625400
(1708108022.658219) can1 18FEF200#0000FFFFFFFF37FF
(1708108022.663179) can1 0CEF0017#812B8813CD0AFFFF
(1708108022.663733) can1 04EF001C#C45B1A7D3B9CE5BE
(1708108022.668193) can1 0CF00400#FF7D7D000000FFFF
(1708108022.668732) can1 0CEF1100#7DB15F91C0724A99
(1708108022.673202) can1 18FFDC00#A014010000507B19
(1708108022.673740) can1 04EF001C#625E91489DB96EAB
(1708108022.674311) can1 0CEF0100#B020000000625400
(1708108022.674925) can1 18E8FF00#02FFFFFFFF00EF00
(1708108022.678185) can1 18FFDC00#A100000000A4FFA3
(1708108022.678752) can1 0CF00300#CF004FFF00FFFFFF
(1708108022.683177) can1 18FFDC00#A2FFFF6E921B00FF
(1708108022.683713) can1 04EF001C#B440B1E6B440B1E2
(1708108022.684296) can1 0CEF1700#01AB8813CD0AFFFF
(1708108022.684885) can1 18FF1CF3#0000000000000000
(1708108022.688184) can1 0CF00400#FF7D7D000000FFFF
(1708108022.693202) can1 0CEF0100#B020000000625400
(1708108022.693740) can1 04EF001C#75436EED8AA4910E
(1708108022.694374) can1 18FEF600#FFFF3D2AFFFFFFFF
(1708108022.698184) can1 18FEF100#FF0000F5FF11DFFF
(1708108022.703786) can1 04EF001C#364607F0364607F4
(1708108022.708193) can1 0CF00400#FF7D7D000000FFFF
(1708108022.713206) can1 0CEF0100#B020000000625400
(1708108022.713942) can1 04EF001C#F648B1FE09AF4E1D
(1708108022.718161) can1 0CEF1100#A9A0A43592ABF50B
(1708108022.723195) can1 18FFDC00#C014010000507B19
(1708108022.723737) can1 0CEF0017#812B8813CD0AFFFF
(1708108022.724310) can1 04EF001C#B64BEBFDB64BEBF9
(1708108022.728180) can1 18FFDC00#C100000000A4FFA3
(1708108022.728778) can1 0CF00300#CF004FFF00FFFFFF
(1708108022.729359) can1 0CF00400#FF7D7D000000FFFF
(1708108022.729914) can1 18FF1C17#0000000000000000
(1708108022.733186) can1 18FFDC00#C2FFFF6E921B00FF
(1708108022.733810) can1 09F20000#000000FFFFFFFFFF
(1708108022.734317) can1 04EF001C#784E0B88786E0BAC
(1708108022.734942) can1 0CEF0100#B020000000625400
(1708108022.735505) can1 18E8FF00#02FFFFFFFF00EF00
(1708108022.736542) can1 18FF1080#000000FFFFFFFD00
(1708108022.737541) can1 18FF1180#0300FBFDFFFF00FF
(1708108022.743216) can1 18FF1CF3#0000000000000000
(1708108022.744204) can1 04EF001C#3551BCFF3571BCDB
(1708108022.748185) can1 0CF00400#FF7D7D000000FFFF
(1708108022.753215) can1 0CEF0100#B020000000625400
(1708108022.754336) can1 04EF001C#F5536AFDF5736AD9
(1708108022.758194) can1 18FEF200#0000FFFFFFFF37FF
(1708108022.764434) can1 04EF001C#B8560D90B8760DB4
(1708108022.768187) can1 0CF00400#FF7D7D000000FFFF
(1708108022.768720) can1 0CEF1100#E1A74C74F1E93410
(1708108022.773207) can1 18FFDC00#E014010000507B19
(1708108022.773773) can1 0CEF0100#B020000000625400
(1708108022.774581) can1 04EF001C#9A59568F9A59568B
(1708108022.778182) can1 18FFDC00#E100000000A4FFA3
(1708108022.778742) can1 0CF00300#CF004FFF00FFFFFF
(1708108022.783172) can1 18FFDC00#E2FFFF6E921B00FF
(1708108022.784664) can1 04EF001C#595CBB92595CBB96
(1708108022.788186) can1 0CF00400#FF7D7D000000FFFF
(1708108022.793218) can1 0CEF0100#B020000000625400
(1708108022.794786) can1 04EF001C#1A5FE289E5981D4A
(1708108022.798185) can1 18FEF100#FF0000F5FF11DFFF
(1708108022.803194) can1 0CEF0017#812B8813CD0AFFFF
(1708108022.804890) can1 04EF001C#2142304CDEE5CFEF
(1708108022.808184) can1 0CF00400#FF7D7D000000FFFF
(1708108022.813216) can1 0CEF0100#B020000000625400
(1708108022.813788) can1 18E8FF00#02FFFFFFFF00EF00
(1708108022.815015) can1 04EF001C#65454E6B9AA2B188
(1708108022.818153) can1 0CEF1100#D6D5501344D64465
(1708108022.823202) can1 18FFDC00#0014010000507B19
(1708108022.825171) can1 04EF001C#FC47C3A1FC47C3A5
(1708108022.828181) can1 18FFDC00#0100000000A4FFA3
(1708108022.828772) can1 0CF00300#CF004FFF00FFFFFF
(1708108022.829329) can1 0CF00400#FF7D7D000000FFFF
(1708108022.833182) can1 18FFDC00#02FFFF6E921B00FF
(1708108022.833785) can1 09F20000#000000FFFFFFFFFF
(1708108022.834354) can1 0CEF0100#B020000000625400
(1708108022.835243) can1 04EF001C#984ACC8C980ACCC8
(1708108022.836556) can1 18FF1080#000000FFFFFFFD00
(1708108022.837540) can1 18FF1180#0300FBFDFFFF00FF
(1708108022.838541) can1 18FF1380#000000003FC0C006
(1708108022.843236) can1 18FF1CF3#0000000000000000
(1708108022.845334) can1 04EF001C#454D2F63452D2F07
(1708108022.848189) can1 0CF00400#FF7D7D000000FFFF
(1708108022.848775) can1 18FECA00#40FF00000000FFFF
(1708108022.852451) can1 09F8021C#98FC88120000FFFF
(1708108022.853204) can1 0CEF0100#B020000000625400
(1708108022.853803) can1 09F8011C#5C6D26183A6B5BC1
(1708108022.854487) can1 19FA031C#98D252009D006500
(1708108022.855455) can1 04EF001C#8D50093E8DD009BA
(1708108022.856456) can1 0DF0101C#98F0A34DB0F7BD2B
(1708108022.857498) can1 18FEE81C#980D000020643D7E
(1708108022.858202) can1 18FEF200#0000FFFFFFFF37FF
(1708108022.858807) can1 19FA041C#80AB98FF0E017512
(1708108022.859624) can1 19FA041C#81FAC83011FFFFFF
(1708108022.860602) can1 19FA041C#82FFFF05F726D020
(1708108022.861605) can1 19FA041C#83A00FFFFFFFFFFF
(1708108022.862600) can1 19FA041C#840C0D020C7B6009
(1708108022.863606) can1 19FA041C#85FFFFFFFFFF0D82
(1708108022.864616) can1 19FA041C#86141847740EFFFF
(1708108022.865581) can1 04EF001C#7B53E08D7BD3E009
(1708108022.866670) can1 19FA041C#87FFFFFF0F9C182C
(1708108022.867671) can1 19FA041C#8865CC10FFFFFFFF
(1708108022.868263) can1 0CEF1100#8ACA7DF41EA401B1
(1708108022.868872) can1 0CF00400#FF7D7D000000FFFF
(1708108022.869369) can1 19FA041C#89FF10AF0096E100
(1708108022.870692) can1 19FA041C#8A00FFFFFFFFFF12
(1708108022.871674) can1 19FA041C#8BB61C3EC6CC10FF
(1708108022.872683) can1 19FA041C#8CFFFFFFFF14D313
(1708108022.873267) can1 0CEF0100#B020000000625400
(1708108022.873847) can1 18FFDC00#2014010000507B19
(1708108022.874430) can1 19FA041C#8D2E22AC0DFFFFFF
(1708108022.875668) can1 04EF001C#5555FFFB55F5FF5F
(1708108022.876738) can1 19FA041C#8EFFFF174E0C2099
(1708108022.877765) can1 19FA041C#8F6009FFFFFFFFFF
(1708108022.878340) can1 0CF00300#CF004FFF00FFFFFF
(1708108022.878895) can1 18FFDC00#2100000000A4FFA3
(1708108022.879557) can1 19FA041C#90199F0B168A280A
(1708108022.880789) can1 19FA041C#91FFFFFFFFFF1AFD
(1708108022.881789) can1 19FA041C#920C14CD740EFFFF
(1708108022.882801) can1 19FA041C#93FFFFFF1D283CC2
(1708108022.883365) can1 18FFDC00#22FFFF6E921B00FF
(1708108022.883944) can1 19FA041C#94970410FFFFFFFF
(1708108022.884844) can1 19FA041C#95FF2CB61CFC8568
(1708108022.885769) can1 04EF001C#A658636EA6F863CA
(1708108022.886860) can1 19FA041C#9610FFFFFFFFFF30
(1708108022.887461) can1 15FD069B#D5F973FFFFFFFFFF
(1708108022.888034) can1 18FF2117#06FFFFFF00FFFFFF
(1708108022.888611) can1 0CF00400#FF7D7D000000FFFF
(1708108022.889169) can1 19FA041C#97A91A308E0410FF
(1708108022.889930) can1 19FA041C#98FFFFFFFFFFFFFF
(1708108022.893213) can1 0CEF0100#B020000000625400
(1708108022.895880) can1 04EF001C#785AAB9C78FAAB38
(1708108022.898184) can1 18FEF100#FF0000F5FF11DFFF
(1708108022.903203) can1 0CEF0017#812B8813CD0AFFFF
(1708108022.906002) can1 04EF001C#375DDEE3379DDE27
(1708108022.908184) can1 0CF00400#FF7D7D000000FFFF
(1708108022.913214) can1 0CEF0100#B020000000625400
(1708108022.913797) can1 18E8FF00#02FFFFFFFF00EF00
(1708108022.916109) can1 04EF001C#2C402D262CE02D82
(1708108022.918201) can1 0CEF1100#86FBB69933F3FBD7
(1708108022.923186) can1 18FFDC00#4014010000507B19
(1708108022.923819) can1 0CEA1C00#00EE000000000000
(1708108022.925274) can1 18EEFF1C#0204450E00000042
(1708108022.926218) can1 04EF001C#3C4325A53CC32521
(1708108022.928176) can1 18FFDC00#4100000000A4FFA3
(1708108022.928752) can1 0CF00300#CF004FFF00FFFFFF
(1708108022.929318) can1 0CF00400#FF7D7D000000FFFF
(1708108022.933176) can1 18FFDC00#42FFFF6E921B00FF
(1708108022.933791) can1 09F20000#000000FFFFFFFFFF
(1708108022.934347) can1 0CEF0100#B020000000625400
(1708108022.936322) can1 04EF001C#AB45861BABE586BF
(1708108022.937562) can1 18FF1080#000000FFFFFFFD00
(1708108022.938558) can1 18FF1180#0300FBFDFFFF00FF
(1708108022.943232) can1 18FF1CF3#0000000000000000
(1708108022.946436) can1 04EF001C#354874E635287482
(1708108022.948190) can1 0CF00400#FF7D7D000000FFFF
(1708108022.953203) can1 0CEF0100#B020000000625400
(1708108022.956546) can1 04EF001C#F64AA1FCF60AA1B8
(1708108022.958195) can1 18FEF200#0000FFFFFFFF37FF
(1708108022.959827) can1 18FF1C17#0000000000000000
(1708108022.963190) can1 0CEF0017#812B8813CD0AFFFF
(1708108022.966675) can1 04EF001C#B54DD8E34AAA2700
(1708108022.968184) can1 0CF00400#FF7D7D000000FFFF
(1708108022.968788) can1 0CEF1100#41FB8161C997EDC4
(1708108022.973198) can1 18FFDC00#6014010000507B19
(1708108022.973817) can1 0CEF0100#B020000000625400
(1708108022.974348) can1 18E8FF00#02FFFFFFFF00EF00
(1708108022.976783) can1 04EF001C#A9502C1E5697D3DD
(1708108022.978183) can1 18FFDC00#6100000000A4FFA3
(1708108022.978757) can1 0CF00300#CF004FFF00FFFFFF
(1708108022.983180) can1 18FFDC00#62FFFF6E921B00FF
(1708108022.986888) can1 04EF001C#3453ADF5CB345296
(1708108022.988189) can1 0CF00400#FF7D7D000000FFFF
(1708108022.993205) can1 0CEF0100#B020000000625400
(1708108022.997000) can1 04EF001C#F5555AFB0BB2A418
(1708108022.998189) can1 18FEF100#FF0000F5FF11DFFF
(1708108023.007137) can1 04EF001C#43598947BDDE77C4
(1708108023.008188) can1 0CF00400#FF7D7D000000FFFF
(1708108023.013217) can1 0CEF0100#B020000000625400
(1708108023.017221) can1 04EF001C#E05B3F5D1E3CC13E
(1708108023.018169) can1 0CEF1100#1DEA5C85B87CE14F
(1708108023.023182) can1 18FFDC00#8014010000507B19
(1708108023.027352) can1 04EF001C#C25E34483C59CA4B
(1708108023.028180) can1 18FFDC00#8100000000A4FFA3
(1708108023.028746) can1 0CF00300#CF004FFF00FFFFFF
(1708108023.029324) can1 0CF00400#FF7D7D000000FFFF
(1708108023.033186) can1 18FFDC00#82FFFF6E921B00FF
(1708108023.033826) can1 09F20000#000000FFFFFFFFFF
(1708108023.034393) can1 0CEF0100#B020000000625400
(1708108023.037451) can1 04EF001C#8441886779E675C4
(1708108023.038070) can1 18FF1080#000000FFFFFFFD00
(1708108023.039548) can1 18FF1180#0300FBFDFFFF00FF
(1708108023.040556) can1 18FF1380#000000003FC0C006
(1708108023.043197) can1 0CEF0017#812B8813CD0AFFFF
(1708108023.047570) can1 04EF001C#1E443EB2E303C3F1
(1708108023.048189) can1 0CF00400#FF7D7D000000FFFF
(1708108023.053215) can1 0CEF0100#B020000000625400
(1708108023.053771) can1 18E8FF00#02FFFFFFFF00EF00
(1708108023.057678) can1 04EF001C#03473B59FE40C65A
(1708108023.058301) can1 18FEF200#0000FFFFFFFF37FF
(1708108023.063227) can1 18FF1CF3#0000000000000000
(1708108023.067788) can1 04EF001C#C4498A6F38AE768C
(1708108023.068333) can1 0CEF1100#D8ECDBECFB078A15
(1708108023.068913) can1 0CF00400#FF7D7D000000FFFF
(1708108023.073203) can1 18FFDC00#A014010000507B19
(1708108023.073817) can1 0CEF0100#B020000000625400
(1708108023.077886) can1 04EF001C#F64BA9FD0A8C553E
(1708108023.078467) can1 0CF00300#CF004FFF00FFFFFF
(1708108023.079041) can1 18FFDC00#A100000000A4FFA3
(1708108023.083193) can1 18FFDC00#A2FFFF6E921B00FF
(1708108023.088009) can1 04EF001C#B74EC2F04BA93E13
(1708108023.088571) can1 0CF00400#FF7D7D000000FFFF
(1708108023.093210) can1 0CEF0100#B020000000625400
(1708108023.098117) can1 04EF001C#7851F39784B60F74
(1708108023.098738) can1 18FEF100#FF0000F5FF11DFFF
(1708108023.108203) can1 0CF00400#FF7D7D000000FFFF
(1708108023.108728) can1 04EF001C#345495F2C95368F1
(1708108023.113217) can1 0CEF0100#B020000000625400
(1708108023.118159) can1 0CEF1100#EF9EC78B4E38FA60
(1708108023.118709) can1 04EF001C#F55642F80871BFDB
(1708108023.123194) can1 18FFDC00#C014010000507B19
(1708108023.128189) can1 18FFDC00#C100000000A4FFA3
(1708108023.128769) can1 04EF001C#B7597AE74A3E8784
(1708108023.129293) can1 0CF00300#CF004FFF00FFFFFF
(1708108023.129874) can1 0CF00400#FF7D7D000000FFFF
(1708108023.133185) can1 18FFDC00#C2FFFF6E921B00FF
(1708108023.133782) can1 09F20000#000000FFFFFFFFFF
(1708108023.134446) can1 0CEF0100#B020000000625400
(1708108023.137559) can1 18FF1080#000000FFFFFFFD00
(1708108023.138210) can1 09F20100#2016000100FFFFCB
(1708108023.138756) can1 04EF001C#755C96F288DB6B71
(1708108023.139326) can1 18FF1180#0300FBFDFFFF00FF
(1708108023.143176) can1 09F20100#2172C90400006E92
(1708108023.143719) can1 0CEF0017#812B8813CD0AFFFF
(1708108023.148198) can1 0CF00400#FF7D7D000000FFFF
(1708108023.148787) can1 04EF001C#345FCDF9C9F8305A
(1708108023.149344) can1 09F20100#221B00FFFFFFFF00
(1708108023.149913) can1 18FEEE00#3DFFFFFFFFFF42FF
(1708108023.153208) can1 09F20100#230100FFFFFFFFFF
(1708108023.153805) can1 0CEF0100#B020000000625400
(1708108023.154369) can1 18E8FF00#02FFFFFFFF00EF00
(1708108023.154969) can1 18FEEF00#FFFFFF00FFFFFFFF
(1708108023.158210) can1 18FEF200#0000FFFFFFFF37FF
(1708108023.158824) can1 04EF001C#F641F9F70B860434
(1708108023.159627) can1 18FF1C17#0000000000000000
(1708108023.163174) can1 18FEF700#FFFF1A01F500F600
(1708108023.163763) can1 18FF1CF3#0000000000000000
(1708108023.168200) can1 0CF00400#FF7D7D000000FFFF
(1708108023.168783) can1 0CEF1100#3E900540107734D1
(1708108023.169490) can1 04EF001C#B64493F248436DF1
(1708108023.173214) can1 18FFDC00#E014010000507B19
(1708108023.173875) can1 0CEF0100#B020000000625400
(1708108023.178200) can1 18FFDC00#E100000000A4FFA3
(1708108023.178748) can1 0CF00300#CF004FFF00FFFFFF
(1708108023.179319) can1 04EF001C#75474EE98B60B0CA
(1708108023.183176) can1 18FFDC00#E2FFFF6E921B00FF
(1708108023.183780) can1 0CEF1700#01AB8813CD0AFFFF
(1708108023.188193) can1 0CF00400#FF7D7D000000FFFF
(1708108023.188840) can1 18FEFC00#FFA3FFFFFFFFFFFF
(1708108023.189384) can1 04EF001C#344A65ECCA0D9BAF
(1708108023.193217) can1 0CEF0100#B020000000625400
(1708108023.193771) can1 18FEF600#FFFF3D2AFFFFFFFF
(1708108023.198185) can1 18FEF100#FF0000F5FF11DFFF
(1708108023.199244) can1 04EF001C#F54C92E20B2B6C81
(1708108023.203225) can1 0CEF0017#812B8813CD0AFFFF
(1708108023.208193) can1 0CF00400#FF7D7D000000FFFF
(1708108023.209388) can1 04EF001C#4850CA16B6F734B5
(1708108023.213212) can1 0CEF0100#B020000000625400
(1708108023.213790) can1 18E8FF00#02FFFFFFFF00EF00
(1708108023.218166) can1 0CEF1100#68834A74678A0AEA
(1708108023.219493) can1 04EF001C#0953911DF7946FDE
(1708108023.223200) can1 18FFDC00#0014010000507B19
(1708108023.228189) can1 18FFDC00#0100000000A4FFA3
(1708108023.228756) can1 0CF00300#CF004FFF00FFFFFF
(1708108023.229363) can1 0CF00400#FF7D7D000000FFFF
(1708108023.229960) can1 04EF001C#EB55440B15B2BAE8
(1708108023.233180) can1 18FFDC00#02FFFF6E921B00FF
(1708108023.233783) can1 09F20000#000000FFFFFFFFFF
(1708108023.234358) can1 0CEF0100#B020000000625400
(1708108023.238583) can1 18FF1080#000000FFFFFFFD00
(1708108023.239573) can1 18FF1180#0300FBFDFFFF00FF
