(1708107879.003245) can1 18E8FF00#02FFFFFFFF00EF00
(1708107879.006324) can1 04EF001C#C54A93F4C69A90B0
(1708107879.008222) can1 0CF00400#FF7D7D000000FFFF
(1708107879.013245) can1 0CEF0100#B020000000625400
(1708107879.013836) can1 18FF1CF3#0000000000000000
(1708107879.016456) can1 04EF001C#874DEBE3849DE8A7
(1708107879.018201) can1 0CEF1100#78AA46FF71FFE653
(1708107879.023236) can1 18FFDC00#8014010000507B19
(1708107879.026538) can1 04EF001C#2150A0CE2280A38A
(1708107879.028202) can1 18FFDC00#810F000000A4FFA3
(1708107879.028864) can1 0CF00300#CF004FFF00FFFFFF
(1708107879.029349) can1 0CF00400#FF7D7D000000FFFF
(1708107879.033210) can1 18FFDC00#82FFFF6E921B00FF
(1708107879.033803) can1 09F20000#000000FFFFFFFFFF
(1708107879.034407) can1 0CEF0100#B020000000625400
(1708107879.036652) can1 04EF001C#3D53A42D3EE3A709
(1708107879.046771) can1 04EF001C#C65568F3C5C56BF7
(1708107879.048219) can1 0CF00400#FF7D7D000000FFFF
(1708107879.048886) can1 18FF1080#000000FFFFFFFD00
(1708107879.050397) can1 18FF1180#0300FBFDFFFF02FF
(1708107879.053252) can1 0CEF0100#B020000000625400
(1708107879.056869) can1 04EF001C#6358A0D660E8A3F2
(1708107879.058235) can1 18FEF200#0000FFFFFFFF37FF
(1708107879.066981) can1 04EF001C#B85A6D0CBBEA6E28
(1708107879.068224) can1 0CF00400#FF7D7D000000FFFF
(1708107879.068783) can1 0CEF1100#A6A9AF8FBF3547A5
(1708107879.073270) can1 18FFDC00#A014010000507B19
(1708107879.073826) can1 0CEF0100#B020000000625400
(1708107879.074401) can1 0CEF0017#812B8813CD0AFFFF
(1708107879.077094) can1 04EF001C#7A5D911B782D93FF
(1708107879.078213) can1 18FFDC00#A110000000A4FFA3
(1708107879.078797) can1 0CF00300#CF004FFF00FFFFFF
(1708107879.083222) can1 18FFDC00#A2FFFF6E921B00FF
(1708107879.083817) can1 18E8FF00#02FFFFFFFF00EF00
(1708107879.087213) can1 04EF001C#3740365E3520349A
(1708107879.088226) can1 0CF00400#FF7D7D000000FFFF
(1708107879.093244) can1 0CEF0100#B020000000625400
(1708107879.093855) can1 18FF1CF3#0000000000000000
(1708107879.097322) can1 04EF001C#F942EE2CFB42EC88
(1708107879.098218) can1 18FEF100#FF1D00F5FF11DFFF
(1708107879.107423) can1 04EF001C#B7459A5BB56598DF
(1708107879.108231) can1 0CF00400#FF7D7D000000FFFF
(1708107879.113238) can1 0CEF0100#B020000000625400
(1708107879.117536) can1 04EF001C#78483B2E7A6839AA
(1708107879.118204) can1 0CEF1100#14D84E80ACA18BA5
(1708107879.123228) can1 18FFDC00#C014010000507B19
(1708107879.127650) can1 04EF001C#384B612D3A6B63A9
(1708107879.128236) can1 18FFDC00#C112000000A4FFA3
(1708107879.128928) can1 0CF00300#CF004FFF00FFFFFF
(1708107879.129359) can1 0CF00400#FF7D7D000000FFFF
(1708107879.133224) can1 18FFDC00#C2FFFF6E921B00FF
(1708107879.133801) can1 09F20000#000000FFFFFFFFFF
(1708107879.134391) can1 0CEF0100#B020000000625400
(1708107879.137761) can1 04EF001C#F84D972BFA8D954F
(1708107879.138359) can1 09F20100#2016000200FFFFC6
(1708107879.143205) can1 09F20100#2172C90400006E92
(1708107879.147880) can1 04EF001C#B8503D36BAB03F72
(1708107879.148451) can1 09F20100#221B00FFFFFFFF00
(1708107879.149023) can1 0CF00400#FF7D7D000000FFFF
(1708107879.149648) can1 18FEEE00#3CFFFFFFFFFF42FF
(1708107879.150194) can1 18FF1080#000000FFFFFFFD00
(1708107879.151403) can1 18FF1180#0300FBFDFFFF02FF
(1708107879.152400) can1 18FF1380#000000003FC0C006
(1708107879.153229) can1 09F20100#230100FFFFFFFFFF
(1708107879.153843) can1 0CEF0100#B020000000625400
(1708107879.154418) can1 0CEF0017#812B8813CD0AFFFF
(1708107879.154955) can1 18FEEF00#FFFFFF00FFFFFFFF
(1708107879.157991) can1 04EF001C#7853E3357AB3E171
(1708107879.158596) can1 18FEF200#0000FFFFFFFF37FF
(1708107879.163220) can1 18FEF700#FFFF1A01F500F600
(1708107879.163807) can1 18E8FF00#02FFFFFFFF00EF00
(1708107879.165000) can1 18FF1C17#0000000000000000
(1708107879.168093) can1 04EF001C#395688383B968A5C
(1708107879.168661) can1 0CEF1100#DED7C253765E87F1
(1708107879.169226) can1 0CF00400#FF7D7D000000FFFF
(1708107879.173247) can1 18FFDC00#E014010000507B19
(1708107879.173811) can1 0CEF0100#B020000000625400
(1708107879.178235) can1 04EF001C#F8583F3EFA783DBA
(1708107879.178874) can1 0CF00300#CF004FFF00FFFFFF
(1708107879.179354) can1 18FFDC00#E113000000A4FFA3
(1708107879.183213) can1 18FFDC00#E2FFFF6E921B00FF
(1708107879.183796) can1 0CEF1700#01AB8813CD0AFFFF
(1708107879.188243) can1 0CF00400#FF7D7D000000FFFF
(1708107879.188884) can1 04EF001C#B95B6435BB3B66F1
(1708107879.189358) can1 18FEFC00#FFA3FFFFFFFFFFFF
(1708107879.193257) can1 0CEF0100#B020000000625400
(1708107879.193814) can1 18FEF600#FFFF3C2AFFFFFFFF
(1708107879.198226) can1 18FEF100#FF2100F5FF11DFFF
(1708107879.198752) can1 04EF001C#E25E15E8E1DE16CC
(1708107879.208240) can1 0CF00400#FF7D7D000000FFFF
(1708107879.208772) can1 04EF001C#C641C8D7C561CB53
(1708107879.213244) can1 0CEF0100#B020000000625400
(1708107879.218204) can1 0CEF1100#8ACCCDF593258DDC
(1708107879.218770) can1 04EF001C#8744A3DA8404A03E
(1708107879.223250) can1 18FFDC00#0014010000507B19
(1708107879.228215) can1 18FFDC00#0115000000A4FFA3
(1708107879.228858) can1 0CF00300#CF004FFF00FFFFFF
(1708107879.229324) can1 04EF001C#214718F922171B1D
(1708107879.229893) can1 0CF00400#FF7D7D000000FFFF
(1708107879.233229) can1 18FFDC00#02FFFF6E921B00FF
(1708107879.233800) can1 09F20000#000000FFFFFFFFFF
(1708107879.234382) can1 0CEF0100#B020000000625400
(1708107879.235016) can1 18FF1CF3#0000000000000000
(1708107879.238899) can1 04EF001C#064A56CC02FA52C8
(1708107879.248228) can1 0CF00400#FF7D7D000000FFFF
(1708107879.249015) can1 04EF001C#C64CA0CAC2DCA4EE
(1708107879.249593) can1 18FF1080#000000FFFFFFFD00
(1708107879.250405) can1 18FF1180#0300FBFDFFFF02FF
(1708107879.253249) can1 0CEF0100#B020000000625400
(1708107879.253849) can1 0CEF0017#812B8813CD0AFFFF
(1708107879.258244) can1 18FEF200#0000FFFFFFFF37FF
(1708107879.259125) can1 04EF001C#624F19E966DF1DCD
(1708107879.263243) can1 18E8FF00#02FFFFFFFF00EF00
(1708107879.268232) can1 0CF00400#FF7D7D000000FFFF
(1708107879.268855) can1 0CEF1100#44C76007FFD3CD39
(1708107879.269361) can1 04EF001C#B8513527BCA13163
(1708107879.273246) can1 18FFDC00#2014010000507B19
(1708107879.273812) can1 0CEF0100#B020000000625400
(1708107879.278226) can1 18FFDC00#2116000000A4FFA3
(1708107879.278830) can1 0CF00300#CF004FFF00FFFFFF
(1708107879.279426) can1 04EF001C#7954DA2A7DE4DE2E
(1708107879.283225) can1 18FFDC00#22FFFF6E921B00FF
(1708107879.283796) can1 0DF50B9B#59FFFFFFFF0000FF
(1708107879.288232) can1 0CF00400#FF7D7D000000FFFF
(1708107879.289447) can1 04EF001C#A1571CE9A2071F0D
(1708107879.293250) can1 0CEF0100#B020000000625400
(1708107879.293872) can1 18FF1CF3#0000000000000000
(1708107879.298209) can1 18FEF100#FF2600F5FF11DFFF
(1708107879.299565) can1 04EF001C#1E5ACE1C1D0ACDF8
(1708107879.308230) can1 0CF00400#FF7D7D000000FFFF
(1708107879.309664) can1 04EF001C#DD5C3B02DE2C38C6
(1708107879.313233) can1 0CEF0100#B020000000625400
(1708107879.313844) can1 0CEF0017#812B8813CD0AFFFF
(1708107879.318203) can1 0CEF1100#32F2963B45EF7565
(1708107879.319783) can1 04EF001C#9D5F61019E6F6285
(1708107879.323218) can1 18FFDC00#4014010000507B19
(1708107879.323819) can1 18E8FF00#02FFFFFFFF00EF00
(1708107879.328214) can1 18FFDC00#4118000000A4FFA3
(1708107879.328852) can1 0CF00300#CF004FFF00FFFFFF
(1708107879.329346) can1 0CF00400#FF7D7D000000FFFF
(1708107879.329912) can1 04EF001C#9542815C96F28258
(1708107879.333216) can1 18FFDC00#42FFFF6E921B00FF
(1708107879.333843) can1 09F20000#000000FFFFFFFFFF
(1708107879.334462) can1 0CEF0100#B020000000625400
(1708107879.340003) can1 04EF001C#F944DE3AFB74DCBE
(1708107879.348231) can1 0CF00400#FF7D7D000000FFFF
(1708107879.350095) can1 04EF001C#EC47D391EEF7D195
(1708107879.350768) can1 18FF1080#000000FFFFFFFD00
(1708107879.351420) can1 18FF1180#0300FBFDFFFF02FF
(1708107879.352411) can1 18FF1380#000000003FC0C006
(1708107879.353247) can1 0CEF0100#B020000000625400
(1708107879.358240) can1 18FEF200#0000FFFFFFFF37FF
(1708107879.360209) can1 04EF001C#AE4AFB8CAF3AFA48
(1708107879.365033) can1 18FF1C17#0000000000000000
(1708107879.368265) can1 0CF00400#FF7D7D000000FFFF
(1708107879.368948) can1 0CEF1100#0BF6B9B2BCD39CED
(1708107879.370351) can1 04EF001C#944DF85B95DDF97F
(1708107879.373221) can1 18FFDC00#6014010000507B19
(1708107879.373853) can1 0CEF0100#B020000000625400
(1708107879.378217) can1 18FFDC00#611A000000A4FFA3
(1708107879.378828) can1 0CF00300#CF004FFF00FFFFFF
(1708107879.380433) can1 04EF001C#8E500A968E200A52
(1708107879.381785) can1 15FD069B#B1D473FFFFFFFFFF
(1708107879.383198) can1 18FFDC00#62FFFF6E921B00FF
(1708107879.388237) can1 0CF00400#FF7D7D000000FFFF
(1708107879.390547) can1 04EF001C#EC527B84EC827BE0
(1708107879.393245) can1 0CEF0100#B020000000625400
(1708107879.393893) can1 0CEF0017#812B8813CD0AFFFF
(1708107879.398233) can1 18FEF100#FF2B00F5FF11DFFF
(1708107879.400679) can1 04EF001C#3F568E083FD68E2C
(1708107879.403235) can1 18E8FF00#02FFFFFFFF00EF00
(1708107879.408231) can1 0CF00400#FF7D7D000000FFFF
(1708107879.410788) can1 04EF001C#FD583A16FDF83A12
(1708107879.413238) can1 0CEF0100#B020000000625400
(1708107879.413873) can1 18FF1CF3#0000000000000000
(1708107879.418213) can1 0CEF1100#DAE0BB7F6080B64A
(1708107879.420895) can1 04EF001C#625BB9ED62FBB9E9
(1708107879.423224) can1 18FFDC00#8014010000507B19
(1708107879.428200) can1 18FFDC00#811B000000A4FFA3
(1708107879.428883) can1 0CF00300#CF004FFF00FFFFFF
(1708107879.429352) can1 09F8021C#77FC1E120000FFFF
(1708107879.429920) can1 0CF00400#FF7D7D000000FFFF
(1708107879.430476) can1 09F8011C#3E6E2618F86B5BC1
(1708107879.432028) can1 04EF001C#285FD1B928FFD1BD
(1708107879.433067) can1 09F8011C#3E6E2618F86B5BC1
(1708107879.433654) can1 09F20000#000000FFFFFFFFFF
(1708107879.434236) can1 0CEF0100#B020000000625400
(1708107879.434882) can1 18FFDC00#82FFFF6E921B00FF
(1708107879.435364) can1 19FA031C#77D252009D006500
(1708107879.436126) can1 0DF0101C#77F0A34DC025A82B
(1708107879.437103) can1 18FEE81C#4A0D00002164457E
(1708107879.438169) can1 19FA041C#809F77FF0D017512
(1708107879.439180) can1 19FA041C#81FAC80410FFFFFF
(1708107879.440193) can1 19FA041C#82FFFF055528D020
(1708107879.441150) can1 04EF001C#BF41B21F40064DFC
(1708107879.442207) can1 19FA041C#83740EFFFFFFFFFF
(1708107879.443203) can1 19FA041C#840CBC020C7B6C07
(1708107879.444218) can1 19FA041C#85FFFFFFFFFF0D82
(1708107879.445246) can1 19FA041C#86147648D80EFFFF
(1708107879.446250) can1 19FA041C#87FFFFFF0FED172C
(1708107879.447254) can1 19FA041C#88659411FFFFFFFF
(1708107879.448223) can1 0CF00400#FF7D7D000000FFFF
(1708107879.448861) can1 19FA041C#89FF100000F4E200
(1708107879.450289) can1 19FA041C#8A00FFFFFFFFFF12
(1708107879.450910) can1 18FF1080#000000FFFFFFFD00
(1708107879.451424) can1 04EF001C#6D444E8A6DE44E8E
(1708107879.452325) can1 19FA041C#8B071C3EC69411FF
(1708107879.452944) can1 18FF1180#0300FBFDFFFF02FF
(1708107879.453490) can1 0CEF0100#B020000000625400
(1708107879.454092) can1 19FA041C#8CFFFFFFFF148214
(1708107879.455345) can1 19FA041C#8D2E220000FFFFFF
(1708107879.456366) can1 19FA041C#8EFFFF194E0C748B
(1708107879.457381) can1 19FA041C#8F1C0CFFFFFFFFFF
(1708107879.458231) can1 18FEF200#0000FFFFFFFF37FF
(1708107879.458788) can1 19FA041C#901AFD0C72CE100E
(1708107879.460392) can1 19FA041C#91FFFFFFFFFF1D28
(1708107879.461341) can1 04EF001C#3047096130C70945
(1708107879.462400) can1 19FA041C#923CA2AD3C0FFFFF
(1708107879.463412) can1 19FA041C#93FFFFFF2CB61CFC
(1708107879.464418) can1 19FA041C#94853011FFFFFFFF
(1708107879.465426) can1 19FA041C#95FF30A91A308EA0
(1708107879.466455) can1 19FA041C#960FFFFFFFFFFFFF
(1708107879.468222) can1 0CF00400#FF7D7D000000FFFF
(1708107879.468768) can1 0CEF1100#92E5C33E8D592B25
(1708107879.471442) can1 04EF001C#B748F256B7A8F212
(1708107879.473239) can1 18FFDC00#A014010000507B19
(1708107879.473864) can1 0CEF0100#B020000000625400
(1708107879.474361) can1 0CEF0017#812B8813CD0AFFFF
(1708107879.478228) can1 18FFDC00#A11C000000A4FFA3
(1708107879.478860) can1 0CF00300#CF004FFF00FFFFFF
(1708107879.481549) can1 04EF001C#784B232D788B2349
(1708107879.483205) can1 18FFDC00#A2FFFF6E921B00FF
(1708107879.483784) can1 18E8FF00#02FFFFFFFF00EF00
(1708107879.488231) can1 0CF00400#FF7D7D000000FFFF
(1708107879.491680) can1 04EF001C#374E4650374E46F4
(1708107879.493250) can1 0CEF0100#B020000000625400
(1708107879.493870) can1 18FF1CF3#0000000000000000
(1708107879.498221) can1 18FEF100#FF2F00F5FF11DFFF
(1708107879.501804) can1 04EF001C#F8507F36F8307FF2
(1708107879.508230) can1 0CF00400#FF7D7D000000FFFF
(1708107879.511879) can1 04EF001C#B8532535B9F32431
(1708107879.513245) can1 0CEF0100#B020000000625400
(1708107879.518206) can1 0CEF1100#2296B2A19AC94785
(1708107879.521995) can1 04EF001C#7856CB3079D6CA14
(1708107879.523222) can1 18FFDC00#C014010000507B19
(1708107879.528218) can1 18FFDC00#C11D000000A4FFA3
(1708107879.528867) can1 0CF00300#CF004FFF00FFFFFF
(1708107879.529368) can1 0CF00400#FF7D7D000000FFFF
(1708107879.532111) can1 04EF001C#3759FE4736B9FF03
(1708107879.533210) can1 18FFDC00#C2FFFF6E921B00FF
(1708107879.533816) can1 09F20000#000000FFFFFFFFFF
(1708107879.534394) can1 0CEF0100#B020000000625400
(1708107879.542237) can1 04EF001C#F85B273DF97B26B9
(1708107879.548230) can1 0CF00400#FF7D7D000000FFFF
(1708107879.551419) can1 18FF1080#000000FFFFFFFD00
(1708107879.552324) can1 04EF001C#B75E4240B69E4324
(1708107879.552926) can1 18FF1180#0300FBFDFFFF02FF
(1708107879.553484) can1 0CEF0100#B020000000625400
(1708107879.554053) can1 0CEF0017#812B8813CD0AFFFF
(1708107879.554630) can1 18FF1380#000000003FC0C006
(1708107879.558252) can1 18FEF200#0000FFFFFFFF37FF
(1708107879.562441) can1 04EF001C#7A4171377BA17073
(1708107879.563242) can1 18E8FF00#02FFFFFFFF00EF00
(1708107879.568231) can1 0CF00400#FF7D7D000000FFFF
(1708107879.568865) can1 0CEF1100#7E8F2F47F33B83CC
(1708107879.572553) can1 04EF001C#3744165A36C4177E
(1708107879.573240) can1 18FFDC00#E014010000507B19
(1708107879.573886) can1 0CEF0100#B020000000625400
(1708107879.578229) can1 18FFDC00#E11E000000A4FFA3
(1708107879.578826) can1 0CF00300#CF004FFF00FFFFFF
(1708107879.582679) can1 04EF001C#F946CE28F8C6CF0C
(1708107879.583279) can1 18FFDC00#E2FFFF6E921B00FF
(1708107879.588236) can1 0CF00400#FF7D7D000000FFFF
(1708107879.592791) can1 04EF001C#214A70E420AA71A0
(1708107879.593426) can1 0CEF0100#B020000000625400
(1708107879.593967) can1 18FF1CF3#0000000000000000
(1708107879.598234) can1 18FEF100#FF3200F5FF11DFFF
(1708107879.602915) can1 04EF001C#064D6EDB078D6FBF
(1708107879.608234) can1 0CF00400#FF7D7D000000FFFF
(1708107879.613013) can1 04EF001C#C34FBDF1C24FBC55
(1708107879.613594) can1 0CEF0100#B020000000625400
(1708107879.618201) can1 0CEF1100#A88614751760296C
(1708107879.623131) can1 04EF001C#6252F1E46332F020
(1708107879.623724) can1 18FFDC00#0014010000507B19
(1708107879.628218) can1 18FFDC00#011F000000A4FFA3
(1708107879.628887) can1 0CF00300#CF004FFF00FFFFFF
(1708107879.629369) can1 0CF00400#FF7D7D000000FFFF
(1708107879.633221) can1 18FFDC00#02FFFF6E921B00FF
(1708107879.633754) can1 04EF001C#4555EFDB4435EE1F
(1708107879.634399) can1 09F20000#000000FFFFFFFFFF
(1708107879.634938) can1 0CEF0017#812B8813CD0AFFFF
(1708107879.635497) can1 0CEF0100#B020000000625400
(1708107879.636136) can1 18FF1C17#0000000000000000
(1708107879.643234) can1 18E8FF00#02FFFFFFFF00EF00
(1708107879.643792) can1 04EF001C#0758C7C60638C602
(1708107879.648230) can1 0CF00400#FF7D7D000000FFFF
(1708107879.651418) can1 18FF1080#000000FFFFFFFD00
(1708107879.652408) can1 18FF1180#0300FBFDFFFF02FF
(1708107879.653233) can1 18FEEF00#FFFFFF00FFFFFFFF
(1708107879.653823) can1 04EF001C#A15A74F4A01A7510
(1708107879.654383) can1 0CEF0100#B020000000625400
(1708107879.658279) can1 18FEF200#0000FFFFFFFF37FF
(1708107879.663577) can1 04EF001C#F85C1F3AFADC1D1E
(1708107879.668232) can1 0CF00400#FF7D7D000000FFFF
(1708107879.668770) can1 0CEF1100#EE85DFC5FEBC1FA2
(1708107879.673244) can1 18FFDC00#2014010000507B19
(1708107879.673788) can1 04EF001C#B95F4431BBBF4675
(1708107879.674377) can1 0CEF0100#B020000000625400
(1708107879.678217) can1 18FFDC00#2120000000A4FFA3
(1708107879.678831) can1 0CF00300#CF004FFF00FFFFFF
(1708107879.683216) can1 18FFDC00#22FFFF6E921B00FF
(1708107879.683757) can1 0CEF1700#01AB8813CD0AFFFF
(1708107879.684327) can1 04EF001C#78426B247A826940
(1708107879.688222) can1 0CF00400#FF7D7D000000FFFF
(1708107879.693244) can1 0CEF0100#B020000000625400
(1708107879.693854) can1 18FEF600#FFFF3C2AFFFFFFFF
(1708107879.694363) can1 04EF001C#37451E6B35551CEF
(1708107879.698226) can1 18FEF100#FF3500F5FF11DFFF
(1708107879.704021) can1 04EF001C#F847C711FA57C595
(1708107879.708230) can1 0CF00400#FF7D7D000000FFFF
(1708107879.713241) can1 0CEF0100#B020000000625400
(1708107879.713996) can1 18FF1CF3#0000000000000000
(1708107879.714648) can1 04EF001C#B74AE264B57AE0C0
(1708107879.718215) can1 0CEF1100#1CB42CD86DA8C7B6
(1708107879.723233) can1 18FFDC00#4014010000507B19
(1708107879.724246) can1 04EF001C#784D131B7A7D11BF
(1708107879.728204) can1 18FFDC00#4120000000A4FFA3
(1708107879.728865) can1 0CF00300#CF004FFF00FFFFFF
(1708107879.729379) can1 0CF00400#FF7D7D000000FFFF
(1708107879.733221) can1 18FFDC00#42FFFF6E921B00FF
(1708107879.733796) can1 09F20000#000000FFFFFFFFFF
(1708107879.734371) can1 0CEF0017#812B8813CD0AFFFF
(1708107879.734990) can1 04EF001C#3850B9063A60BBA2
(1708107879.735534) can1 0CEF0100#B020000000625400
(1708107879.743238) can1 18E8FF00#02FFFFFFFF00EF00
(1708107879.744465) can1 04EF001C#1E5386351C638491
(1708107879.748218) can1 0CF00400#FF7D7D000000FFFF
(1708107879.752412) can1 18FF1080#000000FFFFFFFD00
(1708107879.753310) can1 0CEF0100#B020000000625400
(1708107879.753854) can1 18FF1180#0300FBFDFFFF02FF
(1708107879.754611) can1 04EF001C#DC557223DE4570A7
(1708107879.755413) can1 18FF1380#000000003FC0C006
(1708107879.758245) can1 18FEF200#0000FFFFFFFF37FF
(1708107879.764677) can1 04EF001C#7958BA067B88B842
(1708107879.768222) can1 0CF00400#FF7D7D000000FFFF
(1708107879.768848) can1 0CEF1100#4EAB02CFB4457DFE
(1708107879.773238) can1 18FFDC00#6014010000507B19
(1708107879.773807) can1 0CEF0100#B020000000625400
(1708107879.774817) can1 04EF001C#5C5B862D5EAB8449
(1708107879.778224) can1 18FFDC00#6121000000A4FFA3
(1708107879.778816) can1 0CF00300#CF004FFF00FFFFFF
(1708107879.783214) can1 18FFDC00#62FFFF6E921B00FF
(1708107879.784890) can1 04EF001C#555EA760578EA524
(1708107879.788224) can1 0CF00400#FF7D7D000000FFFF
(1708107879.793245) can1 0CEF0100#B020000000625400
(1708107879.793954) can1 0CEF0017#812B8813CD0AFFFF
(1708107879.795022) can1 04EF001C#7D41763F7FD1743B
(1708107879.798225) can1 18FEF100#FF3700F5FF11DFFF
(1708107879.803236) can1 18E8FF00#02FFFFFFFF00EF00
(1708107879.805151) can1 04EF001C#2C440DB22D340C56
(1708107879.808218) can1 0CF00400#FF7D7D000000FFFF
(1708107879.813241) can1 0CEF0100#B020000000625400
(1708107879.814072) can1 18FF1CF3#0000000000000000
(1708107879.815237) can1 04EF001C#D946EF18D816EEDC
(1708107879.818203) can1 0CEF1100#79DAC6A8C7BACBBD
(1708107879.823233) can1 18FFDC00#8014010000507B19
(1708107879.824889) can1 18FF1C17#0000000000000000
(1708107879.825481) can1 04EF001C#BD49F037BC59F1B3
(1708107879.828206) can1 18FFDC00#8122000000A4FFA3
(1708107879.828777) can1 0CF00300#CF004FFF00FFFFFF
(1708107879.829359) can1 0CF00400#FF7D7D000000FFFF
(1708107879.833220) can1 18FFDC00#82FFFF6E921B00FF
(1708107879.833800) can1 09F20000#000000FFFFFFFFFF
(1708107879.834383) can1 0CEF0100#B020000000625400
(1708107879.835485) can1 04EF001C#6D4C0EB26CBC0FD6
(1708107879.845577) can1 04EF001C#E24E95C8E39E948C
(1708107879.848216) can1 0CF00400#FF7D7D000000FFFF
(1708107879.848857) can1 18FECA00#40FF00000000FFFF
(1708107879.852411) can1 18FF1080#000000FFFFFFFD00
(1708107879.853246) can1 0CEF0100#B020000000625400
(1708107879.853841) can1 18FF1180#0300FBFDFFFF02FF
(1708107879.855706) can1 04EF001C#FD51722FFCC1732B
(1708107879.858244) can1 18FEF200#0000FFFFFFFF37FF
(1708107879.865810) can1 04EF001C#F8536705F82367E1
(1708107879.868218) can1 0CF00400#FF7D7D000000FFFF
(1708107879.868775) can1 0CEF1100#39D90CA81BF1455F
(1708107879.873243) can1 18FFDC00#A014010000507B19
(1708107879.873834) can1 0CEF0100#B020000000625400
(1708107879.874361) can1 0CEF0017#812B8813CD0AFFFF
(1708107879.875897) can1 04EF001C#ED565AA8ED065A6C
(1708107879.878224) can1 18FFDC00#A122000000A4FFA3
(1708107879.878852) can1 0CF00300#CF004FFF00FFFFFF
(1708107879.879866) can1 15FD069B#B2D473FFFFFFFFFF
(1708107879.883219) can1 18FFDC00#A2FFFF6E921B00FF
(1708107879.883795) can1 18E8FF00#02FFFFFFFF00EF00
(1708107879.886025) can1 04EF001C#AE5963BFAE09637B
(1708107879.888220) can1 0CF00400#FF7D7D000000FFFF
(1708107879.893245) can1 0CEF0100#B020000000625400
(1708107879.893982) can1 0CEA1C00#00EE000000000000
(1708107879.895164) can1 18EEFF1C#0204450E00000042
(1708107879.896112) can1 04EF001C#BC5C592ABC6C598E
(1708107879.898230) can1 18FEF100#FF3800F5FF11DFFF
(1708107879.906256) can1 04EF001C#F95E0E00F96E0EA4
(1708107879.908225) can1 0CF00400#FF7D7D000000FFFF
(1708107879.913238) can1 0CEF0100#B020000000625400
(1708107879.916346) can1 04EF001C#B741BA6FB7B1BA0B
(1708107879.918200) can1 0CEF1100#D5C8F8CC475604BE
(1708107879.923231) can1 18FFDC00#C014010000507B19
(1708107879.926450) can1 04EF001C#78445B1278945B56
(1708107879.928201) can1 18FFDC00#C123000000A4FFA3
(1708107879.928777) can1 0CF00300#CF004FFF00FFFFFF
(1708107879.929349) can1 0CF00400#FF7D7D000000FFFF
(1708107879.933216) can1 18FFDC00#C2FFFF6E921B00FF
(1708107879.933846) can1 09F20000#000000FFFFFFFFFF
(1708107879.934396) can1 0CEF0100#B020000000625400
(1708107879.934964) can1 18FF1CF3#0000000000000000
(1708107879.936559) can1 04EF001C#6C4757B16C9757F5
(1708107879.938627) can1 09F8021C#78FC1E120000FFFF
(1708107879.939599) can1 09F8011C#426E2618FC6B5BC1
(1708107879.940626) can1 19FA031C#78D26200AB007600
(1708107879.941626) can1 0DF0101C#78F0A34DD04CA82B
(1708107879.942665) can1 18FEE81C#4A0D00002064467E
(1708107879.943724) can1 19FA041C#A09F78FF0D017512
(1708107879.944731) can1 19FA041C#A1FAC8A00FFFFFFF
(1708107879.945732) can1 19FA041C#A2FFFF055528D020
(1708107879.946686) can1 04EF001C#AE4AFBACAEFAFB88
(1708107879.947773) can1 19FA041C#A33C0FFFFFFFFFFF
(1708107879.948355) can1 0CF00400#FF7D7D000000FFFF
(1708107879.948938) can1 19FA041C#A40CBC020C7B0807
(1708107879.949809) can1 19FA041C#A5FFFFFFFFFF0D82
(1708107879.950784) can1 19FA041C#A6147648A00FFFFF
(1708107879.951799) can1 19FA041C#A7FFFFFF0FED172C
(1708107879.952426) can1 18FF1080#000000FFFFFFFD00
(1708107879.952992) can1 19FA041C#A8653011FFFFFFFF
(1708107879.953578) can1 0CEF0100#B020000000625400
(1708107879.954129) can1 0CEF0017#812B8813CD0AFFFF
(1708107879.954747) can1 18FF1180#0300FBFDFFFF02FF
(1708107879.955377) can1 18FF2117#06FFFFFF00FFFFFF
(1708107879.955882) can1 18FF1380#000000003FC0C006
(1708107879.956445) can1 19FA041C#A9FF100000F4E200
(1708107879.957797) can1 04EF001C#AC4CC9BAACDCC9BE
(1708107879.958384) can1 18FEF200#0000FFFFFFFF37FF
(1708107879.958956) can1 19FA041C#A9FF100000F4E200
(1708107879.959917) can1 19FA041C#AA00FFFFFFFFFF12
(1708107879.960909) can1 19FA041C#AB071C3EC69411FF
(1708107879.961915) can1 19FA041C#ACFFFFFFFF148214
(1708107879.962925) can1 19FA041C#AD2E220000FFFFFF
(1708107879.963499) can1 18E8FF00#02FFFFFFFF00EF00
(1708107879.964056) can1 19FA041C#AEFFFF194E0C748B
(1708107879.965002) can1 19FA041C#AF800CFFFFFFFFFF
(1708107879.965941) can1 19FA041C#B01AFD0C72CE100E
(1708107879.966901) can1 04EF001C#3450B57634F0B552
(1708107879.967991) can1 19FA041C#B1FFFFFFFFFF1D28
(1708107879.968545) can1 0CEF1100#9BC1E13E3A1A34D6
(1708107879.969200) can1 0CF00400#FF7D7D000000FFFF
(1708107879.969685) can1 19FA041C#B23CA2AD3C0FFFFF
(1708107879.971070) can1 19FA041C#B3FFFFFF2CB61CFC
(1708107879.972027) can1 19FA041C#B4853011FFFFFFFF
(1708107879.973042) can1 19FA041C#B5FF30A91A308EA0
(1708107879.973616) can1 0CEF0100#B020000000625400
(1708107879.974185) can1 18FFDC00#E014010000507B19
(1708107879.974855) can1 19FA041C#B60FFFFFFFFFFFFF
(1708107879.977028) can1 04EF001C#3852A91438B2A970
(1708107879.978210) can1 18FFDC00#E123000000A4FFA3
(1708107879.978793) can1 0CF00300#CF004FFF00FFFFFF
(1708107879.983216) can1 18FFDC00#E2FFFF6E921B00FF
(1708107879.987128) can1 04EF001C#F9545E1AF9545E9E
(1708107879.988228) can1 0CF00400#FF7D7D000000FFFF
(1708107879.993245) can1 0CEF0100#B020000000625400
(1708107879.993982) can1 18FF1CF3#0000000000000000
(1708107879.997249) can1 04EF001C#465884EE4618842A
(1708107879.998218) can1 18FEF100#FF3900F5FF11DFFF
(1708107880.007377) can1 04EF001C#E45A33FCE5DA32F8
(1708107880.008228) can1 0CF00400#FF7D7D000000FFFF
(1708107880.013238) can1 0CEF0100#B020000000625400
(1708107880.017480) can1 04EF001C#A25D4FCBA39D4E8F
(1708107880.018305) can1 0CEF1100#69FEE220368D703D
(1708107880.023240) can1 18FFDC00#0014010000507B19
(1708107880.027596) can1 04EF001C#864082F687408372
(1708107880.028217) can1 18FFDC00#0124000000A4FFA3
(1708107880.028787) can1 0CF00300#CF004FFF00FFFFFF
(1708107880.029365) can1 0CF00400#FF7D7D000000FFFF
(1708107880.033227) can1 18FFDC00#02FFFF6E921B00FF
(1708107880.033828) can1 09F20000#000000FFFFFFFFFF
(1708107880.034378) can1 0CEF0017#812B8813CD0AFFFF
(1708107880.034968) can1 0CEF0100#B020000000625400
(1708107880.037712) can1 04EF001C#214338CD20233929
(1708107880.043243) can1 18E8FF00#02FFFFFFFF00EF00
(1708107880.047823) can1 04EF001C#E345CCDBE1E5CEFF
(1708107880.048433) can1 0CF00400#FF7D7D000000FFFF
(1708107880.053241) can1 0CEF0100#B020000000625400
(1708107880.053821) can1 18FF1080#000000FFFFFFFD00
(1708107880.055403) can1 18FF1180#0300FBFDFFFF02FF
(1708107880.057937) can1 04EF001C#C54883E6C7488162
(1708107880.058514) can1 18FEF200#0000FFFFFFFF37FF
(1708107880.065185) can1 18FF1C17#0000000000000000
(1708107880.068023) can1 04EF001C#F84AAF0CFBCAAC08
(1708107880.068608) can1 0CEF1100#24F0030B4EDD60BC
(1708107880.069163) can1 0CF00400#FF7D7D000000FFFF
(1708107880.073250) can1 18FFDC00#2014010000507B19
(1708107880.073814) can1 0CEF0100#B020000000625400
(1708107880.078134) can1 04EF001C#B74DDA73B48DD937
(1708107880.078683) can1 0CF00300#CF004FFF00FFFFFF
(1708107880.079248) can1 18FFDC00#2124000000A4FFA3
(1708107880.083212) can1 18FFDC00#22FFFF6E921B00FF
(1708107880.088231) can1 0CF00400#FF7D7D000000FFFF
(1708107880.088842) can1 04EF001C#7950FA1E7AB0F97A
(1708107880.093256) can1 0CEF0100#B020000000625400
(1708107880.094097) can1 18FF1CF3#0000000000000000
(1708107880.098230) can1 18FEF100#FF3A00F5FF11DFFF
(1708107880.098765) can1 04EF001C#3953A01D3AB3A379
(1708107880.108237) can1 0CF00400#FF7D7D000000FFFF
(1708107880.108770) can1 04EF001C#F8555713FBB55477
(1708107880.113238) can1 0CEF0100#B020000000625400
(1708107880.114037) can1 0CEF0017#812B8813CD0AFFFF
(1708107880.118221) can1 0CEF1100#F3E220771A022FDE
(1708107880.118809) can1 04EF001C#B8587D1EBBF87E3A
(1708107880.123233) can1 18FFDC00#4014010000507B19
(1708107880.123816) can1 18E8FF00#02FFFFFFFF00EF00
(1708107880.128223) can1 18FFDC00#4124000000A4FFA3
(1708107880.128848) can1 04EF001C#785BA31D7BDBA019
(1708107880.129336) can1 0CF00300#CF004FFF00FFFFFF
(1708107880.129904) can1 0CF00400#FF7D7D000000FFFF
(1708107880.133219) can1 18FFDC00#42FFFF6E921B00FF
(1708107880.133829) can1 09F20000#000000FFFFFFFFFF
(1708107880.134409) can1 0CEF0100#B020000000625400
(1708107880.138243) can1 09F20100#4016000100FFFFC6
(1708107880.138830) can1 04EF001C#375EC660353EC484
(1708107880.143203) can1 09F20100#4172C90400006E92
(1708107880.143788) can1 18FEE500#36270000FFFFFFFF
(1708107880.148260) can1 0CF00400#FF7D7D000000FFFF
(1708107880.148848) can1 09F20100#421B00FFFFFFFF00
(1708107880.149361) can1 04EF001C#F840FF06FA20FDE2
(1708107880.149944) can1 18FEEE00#3CFFFFFFFFFF42FF
(1708107880.153240) can1 09F20100#430100FFFFFFFFFF
(1708107880.153810) can1 0CEF0100#B020000000625400
(1708107880.154439) can1 18FEEF00#FFFFFF00FFFFFFFF
(1708107880.155003) can1 18FF1080#000000FFFFFFFD00
(1708107880.156405) can1 18FF1180#0300FBFDFFFF02FF
(1708107880.157421) can1 18FF1380#000000003FC0C006
(1708107880.158238) can1 18FEF200#0000FFFFFFFF37FF
(1708107880.159039) can1 04EF001C#B943A40DBB03A6C9
(1708107880.163222) can1 18FEF700#FFFF1A01F500F600
(1708107880.168232) can1 0CF00400#FF7D7D000000FFFF
(1708107880.168761) can1 0CEF1100#AAE484FECB7C4F14
(1708107880.169317) can1 04EF001C#78464B007AA64964
(1708107880.173234) can1 18FFDC00#6014010000507B19
(1708107880.173802) can1 0CEF0100#B020000000625400
(1708107880.178214) can1 18FFDC00#6124000000A4FFA3
(1708107880.178812) can1 0CF00300#CF004FFF00FFFFFF
(1708107880.179338) can1 04EF001C#3849710F3AE9732B
(1708107880.183216) can1 18FFDC00#62FFFF6E921B00FF
(1708107880.183796) can1 0CEF1700#01AB8813CD0AFFFF
(1708107880.188237) can1 0CF00400#FF7D7D000000FFFF
(1708107880.188934) can1 18FEFC00#FFA3FFFFFFFFFFFF
(1708107880.189397) can1 04EF001C#F84BA70DF96BA6A9
(1708107880.193253) can1 0CEF0100#B020000000625400
(1708107880.193807) can1 18FEF600#FFFF3C2AFFFFFFFF
(1708107880.194422) can1 0CEF0017#812B8813CD0AFFFF
(1708107880.198231) can1 18FEF100#FF3B00F5FF11DFFF
(1708107880.199503) can1 04EF001C#6E4F15B96FAF14DD
(1708107880.203246) can1 18E8FF00#02FFFFFFFF00EF00
(1708107880.208227) can1 0CF00400#FF7D7D000000FFFF
(1708107880.209631) can1 04EF001C#2E52BFA42E32BF40
(1708107880.213238) can1 0CEF0100#B020000000625400
(1708107880.214004) can1 18FF1CF3#0000000000000000
(1708107880.218217) can1 0CEF1100#1B900D28536FFF89
(1708107880.219737) can1 04EF001C#C9546F9AC9B46FFE
(1708107880.223237) can1 18FFDC00#8014010000507B19
(1708107880.228216) can1 18FFDC00#8124000000A4FFA3
(1708107880.228896) can1 0CF00300#CF004FFF00FFFFFF
(1708107880.229352) can1 0CF00400#FF7D7D000000FFFF
(1708107880.229896) can1 04EF001C#E5575AF9E5F75ADD
(1708107880.233228) can1 18FFDC00#82FFFF6E921B00FF
(1708107880.233800) can1 09F20000#000000FFFFFFFFFF
(1708107880.234384) can1 0CEF0100#B020000000625400
(1708107880.239962) can1 04EF001C#465A94EC46DA94E8
(1708107880.248235) can1 0CF00400#FF7D7D000000FFFF
(1708107880.250049) can1 04EF001C#1A5DF20BE53A0DE8
(1708107880.253251) can1 0CEF0100#B020000000625400
(1708107880.254415) can1 18FF1080#000000FFFFFFFD00
(1708107880.255411) can1 18FF1180#0300FBFDFFFF02FF
(1708107880.258245) can1 18FEF200#0000FFFFFFFF37FF
(1708107880.260133) can1 04EF001C#6D5F96B192186972
(1708107880.268233) can1 0CF00400#FF7D7D000000FFFF
(1708107880.268864) can1 0CEF1100#5C943ED13530157A
(1708107880.270258) can1 04EF001C#56424474A965BBD7
(1708107880.273239) can1 18FFDC00#A014010000507B19
(1708107880.273828) can1 0CEF0100#B020000000625400
(1708107880.274396) can1 0CEF0017#812B8813CD0AFFFF
(1708107880.278223) can1 18FFDC00#A124000000A4FFA3
(1708107880.278773) can1 0CF00300#CF004FFF00FFFFFF
(1708107880.280352) can1 04EF001C#4B45619BB4A29EF8
(1708107880.283209) can1 18FFDC00#A2FFFF6E921B00FF
(1708107880.283815) can1 18E8FF00#02FFFFFFFF00EF00
(1708107880.286146) can1 0DF50B9B#5AFFFFFFFF0000FF
(1708107880.288220) can1 0CF00400#FF7D7D000000FFFF
(1708107880.290470) can1 04EF001C#AD47905952106F7A
(1708107880.293248) can1 0CEF0100#B020000000625400
(1708107880.293982) can1 18FF1CF3#0000000000000000
(1708107880.298228) can1 18FEF100#FF3B00F5FF11DFFF
(1708107880.300590) can1 04EF001C#6D4A3E54923DC157
(1708107880.308227) can1 0CF00400#FF7D7D000000FFFF
(1708107880.310687) can1 04EF001C#2D4D4453D21ABB70
(1708107880.313233) can1 0CEF0100#B020000000625400
(1708107880.318216) can1 0CEF1100#83861FED63FDC808
(1708107880.320849) can1 04EF001C#B84FC5F947383AFA
(1708107880.323222) can1 18FFDC00#C014010000507B19
(1708107880.325274) can1 18FF1C17#0000000000000000
(1708107880.328208) can1 18FFDC00#C124000000A4FFA3
(1708107880.328783) can1 0CF00300#CF004FFF00FFFFFF
(1708107880.329353) can1 0CF00400#FF7D7D000000FFFF
(1708107880.330914) can1 04EF001C#0C539445F3046B66
(1708107880.333219) can1 18FFDC00#C2FFFF6E921B00FF
(1708107880.333814) can1 09F20000#000000FFFFFFFFFF
(1708107880.334401) can1 0CEF0100#B020000000625400
(1708107880.341039) can1 04EF001C#385591E3C7426E80
(1708107880.348230) can1 0CF00400#FF7D7D000000FFFF
(1708107880.351148) can1 04EF001C#FA5745F105A0BA72
(1708107880.353254) can1 0CEF0100#B020000000625400
(1708107880.354023) can1 0CEF0017#812B8813CD0AFFFF
(1708107880.354629) can1 18FF1080#000000FFFFFFFD00
(1708107880.355409) can1 18FF1180#0300FBFDFFFF02FF
(1708107880.356423) can1 18FF1380#000000003FC0C006
(1708107880.358229) can1 18FEF200#0000FFFFFFFF37FF
(1708107880.361259) can1 04EF001C#B85A6DEC47AD926F
(1708107880.363234) can1 18E8FF00#02FFFFFFFF00EF00
(1708107880.368232) can1 0CF00400#FF7D7D000000FFFF
(1708107880.368755) can1 0CEF1100#FBB93A2378C6CEDE
(1708107880.371369) can1 04EF001C#785D93EB874A6C88
(1708107880.373241) can1 18FFDC00#E014010000507B19
(1708107880.373821) can1 0CEF0100#B020000000625400
(1708107880.378220) can1 18FFDC00#E124000000A4FFA3
(1708107880.378835) can1 0CF00300#CF004FFF00FFFFFF
(1708107880.381489) can1 04EF001C#384039F6C757C695
(1708107880.383202) can1 18FFDC00#E2FFFF6E921B00FF
(1708107880.384400) can1 15FD069B#B3D473FFFFFFFFFF
(1708107880.388228) can1 0CF00400#FF7D7D000000FFFF
(1708107880.391592) can1 04EF001C#F842EFE407451087
(1708107880.393239) can1 0CEF0100#B020000000625400
(1708107880.398209) can1 18FEF100#FF3B00F5FF11DFFF
(1708107880.401707) can1 04EF001C#46467410B9418B73
(1708107880.408264) can1 0CF00400#FF7D7D000000FFFF
(1708107880.411820) can1 04EF001C#EF48A85610EF5795
(1708107880.413249) can1 0CEF0100#B020000000625400
(1708107880.413980) can1 18FF1CF3#0000000000000000
(1708107880.418206) can1 0CEF1100#CBB41FA02DE9F874
(1708107880.421945) can1 04EF001C#A34BFE355CCC01D6
(1708107880.423222) can1 18FFDC00#0014010000507B19
(1708107880.428224) can1 18FFDC00#0124000000A4FFA3
(1708107880.428843) can1 0CF00300#CF004FFF00FFFFFF
(1708107880.429358) can1 0CF00400#FF7D7D000000FFFF
(1708107880.432045) can1 04EF001C#864EF218862EF21C
(1708107880.433226) can1 18FFDC00#02FFFF6E921B00FF
(1708107880.433807) can1 09F20000#000000FFFFFFFFFF
(1708107880.434383) can1 0CEF0017#812B8813CD0AFFFF
(1708107880.435017) can1 0CEF0100#B020000000625400
(1708107880.442173) can1 04EF001C#2E51A7472E71A703
(1708107880.443235) can1 18E8FF00#02FFFFFFFF00EF00
(1708107880.445245) can1 09F8021C#79FC1E120000FFFF
(1708107880.446201) can1 09F8011C#466E2618FE6B5BC1
(1708107880.447237) can1 19FA031C#79D26200AB007600
(1708107880.448219) can1 0CF00400#FF7D7D000000FFFF
(1708107880.448855) can1 0DF0101C#79F0A34DD04CA82B
(1708107880.450277) can1 18FEE81C#4A0D00002064467E
(1708107880.451344) can1 19FA041C#C09F79FF0D017512
(1708107880.452308) can1 04EF001C#FD545ADAFD145AFE
(1708107880.453246) can1 0CEF0100#B020000000625400
(1708107880.453853) can1 19FA041C#C1FAC80410FFFFFF
(1708107880.455395) can1 19FA041C#C2FFFF055528D020
(1708107880.456007) can1 18FF1080#000000FFFFFFFD00
(1708107880.456593) can1 19FA041C#C33C0FFFFFFFFFFF
(1708107880.457410) can1 18FF1180#0300FBFDFFFF02FF
(1708107880.458014) can1 19FA041C#C40CBC020C7B4006
(1708107880.458567) can1 18FEF200#0000FFFFFFFF37FF
(1708107880.459454) can1 19FA041C#C5FFFFFFFFFF0D82
(1708107880.460435) can1 19FA041C#C6147648D80EFFFF
(1708107880.461422) can1 19FA041C#C7FFFFFF0FED172C
(1708107880.462372) can1 04EF001C#E8565F70E8165F54
(1708107880.463454) can1 19FA041C#C8653011FFFFFFFF
(1708107880.464448) can1 19FA041C#C9FF10AF00F4E200
(1708107880.465476) can1 19FA041C#CA00FFFFFFFFFF12
(1708107880.466524) can1 19FA041C#CB071C3EC69411FF
(1708107880.467495) can1 19FA041C#CCFFFFFFFF148214
(1708107880.468219) can1 0CF00400#FF7D7D000000FFFF
(1708107880.468778) can1 0CEF1100#15A986D7ECBE31F9
(1708107880.469343) can1 19FA041C#CD2E22280AFFFFFF
(1708107880.470516) can1 19FA041C#CEFFFF194E0C748B
(1708107880.471539) can1 19FA041C#CF1C0CFFFFFFFFFF
(1708107880.472482) can1 04EF001C#9F5953C79F3953C3
(1708107880.473296) can1 18FFDC00#2014010000507B19
(1708107880.473846) can1 0CEF0100#B020000000625400
(1708107880.474385) can1 19FA041C#D01AFD0C72CE740E
(1708107880.475579) can1 19FA041C#D1FFFFFFFFFF1D28
(1708107880.476586) can1 19FA041C#D23CA2ADD80EFFFF
(1708107880.477602) can1 19FA041C#D3FFFFFF2CB61CFC
(1708107880.478214) can1 18FFDC00#2124000000A4FFA3
(1708107880.478802) can1 0CF00300#CF004FFF00FFFFFF
(1708107880.479357) can1 19FA041C#D4859411FFFFFFFF
(1708107880.480620) can1 19FA041C#D5FF30A91A308EA0
(1708107880.481653) can1 19FA041C#D60FFFFFFFFFFFFF
(1708107880.482597) can1 04EF001C#505CB2BAAFDB4D59
(1708107880.483287) can1 18FFDC00#22FFFF6E921B00FF
(1708107880.488232) can1 0CF00400#FF7D7D000000FFFF
(1708107880.492698) can1 04EF001C#785E8BF887F9743B
(1708107880.493285) can1 0CEF0100#B020000000625400
(1708107880.494020) can1 18FF1CF3#0000000000000000
(1708107880.498227) can1 18FEF100#FF3A00F5FF11DFFF
(1708107880.502823) can1 04EF001C#394130EFC6A6CF6C
(1708107880.508232) can1 0CF00400#FF7D7D000000FFFF
(1708107880.512949) can1 04EF001C#F843E7E507841846
(1708107880.513557) can1 0CEF0100#B020000000625400
(1708107880.514104) can1 0CEF0017#812B8813CD0AFFFF
(1708107880.518208) can1 0CEF1100#5DA4BE94A77F69A4
(1708107880.523034) can1 04EF001C#B9468CE846A1736B
(1708107880.523594) can1 18E8FF00#02FFFFFFFF00EF00
(1708107880.524216) can1 18FFDC00#4014010000507B19
(1708107880.525271) can1 18FF1C17#0000000000000000
(1708107880.528203) can1 18FFDC00#4123000000A4FFA3
(1708107880.528856) can1 0CF00300#CF004FFF00FFFFFF
(1708107880.529369) can1 0CF00400#FF7D7D000000FFFF
(1708107880.533164) can1 04EF001C#7A4931FF856ECEBC
(1708107880.533775) can1 09F20000#000000FFFFFFFFFF
(1708107880.534339) can1 0CEF0100#B020000000625400
(1708107880.534888) can1 18FFDC00#42FFFF6E921B00FF
(1708107880.543274) can1 04EF001C#374C5692C80BA9B1
(1708107880.548233) can1 0CF00400#FF7D7D000000FFFF
(1708107880.553244) can1 0CEF0100#B020000000625400
(1708107880.553789) can1 04EF001C#F84E8FD80759709B
(1708107880.555420) can1 18FF1080#000000FFFFFFFD00
(1708107880.556417) can1 18FF1180#0300FBFDFFFF02FF
(1708107880.557425) can1 18FF1380#000000003FC0C006
(1708107880.558238) can1 18FEF200#0000FFFFFFFF37FF
(1708107880.563497) can1 04EF001C#B7513ABF4826C59C
(1708107880.568231) can1 0CF00400#FF7D7D000000FFFF
(1708107880.568850) can1 0CEF1100#6ED853D032CBC1D6
(1708107880.573237) can1 18FFDC00#6014010000507B19
(1708107880.573762) can1 04EF001C#7854DBC2872324E1
(1708107880.574401) can1 0CEF0100#B020000000625400
(1708107880.578213) can1 18FFDC00#6123000000A4FFA3
(1708107880.578826) can1 0CF00300#CF004FFF00FFFFFF
(1708107880.583212) can1 18FFDC00#62FFFF6E921B00FF
(1708107880.583746) can1 04EF001C#37578EB9C820719A
(1708107880.588233) can1 0CF00400#FF7D7D000000FFFF
(1708107880.593249) can1 0CEF0100#B020000000625400
(1708107880.593890) can1 04EF001C#F85937CF070EC8CC
(1708107880.598226) can1 18FEF100#FF3800F5FF11DFFF
(1708107880.603953) can1 04EF001C#455DAF23BA2A5000
(1708107880.608230) can1 0CF00400#FF7D7D000000FFFF
(1708107880.613242) can1 0CEF0100#B020000000625400
(1708107880.614079) can1 04EF001C#E35F1C111C28E332
(1708107880.618209) can1 0CEF1100#39CA54AC4734AFBD
(1708107880.623235) can1 18FFDC00#8014010000507B19
(1708107880.624182) can1 04EF001C#C642D02439752F47
(1708107880.628221) can1 18FFDC00#8122000000A4FFA3
(1708107880.628837) can1 0CF00300#CF004FFF00FFFFFF
(1708107880.629359) can1 0CF00400#FF7D7D000000FFFF
(1708107880.633220) can1 18FFDC00#82FFFF6E921B00FF
(1708107880.633826) can1 09F20000#000000FFFFFFFFFF
(1708107880.634371) can1 04EF001C#8645AA2379B25580
(1708107880.634946) can1 0CEF0017#812B8813CD0AFFFF
(1708107880.635525) can1 0CEF0100#B020000000625400
(1708107880.643229) can1 18E8FF00#02FFFFFFFF00EF00
(1708107880.644416) can1 04EF001C#49480B56B6FFF4B5
(1708107880.648223) can1 0CF00400#FF7D7D000000FFFF
(1708107880.653228) can1 18FEEF00#FFFFFF00FFFFFFFF
(1708107880.653833) can1 0CEF0100#B020000000625400
(1708107880.654410) can1 18FF1CF3#0000000000000000
(1708107880.654950) can1 04EF001C#2E4B776D2E3B7749
(1708107880.656423) can1 18FF1080#000000FFFFFFFD00
(1708107880.657423) can1 18FF1180#0300FBFDFFFF02FF
(1708107880.658237) can1 18FEF200#0000FFFFFFFF37FF
(1708107880.664607) can1 04EF001C#C74DA923C79DA9A7
(1708107880.668221) can1 0CF00400#FF7D7D000000FFFF
(1708107880.668870) can1 0CEF1100#F9C9BAAC045E0DA6
(1708107880.673230) can1 18FFDC00#A014010000507B19
(1708107880.673840) can1 0CEF0100#B020000000625400
(1708107880.674368) can1 0CEF0017#812B8813CD0AFFFF
(1708107880.674934) can1 04EF001C#1D509DFE1DB09D5A
(1708107880.678214) can1 18FFDC00#A122000000A4FFA3
(1708107880.678812) can1 0CF00300#CF004FFF00FFFFFF
(1708107880.683216) can1 18FFDC00#A2FFFF6E921B00FF
(1708107880.683810) can1 0CEF1700#01AB8813CD0AFFFF
(1708107880.684349) can1 18E8FF00#02FFFFFFFF00EF00
(1708107880.684887) can1 04EF001C#14538CB514F38C51
(1708107880.688228) can1 0CF00400#FF7D7D000000FFFF
(1708107880.693242) can1 0CEF0100#B020000000625400
(1708107880.693809) can1 18FEF600#FFFF3C2AFFFFFFFF
(1708107880.694390) can1 18FF1CF3#0000000000000000
(1708107880.695002) can1 04EF001C#FC5553F3FD3552D7
(1708107880.698228) can1 18FEF100#FF3700F5FF11DFFF
(1708107880.705060) can1 04EF001C#3958F8D63878F9B2
(1708107880.708218) can1 0CF00400#FF7D7D000000FFFF
(1708107880.713253) can1 0CEF0100#B020000000625400
(1708107880.715165) can1 04EF001C#2D5BF4752CBBF5D1
(1708107880.718216) can1 0CEF1100#95F86AC131D12F06
(1708107880.723230) can1 18FFDC00#C014010000507B19
(1708107880.725293) can1 04EF001C#EC5D037BED9D02FF
(1708107880.728198) can1 18FFDC00#C121000000A4FFA3
(1708107880.728780) can1 0CF00300#CF004FFF00FFFFFF
(1708107880.729356) can1 0CF00400#FF7D7D000000FFFF
(1708107880.733220) can1 18FFDC00#C2FFFF6E921B00FF
(1708107880.733814) can1 09F20000#000000FFFFFFFFFF
(1708107880.734393) can1 0CEF0100#B020000000625400
(1708107880.735534) can1 04EF001C#AD40A86EACC0A9AA
(1708107880.745492) can1 04EF001C#384321C539A32061
(1708107880.748219) can1 0CF00400#FF7D7D000000FFFF
(1708107880.753273) can1 0CEF0100#B020000000625400
(1708107880.753999) can1 0CEF0017#812B8813CD0AFFFF
(1708107880.755609) can1 04EF001C#2C461D602D661C04
(1708107880.756428) can1 18FF1080#000000FFFFFFFD00
(1708107880.757408) can1 18FF1180#0300FBFDFFFF02FF
(1708107880.758235) can1 18FEF200#0000FFFFFFFF37FF
(1708107880.758829) can1 18FF1380#000000003FC0C006
(1708107880.763237) can1 18E8FF00#02FFFFFFFF00EF00
(1708107880.765714) can1 04EF001C#ED48AA66EC08AB62
(1708107880.768224) can1 0CF00400#FF7D7D000000FFFF
(1708107880.768863) can1 0CEF1100#59F3C7A3DDA34B67
(1708107880.773235) can1 18FFDC00#E014010000507B19
(1708107880.773849) can1 0CEF0100#B020000000625400
(1708107880.775818) can1 04EF001C#E54BBA25E58BBAA1
(1708107880.778220) can1 18FFDC00#E120000000A4FFA3
(1708107880.778803) can1 0CF00300#CF004FFF00FFFFFF
(1708107880.783218) can1 18FFDC00#E2FFFF6E921B00FF
(1708107880.785945) can1 04EF001C#384E49C8C7E9B62B
(1708107880.788224) can1 0CF00400#FF7D7D000000FFFF
(1708107880.793242) can1 0CEF0100#B020000000625400
(1708107880.793833) can1 18FF1C17#0000000000000000
(1708107880.794415) can1 18FF1CF3#0000000000000000
(1708107880.796079) can1 04EF001C#7B51F0CF84560F8C
(1708107880.798222) can1 18FEF100#FF3500F5FF11DFFF
(1708107880.806190) can1 04EF001C#2154801ADE137F19
(1708107880.808224) can1 0CF00400#FF7D7D000000FFFF
(1708107880.813240) can1 0CEF0100#B020000000625400
(1708107880.816299) can1 04EF001C#0757BF29F9D041EA
(1708107880.818197) can1 0CEF1100#09EE7924B450842F
(1708107880.823239) can1 18FFDC00#0014010000507B19
(1708107880.826401) can1 04EF001C#BA5977CF449E894C
(1708107880.828212) can1 18FFDC00#0120000000A4FFA3
(1708107880.828846) can1 0CF00300#CF004FFF00FFFFFF
(1708107880.829360) can1 0CF00400#FF7D7D000000FFFF
(1708107880.833224) can1 18FFDC00#02FFFF6E921B00FF
(1708107880.833834) can1 09F20000#000000FFFFFFFFFF
(1708107880.834427) can1 0CEF0100#B020000000625400
(1708107880.836507) can1 04EF001C#995C7DD2673B83F1
(1708107880.846638) can1 04EF001C#455FBF31B8F842D2
(1708107880.848220) can1 0CF00400#FF7D7D000000FFFF
(1708107880.848863) can1 18FECA00#40FF00000000FFFF
(1708107880.853243) can1 0CEF0100#B020000000625400
(1708107880.856742) can1 04EF001C#FA41F5D7076608B4
(1708107880.857433) can1 18FF1080#000000FFFFFFFD00
(1708107880.858236) can1 18FEF200#0000FFFFFFFF37FF
(1708107880.858819) can1 18FF1180#0300FBFDFFFF02FF
(1708107880.866846) can1 04EF001C#394418CAC423E5E9
(1708107880.868220) can1 0CF00400#FF7D7D000000FFFF
(1708107880.868887) can1 0CEF1100#C9ED9724FD21FE64
(1708107880.873255) can1 18FFDC00#2014010000507B19
(1708107880.873882) can1 0CEF0100#B020000000625400
(1708107880.874423) can1 0CEF0017#812B8813CD0AFFFF
(1708107880.876976) can1 04EF001C#F846CFC004C13303
(1708107880.878216) can1 18FFDC00#211F000000A4FFA3
(1708107880.878812) can1 0CF00300#CF004FFF00FFFFFF
(1708107880.882516) can1 15FD069B#B4D573FFFFFFFFFF
(1708107880.883209) can1 18FFDC00#22FFFF6E921B00FF
(1708107880.883788) can1 18E8FF00#02FFFFFFFF00EF00
(1708107880.887069) can1 04EF001C#B849F5CF446E09AC
(1708107880.888221) can1 0CF00400#FF7D7D000000FFFF
(1708107880.893239) can1 0CEF0100#B020000000625400
(1708107880.894018) can1 0CEA1C00#00EE000000000000
(1708107880.895197) can1 18EEFF1C#0204450E00000042
(1708107880.897175) can1 04EF001C#784C1BBA843BE7F9
(1708107880.898216) can1 18FEF100#FF3300F5FF11DFFF
(1708107880.907294) can1 04EF001C#384F41B9C418BDDA
(1708107880.908229) can1 0CF00400#FF7D7D000000FFFF
(1708107880.913243) can1 0CEF0100#B020000000625400
(1708107880.913981) can1 18FF1CF3#0000000000000000
(1708107880.917396) can1 04EF001C#F85177A704E68B24
(1708107880.918200) can1 0CEF1100#FD9C539B4E187EE1
(1708107880.923228) can1 18FFDC00#4014010000507B19
(1708107880.927512) can1 04EF001C#B8541DA244A3E161
(1708107880.928276) can1 18FFDC00#411F000000A4FFA3
(1708107880.928901) can1 0CF00300#CF004FFF00FFFFFF
(1708107880.929385) can1 0CF00400#FF7D7D000000FFFF
(1708107880.933220) can1 18FFDC00#42FFFF6E921B00FF
(1708107880.933810) can1 09F20000#000000FFFFFFFFFF
(1708107880.934351) can1 0CEF0017#812B8813CD0AFFFF
(1708107880.934966) can1 0CEF0100#B020000000625400
(1708107880.937630) can1 04EF001C#7957C2A984403F8A
(1708107880.943237) can1 18E8FF00#02FFFFFFFF00EF00
(1708107880.947730) can1 04EF001C#375AE6D4CA2D1B97
(1708107880.948342) can1 0CF00400#FF7D7D000000FFFF
(1708107880.953245) can1 0CEF0100#B020000000625400
(1708107880.953883) can1 09F8021C#7AFC1E120700FFFF
(1708107880.954822) can1 09F8011C#4A6E2618026C5BC1
(1708107880.955830) can1 19FA031C#7AD26200AB007600
(1708107880.956839) can1 0DF0101C#7AF0A34DE073A82B
(1708107880.957439) can1 18FF1080#000000FFFFFFFD00
(1708107880.958016) can1 04EF001C#385DD1ABC5CA2C08
(1708107880.958573) can1 18FEF200#0000FFFFFFFF37FF
(1708107880.959125) can1 18FEE81C#4A0D00002064477E
(1708107880.959766) can1 18FF1180#0300FBFDFFFF02FF
(1708107880.960290) can1 19FA041C#E09F7AFF0D017512
(1708107880.960963) can1 18FF1380#000000003FC0C006
(1708107880.961419) can1 19FA041C#E1FAC80410FFFFFF
(1708107880.962962) can1 19FA041C#E2FFFF055528D020
(1708107880.963976) can1 19FA041C#E33C0FFFFFFFFFFF
(1708107880.964998) can1 19FA041C#E40CBC020C7B4006
(1708107880.965994) can1 19FA041C#E5FFFFFFFFFF0D82
(1708107880.966998) can1 19FA041C#E6147648D80EFFFF
(1708107880.967942) can1 04EF001C#6E406D06939790E5
(1708107880.968515) can1 0CEF1100#0896B9711017B953
(1708107880.969064) can1 0CF00400#FF7D7D000000FFFF
(1708107880.969654) can1 19FA041C#E7FFFFFF0FED172C
(1708107880.971044) can1 19FA041C#E8653011FFFFFFFF
(1708107880.972053) can1 19FA041C#E9FF10AF00F4E200
(1708107880.973085) can1 19FA041C#EA00FFFFFFFFFF12
(1708107880.973663) can1 0CEF0100#B020000000625400
(1708107880.974225) can1 18FFDC00#6014010000507B19
(1708107880.974823) can1 19FA041C#EB071C3EC6F811FF
(1708107880.976098) can1 19FA041C#ECFFFFFFFF148214
(1708107880.977124) can1 19FA041C#ED2E228C0AFFFFFF
(1708107880.978059) can1 04EF001C#2943303DD714CE5E
(1708107880.978629) can1 0CF00300#CF004FFF00FFFFFF
(1708107880.979191) can1 18FFDC00#611E000000A4FFA3
(1708107880.979773) can1 19FA041C#EEFFFF194E0C748B
(1708107880.981182) can1 19FA041C#EF800CFFFFFFFFFF
(1708107880.982163) can1 19FA041C#F01AFD0C72CE740E
(1708107880.983179) can1 19FA041C#F1FFFFFFFFFF1D28
(1708107880.983740) can1 18FFDC00#62FFFF6E921B00FF
(1708107880.984298) can1 19FA041C#F23CA2ADD80EFFFF
(1708107880.985224) can1 19FA041C#F3FFFFFF2CB61CFC
(1708107880.985816) can1 18FF1C17#0000000000000000
(1708107880.986413) can1 19FA041C#F4853011FFFFFFFF
(1708107880.987212) can1 19FA041C#F5FF30A91A308EA0
(1708107880.988166) can1 04EF001C#F345DCEB0DD22248
(1708107880.988802) can1 0CF00400#FF7D7D000000FFFF
(1708107880.989340) can1 19FA041C#F60FFFFFFFFFFFFF
(1708107880.993244) can1 0CEF0100#B020000000625400
(1708107880.993953) can1 0CEF0017#812B8813CD0AFFFF
(1708107880.998223) can1 18FEF100#FF3000F5FF11DFFF
(1708107880.998763) can1 04EF001C#6248217E9D4FDE5D
(1708107881.003245) can1 18E8FF00#02FFFFFFFF00EF00
(1708107881.008236) can1 0CF00400#FF7D7D000000FFFF
(1708107881.008759) can1 04EF001C#464B1C4D467B1C49
(1708107881.013257) can1 0CEF0100#B020000000625400
(1708107881.013978) can1 18FF1CF3#0000000000000000
(1708107881.018215) can1 0CEF1100#5B809F2C6DE09679
(1708107881.018744) can1 04EF001C#E24D8D6BE2BD8DAF
(1708107881.023238) can1 18FFDC00#8014010000507B19
(1708107881.028211) can1 18FFDC00#811D000000A4FFA3
(1708107881.028744) can1 04EF001C#A2502776A3202632
(1708107881.029373) can1 0CF00300#CF004FFF00FFFFFF
(1708107881.029894) can1 0CF00400#FF7D7D000000FFFF
(1708107881.033218) can1 18FFDC00#82FFFF6E921B00FF
(1708107881.033839) can1 09F20000#000000FFFFFFFFFF
(1708107881.034489) can1 0CEF0100#B020000000625400
(1708107881.038751) can1 04EF001C#8853142589C31581
(1708107881.048233) can1 0CF00400#FF7D7D000000FFFF
(1708107881.048907) can1 04EF001C#215690682366926C
(1708107881.053254) can1 0CEF0100#B020000000625400
(1708107881.058240) can1 18FEF200#0000FFFFFFFF37FF
(1708107881.058873) can1 18FF1080#000000FFFFFFFD00
(1708107881.059366) can1 04EF001C#E3582476E1282632
(1708107881.060428) can1 18FF1180#0300FBFDFFFF02FF
(1708107881.068237) can1 0CF00400#FF7D7D000000FFFF
(1708107881.068892) can1 0CEF1100#9C8488D59E858823
(1708107881.069327) can1 04EF001C#385BE1AD3ACBE309
(1708107881.073242) can1 18FFDC00#A014010000507B19
(1708107881.073806) can1 0CEF0100#B020000000625400
(1708107881.078224) can1 18FFDC00#A11C000000A4FFA3
(1708107881.078880) can1 0CF00300#CF004FFF00FFFFFF
(1708107881.079339) can1 04EF001C#F85D17ABFA8D154F
(1708107881.083220) can1 18FFDC00#A2FFFF6E921B00FF
(1708107881.088235) can1 0CF00400#FF7D7D000000FFFF
(1708107881.089306) can1 04EF001C#B740B2CEB430B18A
(1708107881.093242) can1 0CEF0100#B020000000625400
(1708107881.098224) can1 18FEF100#FF2E00F5FF11DFFF
(1708107881.099420) can1 04EF001C#E243FD65E1D3FEC1
(1708107881.108232) can1 0CF00400#FF7D7D000000FFFF
(1708107881.109524) can1 04EF001C#5D466F9859766B9C
(1708107881.113250) can1 0CEF0100#B020000000625400
(1708107881.113954) can1 0CEF0017#812B8813CD0AFFFF
(1708107881.118204) can1 0CEF1100#E3B684E0A9287E52
(1708107881.119638) can1 04EF001C#1E49568F1A1952EB
(1708107881.123230) can1 18FFDC00#C014010000507B19
(1708107881.123808) can1 18E8FF00#02FFFFFFFF00EF00
(1708107881.128215) can1 18FFDC00#C11B000000A4FFA3
(1708107881.128843) can1 0CF00300#CF004FFF00FFFFFF
(1708107881.129352) can1 0CF00400#FF7D7D000000FFFF
(1708107881.129926) can1 04EF001C#DD4B8395D9FB8711
(1708107881.133214) can1 18FFDC00#C2FFFF6E921B00FF
(1708107881.133817) can1 09F20000#000000FFFFFFFFFF
(1708107881.134394) can1 0CEF0100#B020000000625400
(1708107881.135002) can1 18FF1CF3#0000000000000000
(1708107881.138246) can1 09F20100#6016000200FFFFC6
(1708107881.139848) can1 04EF001C#784E0BC87C6E0FAC
(1708107881.143220) can1 09F20100#6172C90400006E92
(1708107881.148232) can1 0CF00400#FF7D7D000000FFFF
(1708107881.148929) can1 09F20100#621B00FFFFFFFF00
(1708107881.149383) can1 18FEEE00#3CFFFFFFFFFF42FF
(1708107881.150057) can1 04EF001C#6D51E67F6951E23B
(1708107881.153239) can1 09F20100#630100FFFFFFFFFF
(1708107881.153802) can1 0CEF0100#B020000000625400
(1708107881.154357) can1 0CEF0017#812B8813CD0AFFFF
(1708107881.154983) can1 18FEEF00#FFFFFF00FFFFFFFF
(1708107881.158248) can1 18FEF200#0000FFFFFFFF37FF
(1708107881.158840) can1 18FF1080#000000FFFFFFFD00
(1708107881.160069) can1 04EF001C#2C548D722FF48E96
(1708107881.160707) can1 18FF1180#0300FBFDFFFF02FF
(1708107881.161443) can1 18FF1380#000000003FC0C006
(1708107881.163210) can1 18FEF700#FFFF1A01F500F600
(1708107881.163800) can1 18E8FF00#02FFFFFFFF00EF00
(1708107881.168231) can1 0CF00400#FF7D7D000000FFFF
(1708107881.168757) can1 0CEF1100#3DAF3D96D5646A36
(1708107881.170198) can1 04EF001C#1457ACB117D7AF75
(1708107881.173241) can1 18FFDC00#E014010000507B19
(1708107881.173854) can1 0CEF0100#B020000000625400
(1708107881.178222) can1 18FFDC00#E11B000000A4FFA3
(1708107881.178815) can1 0CF00300#CF004FFF00FFFFFF
(1708107881.180311) can1 04EF001C#D5591BB7D6391893
(1708107881.183205) can1 18FFDC00#E2FFFF6E921B00FF
(1708107881.183756) can1 0CEF1700#01AB8813CD0AFFFF
(1708107881.185102) can1 18FF1C17#0000000000000000
(1708107881.188224) can1 0CF00400#FF7D7D000000FFFF
(1708107881.188865) can1 18FEFC00#FFA3FFFFFFFFFFFF
(1708107881.190399) can1 04EF001C#CC5C2A7ACEDC28BE
(1708107881.193247) can1 0CEF0100#B020000000625400
(1708107881.193851) can1 18FEF600#FFFF3C2AFFFFFFFF
(1708107881.194459) can1 18FF1CF3#0000000000000000
(1708107881.198236) can1 18FEF100#FF2C00F5FF11DFFF
(1708107881.200535) can1 04EF001C#BE5F43E9BC9F416D
(1708107881.208234) can1 0CF00400#FF7D7D000000FFFF
(1708107881.210635) can1 04EF001C#7D426EEC7FA26C48
(1708107881.213241) can1 0CEF0100#B020000000625400
(1708107881.218202) can1 0CEF1100#6BA4B2A4949F65BB
(1708107881.220749) can1 04EF001C#1A4532D318A53077
(1708107881.223224) can1 18FFDC00#0014010000507B19
(1708107881.228223) can1 18FFDC00#011B000000A4FFA3
(1708107881.228891) can1 0CF00300#CF004FFF00FFFFFF
(1708107881.229361) can1 0CF00400#FF7D7D000000FFFF
(1708107881.230883) can1 04EF001C#2548642627E866C2
(1708107881.233226) can1 18FFDC00#02FFFF6E921B00FF
(1708107881.233821) can1 09F20000#000000FFFFFFFFFF
(1708107881.234391) can1 0CEF0017#812B8813CD0AFFFF
(1708107881.234973) can1 0CEF0100#B020000000625400
(1708107881.240990) can1 04EF001C#864AD22C853AD108
(1708107881.243238) can1 18E8FF00#02FFFFFFFF00EF00
(1708107881.248236) can1 0CF00400#FF7D7D000000FFFF
(1708107881.251084) can1 04EF001C#214D4813221D4B17
(1708107881.253252) can1 0CEF0100#B020000000625400
(1708107881.258241) can1 18FEF200#0000FFFFFFFF37FF
(1708107881.259437) can1 18FF1080#000000FFFFFFFD00
(1708107881.260421) can1 18FF1180#0300FBFDFFFF02FF
(1708107881.261204) can1 04EF001C#0650863604C084F2
(1708107881.268226) can1 0CF00400#FF7D7D000000FFFF
(1708107881.268752) can1 0CEF1100#55D85CC84869DCC3
(1708107881.271292) can1 04EF001C#6E52FD746CA2FFD0
(1708107881.273246) can1 18FFDC00#2014010000507B19
(1708107881.273839) can1 0CEF0100#B020000000625400
(1708107881.278224) can1 18FFDC00#211A000000A4FFA3
(1708107881.278810) can1 0CF00300#CF004FFF00FFFFFF
(1708107881.281419) can1 04EF001C#F8545FC2FA445D86
(1708107881.282226) can1 0DF50B9B#5BFFFFFFFF0000FF
(1708107881.283204) can1 18FFDC00#22FFFF6E921B00FF
(1708107881.288235) can1 0CF00400#FF7D7D000000FFFF
(1708107881.291510) can1 04EF001C#B7570AB9B50708BD
(1708107881.293253) can1 0CEF0100#B020000000625400
(1708107881.298225) can1 18FEF100#FF2B00F5FF11DFFF
(1708107881.301627) can1 04EF001C#785AABCC79CAAA08
(1708107881.308235) can1 0CF00400#FF7D7D000000FFFF
(1708107881.311732) can1 04EF001C#375DDEB3368DDF37
(1708107881.313249) can1 0CEF0100#B020000000625400
(1708107881.318205) can1 0CEF1100#00CA5B24BD12962C
(1708107881.321890) can1 04EF001C#F85F07C9F94F068D
(1708107881.323217) can1 18FFDC00#4014010000507B19
(1708107881.328220) can1 18FFDC00#411A000000A4FFA3
(1708107881.328850) can1 0CF00300#CF004FFF00FFFFFF
(1708107881.329358) can1 0CF00400#FF7D7D000000FFFF
(1708107881.331945) can1 04EF001C#B742A2ACB632A388
(1708107881.333201) can1 18FFDC00#42FFFF6E921B00FF
(1708107881.333802) can1 09F20000#000000FFFFFFFFFF
(1708107881.334414) can1 0CEF0100#B020000000625400
(1708107881.334975) can1 18FF1CF3#0000000000000000
(1708107881.342087) can1 04EF001C#784553E3792552E7
(1708107881.348230) can1 0CF00400#FF7D7D000000FFFF
(1708107881.352184) can1 04EF001C#3748769637C87672
(1708107881.353240) can1 0CEF0100#B020000000625400
(1708107881.353968) can1 0CEF0017#812B8813CD0AFFFF
(1708107881.358244) can1 18FEF200#0000FFFFFFFF37FF
(1708107881.359466) can1 18FF1080#000000FFFFFFFD00
(1708107881.360420) can1 18FF1180#0300FBFDFFFF02FF
(1708107881.361420) can1 18FF1380#000000003FC0C006
(1708107881.362300) can1 04EF001C#F84AAFECF88AAF48
(1708107881.363239) can1 18E8FF00#02FFFFFFFF00EF00
(1708107881.368231) can1 0CF00400#FF7D7D000000FFFF
(1708107881.368766) can1 0CEF1100#C4C36406D7F2E479
(1708107881.372401) can1 04EF001C#B74DDA93B70DDAB7
(1708107881.373231) can1 18FFDC00#6014010000507B19
(1708107881.373857) can1 0CEF0100#B020000000625400
(1708107881.378229) can1 18FFDC00#611A000000A4FFA3
(1708107881.378771) can1 0CF00300#CF004FFF00FFFFFF
(1708107881.380477) can1 15FD069B#B5D573FFFFFFFFFF
(1708107881.382525) can1 04EF001C#7850FBF687F70435
(1708107881.383206) can1 18FFDC00#62FFFF6E921B00FF
(1708107881.388235) can1 0CF00400#FF7D7D000000FFFF
(1708107881.392629) can1 04EF001C#3753AE8DC8B4510E
(1708107881.393283) can1 0CEF0100#B020000000625400
(1708107881.393966) can1 0CEF0017#812B8813CD0AFFFF
(1708107881.398235) can1 18FEF100#FF2C00F5FF11DFFF
(1708107881.402766) can1 04EF001C#6356D0289C712F6B
(1708107881.403357) can1 18E8FF00#02FFFFFFFF00EF00
(1708107881.408268) can1 0CF00400#FF7D7D000000FFFF
(1708107881.412931) can1 04EF001C#2159E837DE7E1774
(1708107881.413524) can1 0CEF0100#B020000000625400
(1708107881.414062) can1 18FF1CF3#0000000000000000
(1708107881.418211) can1 0CEF1100#BEFAF15975D69FE6
(1708107881.422993) can1 04EF001C#075CE702F8BB1881
(1708107881.423552) can1 18FFDC00#8014010000507B19
(1708107881.428210) can1 18FFDC00#811B000000A4FFA3
(1708107881.428864) can1 0CF00300#CF004FFF00FFFFFF
(1708107881.429366) can1 0CF00400#FF7D7D000000FFFF
(1708107881.433082) can1 04EF001C#A25E57285D99A88B
(1708107881.433670) can1 09F20000#000000FFFFFFFFFF
(1708107881.434258) can1 0CEF0100#B020000000625400
(1708107881.434900) can1 18FF2117#06FFFFFF00FFFFFF
(1708107881.435487) can1 18FFDC00#82FFFF6E921B00FF
(1708107881.443220) can1 04EF001C#624169379D869694
(1708107881.448226) can1 0CF00400#FF7D7D000000FFFF
(1708107881.453237) can1 0CEF0100#B020000000625400
(1708107881.453801) can1 04EF001C#4544670ABAE398C9
(1708107881.458244) can1 18FEF200#0000FFFFFFFF37FF
(1708107881.460430) can1 18FF1080#000000FFFFFFFD00
(1708107881.461425) can1 18FF1180#0300FBFDFFFF02FF
(1708107881.462041) can1 09F8021C#7BFC1E120600FFFF
(1708107881.463433) can1 04EF001C#D646E090D626E094
(1708107881.464428) can1 09F8011C#4E6E2618026C5BC1
(1708107881.465444) can1 19FA031C#7BD252009D006500
(1708107881.466456) can1 0DF0101C#7BF0A34DE073A82B
(1708107881.467478) can1 18FEE81C#4A0D00002064487E
(1708107881.468223) can1 0CF00400#FF7D7D000000FFFF
(1708107881.468783) can1 0CEF1100#78F91EE9BD2A8821
(1708107881.469343) can1 19FA041C#009F7BFF0D017512
(1708107881.470566) can1 19FA041C#01FAC86810FFFFFF
(1708107881.471573) can1 19FA041C#02FFFF055528D020
(1708107881.472589) can1 19FA041C#033C0FFFFFFFFFFF
(1708107881.473255) can1 18FFDC00#A014010000507B19
(1708107881.473778) can1 04EF001C#DF4991D7DF2991D3
(1708107881.474340) can1 0CEF0017#812B8813CD0AFFFF
(1708107881.475027) can1 0CEF0100#B020000000625400
(1708107881.475523) can1 19FA041C#040CBC020C7BA406
(1708107881.476638) can1 19FA041C#05FFFFFFFFFF0D82
(1708107881.477643) can1 19FA041C#06147648A00FFFFF
(1708107881.478243) can1 18FFDC00#A11B000000A4FFA3
(1708107881.478793) can1 0CF00300#CF004FFF00FFFFFF
(1708107881.479349) can1 19FA041C#07FFFFFF0FED172C
(1708107881.480673) can1 19FA041C#0865CC10FFFFFFFF
(1708107881.481679) can1 19FA041C#09FF10AF00F4E200
(1708107881.482699) can1 19FA041C#0A00FFFFFFFFFF12
(1708107881.483308) can1 18FFDC00#A2FFFF6E921B00FF
(1708107881.483845) can1 04EF001C#9D4CF9C29D0CF9E6
(1708107881.484392) can1 18E8FF00#02FFFFFFFF00EF00
(1708107881.484956) can1 19FA041C#0B071C3EC69411FF
(1708107881.485561) can1 18FF1C17#0000000000000000
(1708107881.486120) can1 19FA041C#0CFFFFFFFF148214
(1708107881.487750) can1 19FA041C#0D2E22F00AFFFFFF
(1708107881.488326) can1 0CF00400#FF7D7D000000FFFF
(1708107881.488926) can1 19FA041C#0EFFFF194E0C748B
(1708107881.489802) can1 19FA041C#0F1C0CFFFFFFFFFF
(1708107881.490774) can1 19FA041C#101AFD0C72CE740E
(1708107881.491795) can1 19FA041C#11FFFFFFFFFF1D28
(1708107881.492850) can1 19FA041C#123CA2ADA00FFFFF
(1708107881.493403) can1 0CEF0100#B020000000625400
(1708107881.493949) can1 04EF001C#6C4F17496C6F170D
(1708107881.494508) can1 18FF1CF3#0000000000000000
(1708107881.495077) can1 19FA041C#13FFFFFF2CB61CFC
(1708107881.495839) can1 19FA041C#1485CC10FFFFFFFF
(1708107881.496848) can1 19FA041C#15FF30A91A308EA0
(1708107881.497878) can1 19FA041C#160FFFFFFFFFFFFF
(1708107881.498446) can1 18FEF100#FF2C00F5FF11DFFF
(1708107881.503908) can1 04EF001C#7951F2FF7951F29B
(1708107881.508232) can1 0CF00400#FF7D7D000000FFFF
(1708107881.513239) can1 0CEF0100#B020000000625400
(1708107881.514041) can1 04EF001C#3754968A3794962E
(1708107881.518190) can1 0CEF1100#56E8DC1D50B95CC9
(1708107881.523226) can1 18FFDC00#C014010000507B19
(1708107881.524112) can1 04EF001C#F8564FF0F8964F54
(1708107881.528217) can1 18FFDC00#C11B000000A4FFA3
(1708107881.528843) can1 0CF00300#CF004FFF00FFFFFF
(1708107881.529345) can1 0CF00400#FF7D7D000000FFFF
(1708107881.533208) can1 18FFDC00#C2FFFF6E921B00FF
(1708107881.533817) can1 09F20000#000000FFFFFFFFFF
(1708107881.534407) can1 04EF001C#B7597A87B7F97A43
(1708107881.534926) can1 0CEF0100#B020000000625400
(1708107881.544323) can1 04EF001C#785C9BFA793C9AFE
(1708107881.548221) can1 0CF00400#FF7D7D000000FFFF
(1708107881.553239) can1 0CEF0100#B020000000625400
(1708107881.554438) can1 04EF001C#A15F5C31A03F5D35
(1708107881.558245) can1 18FEF200#0000FFFFFFFF37FF
(1708107881.560425) can1 18FF1080#000000FFFFFFFD00
(1708107881.561419) can1 18FF1180#0300FBFDFFFF02FF
(1708107881.562433) can1 18FF1380#000000003FC0C006
(1708107881.564544) can1 04EF001C#FA41F5F7FB21F4F3
(1708107881.568219) can1 0CF00400#FF7D7D000000FFFF
(1708107881.568766) can1 0CEF1100#16EDA61CBF7253B6
(1708107881.573227) can1 18FFDC00#E014010000507B19
(1708107881.573823) can1 0CEF0100#B020000000625400
(1708107881.574366) can1 0CEF0017#812B8813CD0AFFFF
(1708107881.574956) can1 04EF001C#DD44FBCADC64FA8E
(1708107881.578229) can1 18FFDC00#E11B000000A4FFA3
(1708107881.578775) can1 0CF00300#CF004FFF00FFFFFF
(1708107881.583213) can1 18FFDC00#E2FFFF6E921B00FF
(1708107881.583821) can1 18E8FF00#02FFFFFFFF00EF00
(1708107881.584792) can1 04EF001C#9D47A1C99C67A08D
(1708107881.588220) can1 0CF00400#FF7D7D000000FFFF
(1708107881.593238) can1 0CEF0100#B020000000625400
(1708107881.594012) can1 18FF1CF3#0000000000000000
(1708107881.594863) can1 04EF001C#944AC08C954AC1E8
(1708107881.598233) can1 18FEF100#FF2C00F5FF11DFFF
(1708107881.604989) can1 04EF001C#874DEB1386EDEAD7
(1708107881.608219) can1 0CF00400#FF7D7D000000FFFF
(1708107881.613237) can1 0CEF0100#B020000000625400
(1708107881.615107) can1 04EF001C#7D50FEDE7CB0FF5A
(1708107881.618197) can1 0CEF1100#A69ED783A8E23F16
(1708107881.623236) can1 18FFDC00#0014010000507B19
(1708107881.625208) can1 04EF001C#195381ED186380A9
(1708107881.628208) can1 18FFDC00#011B000000A4FFA3
(1708107881.628852) can1 0CF00300#CF004FFF00FFFFFF
(1708107881.629369) can1 0CF00400#FF7D7D000000FFFF
(1708107881.633209) can1 18FFDC00#02FFFF6E921B00FF
(1708107881.633820) can1 09F20000#000000FFFFFFFFFF
(1708107881.634408) can1 0CEF0017#812B8813CD0AFFFF
(1708107881.635000) can1 0CEF0100#B020000000625400
(1708107881.635544) can1 04EF001C#FD5552CBFC0553EF
(1708107881.643228) can1 18E8FF00#02FFFFFFFF00EF00
(1708107881.645444) can1 04EF001C#BE587BDEBFA87A5A
(1708107881.648218) can1 0CF00400#FF7D7D000000FFFF
(1708107881.653227) can1 18FEEF00#FFFFFF00FFFFFFFF
(1708107881.653839) can1 0CEF0100#B020000000625400
(1708107881.655525) can1 04EF001C#995B45E5988B4441
(1708107881.658242) can1 18FEF200#0000FFFFFFFF37FF
(1708107881.661452) can1 18FF1080#000000FFFFFFFD00
(1708107881.662412) can1 18FF1180#0300FBFDFFFF02FF
(1708107881.665659) can1 04EF001C#065EF618076EF75C
(1708107881.668217) can1 0CF00400#FF7D7D000000FFFF
(1708107881.668877) can1 0CEF1100#E792A5C8E9287D5B
(1708107881.673234) can1 18FFDC00#2014010000507B19
(1708107881.673813) can1 0CEF0100#B020000000625400
(1708107881.675751) can1 04EF001C#A540A01EA470A15A
(1708107881.678226) can1 18FFDC00#211B000000A4FFA3
(1708107881.678811) can1 0CF00300#CF004FFF00FFFFFF
(1708107881.683216) can1 18FFDC00#22FFFF6E921B00FF
(1708107881.683798) can1 0CEF1700#01AB8813CD0AFFFF
(1708107881.685267) can1 18FF1C17#0000000000000000
(1708107881.685879) can1 04EF001C#2C4335552D9334F1
(1708107881.688224) can1 0CF00400#FF7D7D000000FFFF
(1708107881.693236) can1 0CEF0100#B020000000625400
(1708107881.693842) can1 18FEF600#FFFF3C2AFFFFFFFF
(1708107881.694464) can1 18FF1CF3#0000000000000000
(1708107881.695982) can1 04EF001C#ED45C25BECD5C3BF
(1708107881.698221) can1 18FEF100#FF2D00F5FF11DFFF
(1708107881.706104) can1 04EF001C#78483BFE79D83A1A
(1708107881.708218) can1 0CF00400#FF7D7D000000FFFF
(1708107881.713251) can1 0CEF0100#B020000000625400
(1708107881.714036) can1 0CEF0017#812B8813CD0AFFFF
(1708107881.716203) can1 04EF001C#384B61FD399B6059
(1708107881.718205) can1 0CEF1100#3E8CE547256BD57E
(1708107881.723260) can1 18FFDC00#4014010000507B19
(1708107881.723817) can1 18E8FF00#02FFFFFFFF00EF00
(1708107881.726330) can1 04EF001C#2D4E5C502CBE5DD4
(1708107881.728200) can1 18FFDC00#411B000000A4FFA3
(1708107881.728778) can1 0CF00300#CF004FFF00FFFFFF
(1708107881.729340) can1 0CF00400#FF7D7D000000FFFF
(1708107881.733203) can1 18FFDC00#42FFFF6E921B00FF
(1708107881.733829) can1 09F20000#000000FFFFFFFFFF
(1708107881.734431) can1 0CEF0100#B020000000625400
(1708107881.736420) can1 04EF001C#EC506B46EDE06A82
(1708107881.746552) can1 04EF001C#7853E3E579E3E221
(1708107881.748218) can1 0CF00400#FF7D7D000000FFFF
(1708107881.753238) can1 0CEF0100#B020000000625400
(1708107881.756645) can1 04EF001C#385689E039468884
(1708107881.758233) can1 18FEF200#0000FFFFFFFF37FF
(1708107881.761449) can1 18FF1080#000000FFFFFFFD00
(1708107881.762415) can1 18FF1180#0300FBFDFFFF02FF
(1708107881.763420) can1 18FF1380#000000003FC0C006
(1708107881.766788) can1 04EF001C#FA583DFEFB083CDA
(1708107881.768219) can1 0CF00400#FF7D7D000000FFFF
(1708107881.768774) can1 0CEF1100#6E81DBC4D69D36E2
(1708107881.773227) can1 18FFDC00#6014010000507B19
(1708107881.773907) can1 0CEF0100#B020000000625400
(1708107881.776882) can1 04EF001C#B85B65EDB96B64A9
(1708107881.778207) can1 18FFDC00#611C000000A4FFA3
(1708107881.778813) can1 0CF00300#CF004FFF00FFFFFF
(1708107881.783207) can1 18FFDC00#62FFFF6E921B00FF
(1708107881.786986) can1 04EF001C#795E8AE0784E8B84
(1708107881.788218) can1 0CF00400#FF7D7D000000FFFF
(1708107881.793240) can1 0CEF0100#B020000000625400
(1708107881.797117) can1 04EF001C#B241BFA7B371BEE3
(1708107881.798218) can1 18FEF100#FF2E00F5FF11DFFF
(1708107881.807232) can1 04EF001C#6344402A6274416E
(1708107881.808228) can1 0CF00400#FF7D7D000000FFFF
(1708107881.813236) can1 0CEF0100#B020000000625400
(1708107881.813998) can1 0CEF0017#812B8813CD0AFFFF
(1708107881.817329) can1 04EF001C#45477F1944177E3D
(1708107881.818196) can1 0CEF1100#9EB2B849418D4E56
(1708107881.823233) can1 18FFDC00#8014010000507B19
(1708107881.823826) can1 18E8FF00#02FFFFFFFF00EF00
(1708107881.827452) can1 04EF001C#F349BCA7F239BDA3
(1708107881.828210) can1 18FFDC00#811C000000A4FFA3
(1708107881.828802) can1 0CF00300#CF004FFF00FFFFFF
(1708107881.829388) can1 0CF00400#FF7D7D000000FFFF
(1708107881.833209) can1 18FFDC00#82FFFF6E921B00FF
(1708107881.833804) can1 09F20000#000000FFFFFFFFFF
(1708107881.834440) can1 0CEF0100#B020000000625400
(1708107881.835010) can1 18FF1CF3#0000000000000000
(1708107881.837564) can1 04EF001C#A24CC72AA2FCC7EE
(1708107881.847681) can1 04EF001C#864FFA0986BFFA8D
(1708107881.848279) can1 0CF00400#FF7D7D000000FFFF
(1708107881.848915) can1 18FECA00#40FF00000000FFFF
(1708107881.853236) can1 0CEF0100#B020000000625400
(1708107881.857803) can1 04EF001C#3152A0AC3102A088
(1708107881.858403) can1 18FEF200#0000FFFFFFFF37FF
(1708107881.862457) can1 18FF1080#000000FFFFFFFD00
(1708107881.863413) can1 18FF1180#0300FBFDFFFF02FF
(1708107881.867882) can1 04EF001C#7A54D9F285C32611
(1708107881.868398) can1 0CEF1100#DCB552D8AA42E189
(1708107881.868981) can1 0CF00400#FF7D7D000000FFFF
(1708107881.873226) can1 18FFDC00#A014010000507B19
(1708107881.873847) can1 0CEF0100#B020000000625400
(1708107881.874381) can1 0CEF0017#812B8813CD0AFFFF
(1708107881.878002) can1 04EF001C#37578E99C8A0711A
(1708107881.878553) can1 0CF00300#CF004FFF00FFFFFF
(1708107881.879127) can1 18FFDC00#A11D000000A4FFA3
(1708107881.883220) can1 18FFDC00#A2FFFF6E921B00FF
(1708107881.883775) can1 18E8FF00#02FFFFFFFF00EF00
(1708107881.885057) can1 15FD069B#B6D573FFFFFFFFFF
(1708107881.888100) can1 04EF001C#FA5935EF055ECA8C
(1708107881.888674) can1 0CF00400#FF7D7D000000FFFF
(1708107881.893240) can1 0CEF0100#B020000000625400
(1708107881.894056) can1 0CEA1C00#00EE000000000000
(1708107881.895228) can1 18EEFF1C#0204450E00000042
(1708107881.898220) can1 18FEF100#FF2F00F5FF11DFFF
(1708107881.898800) can1 04EF001C#B85C5DFA46DBA319
(1708107881.908227) can1 0CF00400#FF7D7D000000FFFF
(1708107881.908869) can1 04EF001C#785F83F986987D5A
(1708107881.913236) can1 0CEF0100#B020000000625400
(1708107881.914035) can1 18FF1CF3#0000000000000000
(1708107881.918203) can1 0CEF1100#00A63B3C7E09482F
(1708107881.918752) can1 04EF001C#384229E4C645D787
(1708107881.923229) can1 18FFDC00#C014010000507B19
(1708107881.928214) can1 18FFDC00#C11D000000A4FFA3
(1708107881.928833) can1 04EF001C#FA44DDF2040323D1
(1708107881.929333) can1 0CF00300#CF004FFF00FFFFFF
(1708107881.929900) can1 0CF00400#FF7D7D000000FFFF
(1708107881.933206) can1 18FFDC00#C2FFFF6E921B00FF
(1708107881.933802) can1 09F20000#000000FFFFFFFFFF
(1708107881.934401) can1 0CEF0100#B020000000625400
(1708107881.938660) can1 04EF001C#B94784E947207AEA
(1708107881.948233) can1 0CF00400#FF7D7D000000FFFF
(1708107881.948773) can1 04EF001C#794A2AE484EDD727
(1708107881.953239) can1 0CEF0100#B020000000625400
(1708107881.953878) can1 18FF1C17#0000000000000000
(1708107881.954390) can1 0CEF0017#812B8813CD0AFFFF
(1708107881.958244) can1 18FEF200#0000FFFFFFFF37FF
(1708107881.958915) can1 04EF001C#394D50E3C4AAAD60
(1708107881.962434) can1 18FF1080#000000FFFFFFFD00
(1708107881.963236) can1 18E8FF00#02FFFFFFFF00EF00
(1708107881.963821) can1 18FF1180#0300FBFDFFFF02FF
(1708107881.965438) can1 18FF1380#000000003FC0C006
(1708107881.968224) can1 0CF00400#FF7D7D000000FFFF
(1708107881.968761) can1 0CEF1100#BDDED189F419E321
(1708107881.969335) can1 04EF001C#F84F87E905487A8A
(1708107881.970159) can1 09F8021C#7CFC1E120200FFFF
(1708107881.971016) can1 09F8011C#526E2618026C5BC1
(1708107881.972043) can1 19FA031C#7CD252009D006500
(1708107881.973049) can1 0DF0101C#7CF0A34DF09AA82B
(1708107881.973629) can1 0CEF0100#B020000000625400
(1708107881.974220) can1 18FEE81C#4A0D00002064487E
(1708107881.974766) can1 18FFDC00#E014010000507B19
(1708107881.975376) can1 19FA041C#209F7CFF0D017512
(1708107881.976182) can1 19FA041C#21FAC86810FFFFFF
(1708107881.977168) can1 19FA041C#22FFFF055528D020
(1708107881.978174) can1 19FA041C#233C0FFFFFFFFFFF
(1708107881.978761) can1 0CF00300#CF004FFF00FFFFFF
(1708107881.979302) can1 04EF001C#5E53C4C5A33439C6
(1708107881.979844) can1 18FFDC00#E11D000000A4FFA3
(1708107881.980417) can1 19FA041C#240CBC020C7B0807
(1708107881.981225) can1 19FA041C#25FFFFFFFFFF0D82
(1708107881.982209) can1 19FA041C#26147648A00FFFFF
(1708107881.983203) can1 18FFDC00#E2FFFF6E921B00FF
(1708107881.983773) can1 19FA041C#27FFFFFF0FED172C
(1708107881.985255) can1 19FA041C#2865CC10FFFFFFFF
(1708107881.986242) can1 19FA041C#29FF10AF00F4E200
(1708107881.987270) can1 19FA041C#2A00FFFFFFFFFF12
(1708107881.988221) can1 0CF00400#FF7D7D000000FFFF
(1708107881.988791) can1 19FA041C#2B071C3EC6F811FF
(1708107881.990232) can1 04EF001C#315680B8CC317DBB
(1708107881.991313) can1 19FA041C#2B071C3EC6F811FF
(1708107881.992316) can1 19FA041C#2CFFFFFFFF148214
(1708107881.993241) can1 0CEF0100#B020000000625400
(1708107881.993805) can1 19FA041C#2D2E22F00AFFFFFF
(1708107881.995363) can1 19FA041C#2EFFFF194E0C748B
(1708107881.996382) can1 19FA041C#2F1C0CFFFFFFFFFF
(1708107881.997384) can1 19FA041C#301AFD0C72CE740E
(1708107881.998244) can1 18FEF100#FF2F00F5FF11DFFF
(1708107881.998792) can1 19FA041C#31FFFFFFFFFF1D28
(1708107882.000345) can1 04EF001C#96595A8F6AFEA64C
(1708107882.001446) can1 19FA041C#31FFFFFFFFFF1D28
(1708107882.002440) can1 19FA041C#323CA2ADD80EFFFF
(1708107882.003458) can1 19FA041C#33FFFFFF2CB61CFC
(1708107882.004483) can1 19FA041C#3485CC10FFFFFFFF
(1708107882.005478) can1 19FA041C#35FF30A91A308EA0
(1708107882.006495) can1 19FA041C#360FFFFFFFFFFFFF
(1708107882.008222) can1 0CF00400#FF7D7D000000FFFF
(1708107882.009467) can1 04EF001C#8B5B5765779CABC6
(1708107882.013238) can1 0CEF0100#B020000000625400
(1708107882.018191) can1 0CEF1100#74D43583117B4648
(1708107882.019575) can1 04EF001C#6E5E9D48929961EB
(1708107882.023237) can1 18FFDC00#0014010000507B19
(1708107882.028227) can1 18FFDC00#011D000000A4FFA3
(1708107882.028852) can1 0CF00300#CF004FFF00FFFFFF
(1708107882.029361) can1 0CF00400#FF7D7D000000FFFF
(1708107882.029931) can1 04EF001C#304139A7CCE6C564
(1708107882.033210) can1 18FFDC00#02FFFF6E921B00FF
(1708107882.033830) can1 09F20000#000000FFFFFFFFFF
(1708107882.034475) can1 0CEF0100#B020000000625400
(1708107882.039779) can1 04EF001C#A143BC2D5D84408E
(1708107882.048230) can1 0CF00400#FF7D7D000000FFFF
(1708107882.049897) can1 04EF001C#E546D20819812EAB
(1708107882.053240) can1 0CEF0100#B020000000625400
(1708107882.054087) can1 18FF1CF3#0000000000000000
(1708107882.058247) can1 18FEF200#0000FFFFFFFF37FF
(1708107882.060007) can1 04EF001C#7D4936F7819ECA74
(1708107882.063451) can1 18FF1080#000000FFFFFFFD00
(1708107882.064428) can1 18FF1180#0300FBFDFFFF02FF
(1708107882.068224) can1 0CF00400#FF7D7D000000FFFF
(1708107882.068755) can1 0CEF1100#15C8CECCC8E7B8C3
(1708107882.070122) can1 04EF001C#D54B8BB529BC7716
(1708107882.073232) can1 18FFDC00#2014010000507B19
(1708107882.073842) can1 0CEF0100#B020000000625400
(1708107882.074385) can1 0CEF0017#812B8813CD0AFFFF
(1708107882.078225) can1 18FFDC00#211D000000A4FFA3
(1708107882.078813) can1 0CF00300#CF004FFF00FFFFFF
(1708107882.080246) can1 04EF001C#944EE0B868B91C1B
(1708107882.083199) can1 18FFDC00#22FFFF6E921B00FF
(1708107882.083818) can1 18E8FF00#02FFFFFFFF00EF00
(1708107882.088233) can1 0CF00400#FF7D7D000000FFFF
(1708107882.090337) can1 04EF001C#2E51A777D2C65BB4
(1708107882.093239) can1 0CEF0100#B020000000625400
(1708107882.094046) can1 18FF1CF3#0000000000000000
(1708107882.098222) can1 18FEF100#FF2F00F5FF11DFFF
(1708107882.100437) can1 04EF001C#ED53726D10248F4E
(1708107882.108231) can1 0CF00400#FF7D7D000000FFFF
(1708107882.110542) can1 04EF001C#AC56196051A1E4C3
(1708107882.113237) can1 0CEF0100#B020000000625400
(1708107882.114016) can1 0CEF0017#812B8813CD0AFFFF
(1708107882.118201) can1 0CEF1100#E0FAE4295CFCD92F
(1708107882.120660) can1 04EF001C#6D59A667930E5864
(1708107882.123218) can1 18FFDC00#4014010000507B19
(1708107882.123814) can1 18E8FF00#02FFFFFFFF00EF00
(1708107882.128209) can1 18FFDC00#411D000000A4FFA3
(1708107882.128843) can1 0CF00300#CF004FFF00FFFFFF
(1708107882.129351) can1 0CF00400#FF7D7D000000FFFF
(1708107882.130789) can1 04EF001C#8D5C6962738B97E1
(1708107882.133200) can1 18FFDC00#42FFFF6E921B00FF
(1708107882.133791) can1 09F20000#000000FFFFFFFFFF
(1708107882.134389) can1 0CEF0100#B020000000625400
(1708107882.138249) can1 09F20100#8016000100FFFFC6
(1708107882.140892) can1 04EF001C#B85E4DC84709B2CB
(1708107882.143200) can1 09F20100#8172C90400006E92
(1708107882.143789) can1 18FEE500#36270000FFFFFFFF
(1708107882.145043) can1 18FF1C17#0000000000000000
(1708107882.148223) can1 0CF00400#FF7D7D000000FFFF
(1708107882.148847) can1 09F20100#821B00FFFFFFFF00
(1708107882.149388) can1 18FEEE00#3CFFFFFFFFFF42FF
(1708107882.150987) can1 04EF001C#D441DAB72BB62514
(1708107882.153230) can1 09F20100#830100FFFFFFFFFF
(1708107882.153829) can1 0CEF0100#B020000000625400
(1708107882.154427) can1 18FEEF00#FFFFFF00FFFFFFFF
(1708107882.158245) can1 18FEF200#0000FFFFFFFF37FF
(1708107882.161129) can1 04EF001C#384419C2382419E6
(1708107882.163205) can1 18FEF700#FFFF1A01F500F600
(1708107882.163825) can1 18FF1080#000000FFFFFFFD00
(1708107882.164420) can1 18FF1180#0300FBFDFFFF02FF
(1708107882.165432) can1 18FF1380#000000003FC0C006
(1708107882.168219) can1 0CF00400#FF7D7D000000FFFF
(1708107882.168763) can1 0CEF1100#ABFC44B0B723B4B0
(1708107882.171218) can1 04EF001C#2F4716792F67161D
(1708107882.173224) can1 18FFDC00#6014010000507B19
(1708107882.173841) can1 0CEF0100#B020000000625400
(1708107882.178224) can1 18FFDC00#611C000000A4FFA3
(1708107882.178773) can1 0CF00300#CF004FFF00FFFFFF
(1708107882.181346) can1 04EF001C#EC49A37FECD9A3BB
(1708107882.183195) can1 18FFDC00#62FFFF6E921B00FF
(1708107882.183783) can1 0CEF1700#01AB8813CD0AFFFF
(1708107882.188234) can1 0CF00400#FF7D7D000000FFFF
(1708107882.188864) can1 18FEFC00#FFA3FFFFFFFFFFFF
(1708107882.191435) can1 04EF001C#794C1AD2785C1B96
(1708107882.193235) can1 0CEF0100#B020000000625400
(1708107882.193855) can1 18FEF600#FFFF3C2AFFFFFFFF
(1708107882.194367) can1 0CEF0017#812B8813CD0AFFFF
(1708107882.198225) can1 18FEF100#FF2E00F5FF11DFFF
(1708107882.201580) can1 04EF001C#C74FB921C6BFB885
(1708107882.203231) can1 18E8FF00#02FFFFFFFF00EF00
(1708107882.208232) can1 0CF00400#FF7D7D000000FFFF
(1708107882.211686) can1 04EF001C#8652123484021030
(1708107882.213242) can1 0CEF0100#B020000000625400
(1708107882.214054) can1 18FF1CF3#0000000000000000
(1708107882.218201) can1 0CEF1100#7CE8D7CD6E7D77BF
(1708107882.221790) can1 04EF001C#2155880B23658A6F
(1708107882.223224) can1 18FFDC00#8014010000507B19
(1708107882.228214) can1 18FFDC00#811C000000A4FFA3
(1708107882.228888) can1 0CF00300#CF004FFF00FFFFFF
(1708107882.229404) can1 0CF00400#FF7D7D000000FFFF
(1708107882.231919) can1 04EF001C#3E58FFFE3C88FD7A
(1708107882.233209) can1 18FFDC00#82FFFF6E921B00FF
(1708107882.233833) can1 09F20000#000000FFFFFFFFFF
(1708107882.234421) can1 0CEF0100#B020000000625400
(1708107882.242025) can1 04EF001C#C65A103CC4AA1298
(1708107882.248229) can1 0CF00400#FF7D7D000000FFFF
(1708107882.252117) can1 04EF001C#625D891B60ED8BFF
(1708107882.253257) can1 0CEF0100#B020000000625400
(1708107882.258246) can1 18FEF200#0000FFFFFFFF37FF
(1708107882.262242) can1 04EF001C#4540473E4630441A
(1708107882.264436) can1 18FF1080#000000FFFFFFFD00
(1708107882.265424) can1 18FF1180#0300FBFDFFFF02FF
(1708107882.268222) can1 0CF00400#FF7D7D000000FFFF
(1708107882.268783) can1 0CEF1100#3CEDADCC3FB77530
(1708107882.272335) can1 04EF001C#78426BD47B526890
(1708107882.273230) can1 18FFDC00#A014010000507B19
(1708107882.273809) can1 0CEF0100#B020000000625400
(1708107882.274405) can1 0CEF0017#812B8813CD0AFFFF
(1708107882.278224) can1 18FFDC00#A11C000000A4FFA3
(1708107882.278774) can1 0CF00300#CF004FFF00FFFFFF
(1708107882.282449) can1 04EF001C#37451EAB34551DEF
(1708107882.283214) can1 18FFDC00#A2FFFF6E921B00FF
(1708107882.283806) can1 18E8FF00#02FFFFFFFF00EF00
(1708107882.284773) can1 0DF50B9B#5CFFFFFFFF0000FF
(1708107882.288222) can1 0CF00400#FF7D7D000000FFFF
(1708107882.292571) can1 04EF001C#FA47C5C1F997C645
(1708107882.293270) can1 0CEF0100#B020000000625400
(1708107882.294071) can1 18FF1CF3#0000000000000000
(1708107882.298226) can1 18FEF100#FF2E00F5FF11DFFF
(1708107882.302676) can1 04EF001C#B94AECD4BA9AEF50
(1708107882.308217) can1 0CF00400#FF7D7D000000FFFF
(1708107882.312779) can1 04EF001C#784D13DB7BBD107F
(1708107882.313362) can1 0CEF0100#B020000000625400
(1708107882.318192) can1 0CEF1100#96986A0223140748
(1708107882.322902) can1 04EF001C#3850B9C63BA0BA62
(1708107882.323512) can1 18FFDC00#C014010000507B19
(1708107882.328211) can1 18FFDC00#C11B000000A4FFA3
(1708107882.328838) can1 0CF00300#CF004FFF00FFFFFF
(1708107882.329342) can1 0CF00400#FF7D7D000000FFFF
(1708107882.333024) can1 04EF001C#F8526FC4FB826C40
(1708107882.333613) can1 09F20000#000000FFFFFFFFFF
(1708107882.334196) can1 0CEF0100#B020000000625400
(1708107882.334840) can1 18FFDC00#C2FFFF6E921B00FF
(1708107882.343125) can1 04EF001C#B85515C3BB851647
(1708107882.344864) can1 18FF1C17#0000000000000000
(1708107882.348222) can1 0CF00400#FF7D7D000000FFFF
(1708107882.353236) can1 0CEF0100#B020000000625400
(1708107882.353777) can1 04EF001C#7A58B9DE7948BA9A
(1708107882.354332) can1 0CEF0017#812B8813CD0AFFFF
(1708107882.358249) can1 18FEF200#0000FFFFFFFF37FF
(1708107882.363232) can1 18E8FF00#02FFFFFFFF00EF00
(1708107882.363826) can1 04EF001C#375BEEB535CBEC71
(1708107882.364435) can1 18FF1080#000000FFFFFFFD00
(1708107882.365428) can1 18FF1180#0300FBFDFFFF02FF
(1708107882.366437) can1 18FF1380#000000003FC0C006
(1708107882.368224) can1 0CF00400#FF7D7D000000FFFF
(1708107882.368860) can1 0CEF1100#D893E3F0DAD8B304
(1708107882.373238) can1 18FFDC00#E014010000507B19
(1708107882.373781) can1 04EF001C#F95D16C3FB8D1447
(1708107882.374394) can1 0CEF0100#B020000000625400
(1708107882.378220) can1 18FFDC00#E11B000000A4FFA3
(1708107882.378770) can1 0CF00300#CF004FFF00FFFFFF
(1708107882.383160) can1 15FD069B#B7D573FFFFFFFFFF
(1708107882.383774) can1 04EF001C#B840BDE6BA00BFC2
(1708107882.384292) can1 18FFDC00#E2FFFF6E921B00FF
(1708107882.388228) can1 0CF00400#FF7D7D000000FFFF
(1708107882.393238) can1 0CEF0100#B020000000625400
(1708107882.393786) can1 04EF001C#784363E579C36201
(1708107882.394375) can1 18FF1CF3#0000000000000000
(1708107882.398227) can1 18FEF100#FF2D00F5FF11DFFF
(1708107882.403799) can1 04EF001C#C646F010C746F174
(1708107882.408233) can1 0CF00400#FF7D7D000000FFFF
(1708107882.413238) can1 0CEF0100#B020000000625400
(1708107882.413962) can1 04EF001C#8749CB178629CA13
(1708107882.418197) can1 0CEF1100#068E7A871194A2D9
(1708107882.423240) can1 18FFDC00#0014010000507B19
(1708107882.424079) can1 04EF001C#214C402221EC40E6
(1708107882.428220) can1 18FFDC00#011B000000A4FFA3
(1708107882.428847) can1 0CF00300#CF004FFF00FFFFFF
(1708107882.429355) can1 0CF00400#FF7D7D000000FFFF
(1708107882.433208) can1 18FFDC00#02FFFF6E921B00FF
(1708107882.433817) can1 09F20000#000000FFFFFFFFFF
(1708107882.434366) can1 04EF001C#064F7E19064F7E7D
(1708107882.434940) can1 0CEF0017#812B8813CD0AFFFF
(1708107882.435537) can1 0CEF0100#B020000000625400
(1708107882.443243) can1 18E8FF00#02FFFFFFFF00EF00
(1708107882.444262) can1 04EF001C#C751490FC711492B
(1708107882.448220) can1 0CF00400#FF7D7D000000FFFF
(1708107882.453236) can1 0CEF0100#B020000000625400
(1708107882.454390) can1 04EF001C#6254C1229DD33EC1
(1708107882.458241) can1 18FEF200#0000FFFFFFFF37FF
(1708107882.464452) can1 18FF1080#000000FFFFFFFD00
(1708107882.465005) can1 04EF001C#B756028848B1FD0B
(1708107882.465584) can1 18FF1180#0300FBFDFFFF02FF
(1708107882.468224) can1 0CF00400#FF7D7D000000FFFF
(1708107882.468875) can1 0CEF1100#488DB377F041DE57
(1708107882.473234) can1 18FFDC00#2014010000507B19
(1708107882.473815) can1 0CEF0100#B020000000625400
(1708107882.474599) can1 04EF001C#9D5951D7621EAEF4
(1708107882.476634) can1 09F8021C#7DFC1E120300FFFF
(1708107882.477605) can1 09F8011C#526E2618026C5BC1
(1708107882.478219) can1 18FFDC00#211B000000A4FFA3
(1708107882.478800) can1 0CF00300#CF004FFF00FFFFFF
(1708107882.479373) can1 19FA031C#7DD252009D006500
(1708107882.480658) can1 0DF0101C#7DF0A34DF09AA82B
(1708107882.481670) can1 18FEE81C#4A0D00002064497E
(1708107882.482745) can1 19FA041C#409F7DFF0D017512
(1708107882.483347) can1 18FFDC00#22FFFF6E921B00FF
(1708107882.483901) can1 19FA041C#41FAC86810FFFFFF
(1708107882.484723) can1 04EF001C#105DF8BBEEFA0678
(1708107882.485766) can1 19FA041C#42FFFF055528D020
(1708107882.486774) can1 19FA041C#43480DFFFFFFFFFF
(1708107882.487771) can1 19FA041C#440CBC020C7BA406
(1708107882.488350) can1 0CF00400#FF7D7D000000FFFF
(1708107882.488932) can1 19FA041C#45FFFFFFFFFF0D82
(1708107882.489819) can1 19FA041C#461476480410FFFF
(1708107882.490808) can1 19FA041C#47FFFFFF0FED172C
(1708107882.491820) can1 19FA041C#4865CC10FFFFFFFF
(1708107882.492980) can1 19FA041C#49FF10AF00F4E200
(1708107882.493417) can1 0CEF0100#B020000000625400
(1708107882.493990) can1 19FA041C#4A00FFFFFFFFFF12
(1708107882.494820) can1 04EF001C#C65F38093858C66A
(1708107882.495873) can1 19FA041C#4B071C3EC6F811FF
(1708107882.496894) can1 19FA041C#4CFFFFFFFF148214
(1708107882.497897) can1 19FA041C#4D2E22540BFFFFFF
(1708107882.498453) can1 18FEF100#FF2D00F5FF11DFFF
(1708107882.499012) can1 19FA041C#4EFFFF194E0C748B
(1708107882.499951) can1 19FA041C#4F800CFFFFFFFFFF
(1708107882.500928) can1 19FA041C#501AFD0C72CE740E
(1708107882.501938) can1 19FA041C#51FFFFFFFFFF1D28
(1708107882.502940) can1 19FA041C#523CA2ADD80EFFFF
(1708107882.503961) can1 19FA041C#53FFFFFF2CB61CFC
(1708107882.504918) can1 04EF001C#6742741C99058A3F
(1708107882.505991) can1 19FA041C#54856810FFFFFFFF
(1708107882.506980) can1 19FA041C#55FF30A91A308E04
(1708107882.508014) can1 19FA041C#5610FFFFFFFFFFFF
(1708107882.508588) can1 0CF00400#FF7D7D000000FFFF
(1708107882.513239) can1 0CEF0100#B020000000625400
(1708107882.514078) can1 18FF1CF3#0000000000000000
(1708107882.515016) can1 04EF001C#AD44887A50D375B9
(1708107882.518196) can1 0CEF1100#BEBC414A625C4F4B
(1708107882.523231) can1 18FFDC00#4014010000507B19
(1708107882.525122) can1 04EF001C#6C4757719190AAF2
(1708107882.528205) can1 18FFDC00#411B000000A4FFA3
(1708107882.528768) can1 0CF00300#CF004FFF00FFFFFF
(1708107882.529352) can1 0CF00400#FF7D7D000000FFFF
(1708107882.533202) can1 18FFDC00#42FFFF6E921B00FF
(1708107882.533816) can1 09F20000#000000FFFFFFFFFF
(1708107882.534358) can1 0CEF0017#812B8813CD0AFFFF
(1708107882.534952) can1 0CEF0100#B020000000625400
(1708107882.535508) can1 04EF001C#2E4A7F6CD39D82EF
(1708107882.543223) can1 18E8FF00#02FFFFFFFF00EF00
(1708107882.545359) can1 04EF001C#EC4C8B7A119B76F9
(1708107882.548222) can1 0CF00400#FF7D7D000000FFFF
(1708107882.553236) can1 0CEF0100#B020000000625400
(1708107882.555462) can1 04EF001C#AD4FD07150B82DD2
(1708107882.558242) can1 18FEF200#0000FFFFFFFF37FF
(1708107882.565449) can1 18FF1080#000000FFFFFFFD00
(1708107882.565980) can1 04EF001C#3752A6BCCAE55B5F
(1708107882.566555) can1 18FF1180#0300FBFDFFFF02FF
(1708107882.567438) can1 18FF1380#000000003FC0C006
(1708107882.568229) can1 0CF00400#FF7D7D000000FFFF
(1708107882.568887) can1 0CEF1100#8CB3F459396C0111
(1708107882.573227) can1 18FFDC00#6014010000507B19
(1708107882.573843) can1 0CEF0100#B020000000625400
(1708107882.575685) can1 04EF001C#6455CF239A023120
(1708107882.578214) can1 18FFDC00#611B000000A4FFA3
(1708107882.578816) can1 0CF00300#CF004FFF00FFFFFF
(1708107882.583207) can1 18FFDC00#62FFFF6E921B00FF
(1708107882.585801) can1 04EF001C#EC5753611240AD22
(1708107882.588221) can1 0CF00400#FF7D7D000000FFFF
(1708107882.593239) can1 0CEF0100#B020000000625400
(1708107882.594053) can1 0CEF0017#812B8813CD0AFFFF
(1708107882.595930) can1 04EF001C#795AAAC487AD5467
(1708107882.598214) can1 18FEF100#FF2D00F5FF11DFFF
(1708107882.603246) can1 18E8FF00#02FFFFFFFF00EF00
(1708107882.605219) can1 18FF1C17#0000000000000000
(1708107882.606033) can1 04EF001C#BB5D56D345EAA830
(1708107882.608216) can1 0CF00400#FF7D7D000000FFFF
(1708107882.613239) can1 0CEF0100#B020000000625400
(1708107882.614078) can1 18FF1CF3#0000000000000000
(1708107882.616152) can1 04EF001C#6340600E9C779F6D
(1708107882.618195) can1 0CEF1100#DEA22A4DCB18F206
(1708107882.623237) can1 18FFDC00#8014010000507B19
(1708107882.626269) can1 04EF001C#45435F0DBAC4A0EE
(1708107882.628200) can1 18FFDC00#811B000000A4FFA3
(1708107882.628768) can1 0CF00300#CF004FFF00FFFFFF
(1708107882.629349) can1 0CF00400#FF7D7D000000FFFF
(1708107882.633220) can1 18FFDC00#82FFFF6E921B00FF
(1708107882.633821) can1 09F20000#000000FFFFFFFFFF
(1708107882.634415) can1 0CEF0100#B020000000625400
(1708107882.636374) can1 04EF001C#324603B032A60334
(1708107882.646473) can1 04EF001C#A148E426A1C8E4C2
(1708107882.648222) can1 0CF00400#FF7D7D000000FFFF
(1708107882.653230) can1 18FEEF00#FFFFFF00FFFFFFFF
(1708107882.653827) can1 0CEF0100#B020000000625400
(1708107882.656609) can1 04EF001C#864BDA1D874BDB79
(1708107882.658236) can1 18FEF200#0000FFFFFFFF37FF
(1708107882.665444) can1 18FF1080#000000FFFFFFFD00
(1708107882.666433) can1 18FF1180#0300FBFDFFFF02FF
(1708107882.667008) can1 04EF001C#B84DD5EBB98DD44F
(1708107882.668225) can1 0CF00400#FF7D7D000000FFFF
(1708107882.668847) can1 0CEF1100#18A1C5FD03E4E5C1
(1708107882.673238) can1 18FFDC00#A014010000507B19
(1708107882.673806) can1 0CEF0100#B020000000625400
(1708107882.674372) can1 0CEF0017#812B8813CD0AFFFF
(1708107882.676805) can1 04EF001C#7850FBF67A30F9F2
(1708107882.678203) can1 18FFDC00#A11B000000A4FFA3
(1708107882.678780) can1 0CF00300#CF004FFF00FFFFFF
(1708107882.683221) can1 18FFDC00#A2FFFF6E921B00FF
(1708107882.683761) can1 0CEF1700#01AB8813CD0AFFFF
(1708107882.684334) can1 18E8FF00#02FFFFFFFF00EF00
(1708107882.686909) can1 04EF001C#6C53F7556E13F571
(1708107882.688225) can1 0CF00400#FF7D7D000000FFFF
(1708107882.693242) can1 0CEF0100#B020000000625400
(1708107882.693848) can1 18FEF600#FFFF3C2AFFFFFFFF
(1708107882.697042) can1 04EF001C#F85557F3FA7555B7
(1708107882.698215) can1 18FEF100#FF2D00F5FF11DFFF
(1708107882.707152) can1 04EF001C#B7587286B5B87002
(1708107882.708229) can1 0CF00400#FF7D7D000000FFFF
(1708107882.713245) can1 0CEF0100#B020000000625400
(1708107882.717259) can1 04EF001C#785BA3FD7A9BA159
(1708107882.718230) can1 0CEF1100#A7D027DA5329E09B
(1708107882.723235) can1 18FFDC00#C014010000507B19
(1708107882.727370) can1 04EF001C#375EC68035FEC444
(1708107882.728214) can1 18FFDC00#C11B000000A4FFA3
(1708107882.728857) can1 0CF00300#CF004FFF00FFFFFF
(1708107882.729361) can1 0CF00400#FF7D7D000000FFFF
(1708107882.733221) can1 18FFDC00#C2FFFF6E921B00FF
(1708107882.733842) can1 09F20000#000000FFFFFFFFFF
(1708107882.734402) can1 0CEF0100#B020000000625400
(1708107882.737510) can1 04EF001C#F840FFE6FB20FCE2
(1708107882.747586) can1 04EF001C#B943A4EDBA23A7E9
(1708107882.748227) can1 0CF00400#FF7D7D000000FFFF
(1708107882.753238) can1 0CEF0100#B020000000625400
(1708107882.754088) can1 18FF1CF3#0000000000000000
(1708107882.757697) can1 04EF001C#78464BE07B2648E4
(1708107882.758297) can1 18FEF200#0000FFFFFFFF37FF
(1708107882.766450) can1 18FF1080#000000FFFFFFFD00
(1708107882.767435) can1 18FF1180#0300FBFDFFFF02FF
(1708107882.767998) can1 04EF001C#37497E9735C97C73
(1708107882.768562) can1 0CEF1100#7ECA475422719557
(1708107882.769109) can1 0CF00400#FF7D7D000000FFFF
(1708107882.769710) can1 18FF1380#000000003FC0C006
(1708107882.773241) can1 18FFDC00#E014010000507B19
(1708107882.773811) can1 0CEF0100#B020000000625400
(1708107882.774391) can1 0CEF0017#812B8813CD0AFFFF
(1708107882.777938) can1 04EF001C#F94BA6E5FBCBA401
(1708107882.778527) can1 0CF00300#CF004FFF00FFFFFF
(1708107882.779084) can1 18FFDC00#E11B000000A4FFA3
(1708107882.783212) can1 18FFDC00#E2FFFF6E921B00FF
(1708107882.783817) can1 18E8FF00#02FFFFFFFF00EF00
(1708107882.788027) can1 04EF001C#B74EC290B5EEC054
(1708107882.788620) can1 0CF00400#FF7D7D000000FFFF
(1708107882.793252) can1 0CEF0100#B020000000625400
(1708107882.794090) can1 18FF1CF3#0000000000000000
(1708107882.798166) can1 04EF001C#085298740A929AD0
(1708107882.798705) can1 18FEF100#FF2D00F5FF11DFFF
(1708107882.804809) can1 18FF1C17#0000000000000000
(1708107882.808226) can1 0CF00400#FF7D7D000000FFFF
(1708107882.808758) can1 04EF001C#C554630AC78461AE
(1708107882.813253) can1 0CEF0100#B020000000625400
(1708107882.818212) can1 0CEF1100#35C4A7CF6FB63DFA
(1708107882.818815) can1 04EF001C#6357D83961A7DABD
(1708107882.823238) can1 18FFDC00#0014010000507B19
(1708107882.828223) can1 18FFDC00#011C000000A4FFA3
(1708107882.828847) can1 04EF001C#465A941C44AA9698
(1708107882.829326) can1 0CF00300#CF004FFF00FFFFFF
(1708107882.829928) can1 0CF00400#FF7D7D000000FFFF
(1708107882.833227) can1 18FFDC00#02FFFF6E921B00FF
(1708107882.833843) can1 09F20000#000000FFFFFFFFFF
(1708107882.834411) can1 0CEF0017#812B8813CD0AFFFF
(1708107882.834996) can1 0CEF0100#B020000000625400
(1708107882.838613) can1 04EF001C#075DEF13056DED57
(1708107882.843240) can1 18E8FF00#02FFFFFFFF00EF00
(1708107882.848234) can1 0CF00400#FF7D7D000000FFFF
(1708107882.848761) can1 04EF001C#A15F5C21A36F5E65
(1708107882.849349) can1 18FECA00#40FF00000000FFFF
(1708107882.853247) can1 0CEF0100#B020000000625400
(1708107882.858243) can1 18FEF200#0000FFFFFFFF37FF
(1708107882.858870) can1 04EF001C#8742930C86D292E8
(1708107882.866453) can1 18FF1080#000000FFFFFFFD00
(1708107882.867433) can1 18FF1180#0300FBFDFFFF02FF
(1708107882.868223) can1 0CF00400#FF7D7D000000FFFF
(1708107882.868846) can1 0CEF1100#D6F87819EB9C5114
(1708107882.869319) can1 04EF001C#B744928AB6F4934E
(1708107882.873246) can1 18FFDC00#2014010000507B19
(1708107882.873823) can1 0CEF0100#B020000000625400
(1708107882.874392) can1 0CEA1C00#00EE000000000000
(1708107882.875086) can1 18EEFF1C#0204450E00000042
(1708107882.878224) can1 18FFDC00#211C000000A4FFA3
(1708107882.878775) can1 0CF00300#CF004FFF00FFFFFF
(1708107882.879358) can1 04EF001C#784743F1797742B5
(1708107882.881139) can1 15FD069B#B8D573FFFFFFFFFF
(1708107882.883201) can1 18FFDC00#22FFFF6E921B00FF
(1708107882.888237) can1 0CF00400#FF7D7D000000FFFF
(1708107882.889166) can1 04EF001C#384A69FC393A68F8
(1708107882.893253) can1 0CEF0100#B020000000625400
(1708107882.894093) can1 18FF1CF3#0000000000000000
(1708107882.898226) can1 18FEF100#FF2E00F5FF11DFFF
(1708107882.899285) can1 04EF001C#F84C9FFAF93C9EFE
(1708107882.908235) can1 0CF00400#FF7D7D000000FFFF
(1708107882.909397) can1 04EF001C#B74FCA81B7DFCA65
(1708107882.913160) can1 18FF2117#06FFFFFF00FFFFFF
(1708107882.913792) can1 0CEF0100#B020000000625400
(1708107882.914301) can1 0CEF0017#812B8813CD0AFFFF
(1708107882.918210) can1 0CEF1100#81EA7F659E633F7F
(1708107882.919505) can1 04EF001C#9D5209CC9DC20928
(1708107882.923228) can1 18FFDC00#4014010000507B19
(1708107882.923826) can1 18E8FF00#02FFFFFFFF00EF00
(1708107882.928212) can1 18FFDC00#411D000000A4FFA3
(1708107882.928848) can1 0CF00300#CF004FFF00FFFFFF
(1708107882.929367) can1 0CF00400#FF7D7D000000FFFF
(1708107882.929899) can1 04EF001C#5E55F4D35E85F477
(1708107882.933213) can1 18FFDC00#42FFFF6E921B00FF
(1708107882.933828) can1 09F20000#000000FFFFFFFFFF
(1708107882.934439) can1 0CEF0100#B020000000625400
(1708107882.939728) can1 04EF001C#F85747E1F80747C5
(1708107882.948231) can1 0CF00400#FF7D7D000000FFFF
(1708107882.949803) can1 04EF001C#145BCC8DEB8C332E
(1708107882.953249) can1 0CEF0100#B020000000625400
(1708107882.958245) can1 18FEF200#0000FFFFFFFF37FF
(1708107882.959913) can1 04EF001C#D65D389B290AC7B8
(1708107882.967458) can1 18FF1080#000000FFFFFFFD00
(1708107882.968281) can1 0CF00400#FF7D7D000000FFFF
(1708107882.968765) can1 0CEF1100#46EE689CD91CF485
(1708107882.969362) can1 18FF1180#0300FBFDFFFF02FF
(1708107882.970086) can1 04EF001C#944090966AF76E55
(1708107882.970681) can1 18FF1380#000000003FC0C006
(1708107882.973242) can1 18FFDC00#6014010000507B19
(1708107882.973818) can1 0CEF0100#B020000000625400
(1708107882.978217) can1 18FFDC00#611D000000A4FFA3
(1708107882.978801) can1 0CF00300#CF004FFF00FFFFFF
(1708107882.980171) can1 04EF001C#55434F8DAB04B1AE
(1708107882.981197) can1 09F8021C#7EFC1E120000FFFF
(1708107882.982218) can1 09F8011C#526E2618FE6B5BC1
(1708107882.983201) can1 18FFDC00#62FFFF6E921B00FF
(1708107882.983749) can1 19FA031C#7ED252009D006500
(1708107882.985225) can1 0DF0101C#7EF0A34D00C2A82B
(1708107882.986239) can1 18FEE81C#4A0D00002064497E
(1708107882.987307) can1 19FA041C#609F7EFF0D017512
(1708107882.988230) can1 0CF00400#FF7D7D000000FFFF
(1708107882.988881) can1 19FA041C#61FAC8CC10FFFFFF
(1708107882.990265) can1 04EF001C#E045CF231DE232E0
(1708107882.991348) can1 19FA041C#62FFFF055528D020
(1708107882.992357) can1 19FA041C#63480DFFFFFFFFFF
(1708107882.993239) can1 0CEF0100#B020000000625400
(1708107882.993817) can1 19FA041C#640CBC020C7B6C07
(1708107882.994352) can1 0CEF0017#812B8813CD0AFFFF
(1708107882.995389) can1 19FA041C#65FFFFFFFFFF0D82
(1708107882.996383) can1 19FA041C#661476480410FFFF
(1708107882.997406) can1 19FA041C#67FFFFFF0FED172C
(1708107882.998221) can1 18FEF100#FF2F00F5FF11DFFF
(1708107882.998778) can1 19FA041C#68653011FFFFFFFF
(1708107882.999497) can1 19FA041C#69FF10AF00F4E200
(1708107883.000390) can1 04EF001C#FC49B3CF01AE4E4C
(1708107883.001474) can1 19FA041C#6A00FFFFFFFFFF12
(1708107883.002486) can1 19FA041C#6B071C3EC6F811FF
(1708107883.003232) can1 18E8FF00#02FFFFFFFF00EF00
(1708107883.003807) can1 19FA041C#6CFFFFFFFF148214
(1708107883.004551) can1 19FA041C#6D2E22540BFFFFFF
(1708107883.005500) can1 19FA041C#6EFFFF194E0C748B
(1708107883.006525) can1 19FA041C#6F480DFFFFFFFFFF
(1708107883.007518) can1 19FA041C#701AFD0C72CE740E
(1708107883.008346) can1 0CF00400#FF7D7D000000FFFF
(1708107883.008903) can1 19FA041C#71FFFFFFFFFF1D28
(1708107883.009672) can1 19FA041C#723CA2ADD80EFFFF
(1708107883.010499) can1 04EF001C#B64CD39A4B4B2EF9
(1708107883.011578) can1 19FA041C#73FFFFFF2CB61CFC
(1708107883.012583) can1 19FA041C#74856810FFFFFFFF
(1708107883.013243) can1 0CEF0100#B020000000625400
(1708107883.013810) can1 19FA041C#75FF30A91A308E04
(1708107883.014374) can1 18FF1CF3#0000000000000000
(1708107883.014948) can1 19FA041C#7610FFFFFFFFFFFF
(1708107883.018208) can1 0CEF1100#7C991FD2643B07F1
(1708107883.020628) can1 04EF001C#9B4EEFF066A91273
(1708107883.023220) can1 18FFDC00#8014010000507B19
(1708107883.028215) can1 18FFDC00#811D000000A4FFA3
(1708107883.028859) can1 0CF00300#CF004FFF00FFFFFF
(1708107883.029347) can1 0CF00400#FF7D7D000000FFFF
(1708107883.030737) can1 04EF001C#DD5153DF20B6AE5C
(1708107883.033225) can1 18FFDC00#82FFFF6E921B00FF
(1708107883.033809) can1 09F20000#000000FFFFFFFFFF
(1708107883.034390) can1 0CEF0100#B020000000625400
(1708107883.040845) can1 04EF001C#0754A70AFAB35A89
(1708107883.048234) can1 0CF00400#FF7D7D000000FFFF
(1708107883.050927) can1 04EF001C#A35616285EB1EBAB
(1708107883.053253) can1 0CEF0100#B020000000625400
(1708107883.058246) can1 18FEF200#0000FFFFFFFF37FF
(1708107883.061071) can1 04EF001C#6259A92F9FFE54EC
(1708107883.067461) can1 18FF1080#000000FFFFFFFD00
(1708107883.068225) can1 0CF00400#FF7D7D000000FFFF
(1708107883.068860) can1 0CEF1100#BE9C41432A540D03
(1708107883.069363) can1 18FF1180#0300FBFDFFFF02FF
(1708107883.071147) can1 04EF001C#EE5B314D103CCF4E
(1708107883.073241) can1 18FFDC00#A014010000507B19
(1708107883.073824) can1 0CEF0100#B020000000625400
(1708107883.074390) can1 0CEF0017#812B8813CD0AFFFF
(1708107883.078217) can1 18FFDC00#A11D000000A4FFA3
(1708107883.078815) can1 0CF00300#CF004FFF00FFFFFF
(1708107883.081268) can1 04EF001C#AE5E5B485079A50B
(1708107883.083207) can1 18FFDC00#A2FFFF6E921B00FF
(1708107883.083776) can1 18E8FF00#02FFFFFFFF00EF00
(1708107883.088237) can1 0CF00400#FF7D7D000000FFFF
(1708107883.091372) can1 04EF001C#394130EFC7A6CE6C
(1708107883.093249) can1 0CEF0100#B020000000625400
(1708107883.094106) can1 18FF1CF3#0000000000000000
(1708107883.098223) can1 18FEF100#FF2F00F5FF11DFFF
(1708107883.101506) can1 04EF001C#F943E6ED07C4180E
(1708107883.108233) can1 0CF00400#FF7D7D000000FFFF
(1708107883.111594) can1 04EF001C#B746829848617DDB
(1708107883.113249) can1 0CEF0100#B020000000625400
(1708107883.113830) can1 18FF1C17#0000000000000000
(1708107883.118206) can1 0CEF1100#D18E49FF51D59D1B
(1708107883.121709) can1 04EF001C#794932E786AECD64
(1708107883.123226) can1 18FFDC00#C014010000507B19
(1708107883.128218) can1 18FFDC00#C11D000000A4FFA3
(1708107883.128770) can1 0CF00300#CF004FFF00FFFFFF
(1708107883.129353) can1 0CF00400#FF7D7D000000FFFF
(1708107883.131827) can1 04EF001C#6C4C0F4A93EBF089
(1708107883.133215) can1 18FFDC00#C2FFFF6E921B00FF
(1708107883.133823) can1 09F20000#000000FFFFFFFFFF
(1708107883.134402) can1 0CEF0100#B020000000625400
(1708107883.138245) can1 09F20100#A016000100FFFFC6
(1708107883.141949) can1 04EF001C#F84E8FE8F82E8FEC
(1708107883.143195) can1 09F20100#A172C90400006E92
(1708107883.148232) can1 0CF00400#FF7D7D000000FFFF
(1708107883.148869) can1 09F20100#A21B00FFFFFFFF00
(1708107883.149389) can1 18FEEE00#3CFFFFFFFFFF42FF
(1708107883.152050) can1 04EF001C#B85135F7B81135D3
(1708107883.153235) can1 09F20100#A30100FFFFFFFFFF
(1708107883.153835) can1 0CEF0100#B020000000625400
(1708107883.154374) can1 0CEF0017#812B8813CD0AFFFF
(1708107883.154955) can1 18FEEF00#FFFFFF00FFFFFFFF
(1708107883.158241) can1 18FEF200#0000FFFFFFFF37FF
(1708107883.162167) can1 04EF001C#7954DAFA7974DABE
(1708107883.163214) can1 18FEF700#FFFF1A01F500F600
(1708107883.163849) can1 18E8FF00#02FFFFFFFF00EF00
(1708107883.168231) can1 0CF00400#FF7D7D000000FFFF
(1708107883.168769) can1 0CEF1100#1884ADF5BEACE022
(1708107883.169355) can1 18FF1080#000000FFFFFFFD00
(1708107883.170439) can1 18FF1180#0300FBFDFFFF02FF
(1708107883.171437) can1 18FF1380#000000003FC0C006
(1708107883.172262) can1 04EF001C#37578E8937B78E0D
(1708107883.173230) can1 18FFDC00#E014010000507B19
(1708107883.173838) can1 0CEF0100#B020000000625400
(1708107883.178215) can1 18FFDC00#E11D000000A4FFA3
