(1708107631.546133) can1 04EF001C#7845538378A55367
(1708107631.548322) can1 0CF00400#FF7D7D000000FFFF
(1708107631.553339) can1 0CEF0100#B020000000625400
(1708107631.556229) can1 04EF001C#374876F637887632
(1708107631.558323) can1 18FEF200#0000FFFFFFFF37FF
(1708107631.564500) can1 18FF1080#000000FFFFFFFD00
(1708107631.565540) can1 18FF1180#0400FCFDFFFF02FF
(1708107631.566359) can1 04EF001C#F74AA0F4F78AA030
(1708107631.566974) can1 18FF1380#000000003FC0C006
(1708107631.568312) can1 0CF00400#FF7D7D000000FFFF
(1708107631.568925) can1 0CEF1100#57B43C40BFECF3E4
(1708107631.573316) can1 18FFDC00#E014010000507B19
(1708107631.573951) can1 0CEF0100#B020000000625400
(1708107631.576456) can1 04EF001C#E94D8603E9ED86A7
(1708107631.577626) can1 18FF1CF3#0000000000000000
(1708107631.578313) can1 18FFDC00#E100000000A4FFA3
(1708107631.578874) can1 0CF00300#CF004FFF00FFFFFF
(1708107631.583307) can1 18FFDC00#E2FFFF6E921B00FF
(1708107631.586596) can1 04EF001C#05518D7F05F18DDB
(1708107631.588314) can1 0CF00400#FF7D7D000000FFFF
(1708107631.593332) can1 0CEF0100#B020000000625400
(1708107631.596690) can1 04EF001C#C4535A75C4D35AF1
(1708107631.597642) can1 0CEF0017#812B8813CD0AFFFF
(1708107631.598315) can1 18FEF100#FF0000F5FF11DFFF
(1708107631.603324) can1 18E8FF00#02FFFFFFFF00EF00
(1708107631.606820) can1 04EF001C#5F56EDA85F36EDCC
(1708107631.608308) can1 0CF00400#FF7D7D000000FFFF
(1708107631.613333) can1 0CEF0100#B020000000625400
(1708107631.616922) can1 04EF001C#4259884F4239882B
(1708107631.618283) can1 0CEF1100#86A61E8C6ABED10A
(1708107631.623324) can1 18FFDC00#0014010000507B19
(1708107631.627036) can1 04EF001C#035CE342033CE326
(1708107631.628301) can1 18FFDC00#0100000000A4FFA3
(1708107631.628871) can1 0CF00300#CF004FFF00FFFFFF
(1708107631.629455) can1 0CF00400#FF7D7D000000FFFF
(1708107631.633311) can1 18FFDC00#02FFFF6E921B00FF
(1708107631.633905) can1 09F20000#000000FFFFFFFFFF
(1708107631.634472) can1 0CEF0100#B020000000625400
(1708107631.637156) can1 04EF001C#A05E5558A07E557C
(1708107631.647252) can1 04EF001C#F540F2EEF540F2EA
(1708107631.648315) can1 0CF00400#FF7D7D000000FFFF
(1708107631.653327) can1 18FEEF00#FFFFFF00FFFFFFFF
(1708107631.653919) can1 0CEF0100#B020000000625400
(1708107631.657354) can1 04EF001C#B443A9E5B443A9E1
(1708107631.657955) can1 18FF1CF3#0000000000000000
(1708107631.658525) can1 18FEF200#0000FFFFFFFF37FF
(1708107631.664517) can1 18FF1080#000000FFFFFFFD00
(1708107631.665492) can1 18FF1180#0400FCFDFFFF02FF
(1708107631.667450) can1 04EF001C#754646E88AA1B90B
(1708107631.668318) can1 0CF00400#FF7D7D000000FFFF
(1708107631.668873) can1 0CEF1100#F8A5DAFC8707C1E7
(1708107631.673337) can1 18FFDC00#2014010000507B19
(1708107631.673925) can1 0CEF0100#B020000000625400
(1708107631.677601) can1 04EF001C#36497FFF36697FDB
(1708107631.678177) can1 0CEF0017#812B8813CD0AFFFF
(1708107631.678741) can1 0CF00300#CF004FFF00FFFFFF
(1708107631.679319) can1 18FFDC00#2100000000A4FFA3
(1708107631.683304) can1 18FFDC00#22FFFF6E921B00FF
(1708107631.683888) can1 0CEF1700#01AB8813CD0AFFFF
(1708107631.687701) can1 04EF001C#F74BA8F5F76BA8D1
(1708107631.688324) can1 0CF00400#FF7D7D000000FFFF
(1708107631.688884) can1 18E8FF00#02FFFFFFFF00EF00
(1708107631.693336) can1 0CEF0100#B020000000625400
(1708107631.693930) can1 18FEF600#FFFF3C2AFFFFFFFF
(1708107631.697807) can1 04EF001C#B44EC1E8B46EC1CC
(1708107631.698398) can1 18FEF100#FF0000F5FF11DFFF
(1708107631.707921) can1 04EF001C#7551FEFF7511FEBB
(1708107631.708490) can1 0CF00400#FF7D7D000000FFFF
(1708107631.713335) can1 0CEF0100#B020000000625400
(1708107631.718022) can1 04EF001C#3854999238D49916
(1708107631.718599) can1 0CEF1100#D0CA69A488860380
(1708107631.723308) can1 18FFDC00#4014010000507B19
(1708107631.728141) can1 04EF001C#F75640E8F796402C
(1708107631.728698) can1 0CF00300#CF004FFF00FFFFFF
(1708107631.729327) can1 0CF00400#FF7D7D000000FFFF
(1708107631.729882) can1 18FFDC00#4100000000A4FFA3
(1708107631.733302) can1 18FFDC00#42FFFF6E921B00FF
(1708107631.733911) can1 09F20000#000000FFFFFFFFFF
(1708107631.734495) can1 0CEF0100#B020000000625400
(1708107631.738257) can1 04EF001C#B6597BEFB7797ACB
(1708107631.743501) can1 18FF1C17#0001500000000000
(1708107631.748332) can1 0CF00400#FF7D7D000000FFFF
(1708107631.748883) can1 04EF001C#795C9A92781C9BD6
(1708107631.753347) can1 0CEF0100#B020000000625400
(1708107631.758331) can1 18FEF200#0000FFFFFFFF37FF
(1708107631.758927) can1 04EF001C#375FCEE1361FCFA5
(1708107631.765505) can1 18FF1080#000000FFFFFFFD00
(1708107631.766500) can1 18FF1180#0400FCFDFFFF02FF
(1708107631.767500) can1 18FF1380#000000003FC0C006
(1708107631.768320) can1 0CF00400#FF7D7D000000FFFF
(1708107631.768881) can1 04EF001C#F841F787F901F6C3
(1708107631.769424) can1 0CEF1100#99CE59ADD95CC34F
(1708107631.773324) can1 18FFDC00#6014010000507B19
(1708107631.773928) can1 0CEF0100#B020000000625400
(1708107631.778315) can1 18FFDC00#6100000000A4FFA3
(1708107631.778899) can1 04EF001C#B64493F2B7249296
(1708107631.779424) can1 0CF00300#CF004FFF00FFFFFF
(1708107631.783301) can1 18FFDC00#62FFFF6E921B00FF
(1708107631.788317) can1 0CF00400#FF7D7D000000FFFF
(1708107631.788956) can1 04EF001C#0548456604284402
(1708107631.793342) can1 0CEF0100#B020000000625400
(1708107631.793944) can1 09F8021C#83FC45EB0000FFFF
(1708107631.794905) can1 09F8011C#AE6E26180C6B5BC1
(1708107631.795916) can1 19FA031C#83D25F00A5006700
(1708107631.796918) can1 0DF0101C#83F0A34D80EA822B
(1708107631.797638) can1 0CEF0017#812B8813CD0AFFFF
(1708107631.798205) can1 18FEE81C#8FAC000021647E7E
(1708107631.798814) can1 18FEF100#FF0000F5FF11DFFF
(1708107631.799314) can1 04EF001C#FD4AAAA4FC2AABC0
(1708107631.803339) can1 18E8FF00#02FFFFFFFF00EF00
(1708107631.808316) can1 0CF00400#FF7D7D000000FFFF
(1708107631.809078) can1 04EF001C#694D0203686D0327
(1708107631.813337) can1 0CEF0100#B020000000625400
(1708107631.815181) can1 19FA041C#E09383FF0C01C611
(1708107631.816189) can1 19FA041C#E158CA3011FFFFFF
(1708107631.817216) can1 19FA041C#E2FFFF05B329D020
(1708107631.817819) can1 18FF1CF3#0000000000000000
(1708107631.818392) can1 0CEF1100#6CF853494446AAEA
(1708107631.818962) can1 19FA041C#E36810FFFFFFFFFF
(1708107631.820173) can1 04EF001C#EC506B36ED506A32
(1708107631.821269) can1 19FA041C#E36810FFFFFFFFFF
(1708107631.822275) can1 19FA041C#E40B000000000000
(1708107631.823274) can1 19FA041C#E5FFFFFFFFFF0C6B
(1708107631.823872) can1 18FFDC00#8014010000507B19
(1708107631.824420) can1 19FA041C#E6030C7B0000FFFF
(1708107631.825310) can1 19FA041C#E7FFFFFF0DD313D4
(1708107631.826297) can1 19FA041C#E849540BFFFFFFFF
(1708107631.827299) can1 19FA041C#E9FF0F8F168A6694
(1708107631.828303) can1 18FFDC00#8100000000A4FFA3
(1708107631.828866) can1 0CF00300#CF004FFF00FFFFFF
(1708107631.829448) can1 0CF00400#FF7D7D000000FFFF
(1708107631.830336) can1 04EF001C#8F53132D8F9313E9
(1708107631.831357) can1 19FA041C#EA11FFFFFFFFFF12
(1708107631.832361) can1 19FA041C#EB581BE0C49411FF
(1708107631.833301) can1 18FFDC00#82FFFF6E921B00FF
(1708107631.833900) can1 09F20000#000000FFFFFFFFFF
(1708107631.834519) can1 0CEF0100#B020000000625400
(1708107631.835061) can1 19FA041C#ECFFFFFFFF143115
(1708107631.836417) can1 19FA041C#ED2E22F00AFFFFFF
(1708107631.837415) can1 19FA041C#EEFFFF19AC0D748B
(1708107631.837980) can1 0CEF0017#812B8813CD0AFFFF
(1708107631.838559) can1 19FA041C#EF480DFFFFFFFFFF
(1708107631.839381) can1 04EF001C#6C56DF306CF6DF94
(1708107631.840440) can1 19FA041C#F01AFD0C72CE3C0F
(1708107631.841451) can1 19FA041C#F1FFFFFFFFFF1D79
(1708107631.842455) can1 19FA041C#F23B9CC70410FFFF
(1708107631.843499) can1 19FA041C#F3FFFFFF30A91A30
(1708107631.844487) can1 19FA041C#F48E0410FFFFFFFF
(1708107631.845484) can1 19FA041C#F5FFFFFFFFFFFFFF
(1708107631.848313) can1 0CF00400#FF7D7D000000FFFF
(1708107631.849003) can1 18E8FF00#02FFFFFFFF00EF00
(1708107631.849470) can1 18FECA00#40FF00000000FFFF
(1708107631.850008) can1 04EF001C#5E589CAE5E389CCA
(1708107631.853348) can1 0CEF0100#B020000000625400
(1708107631.857636) can1 0CEA1C00#00EE000000000000
(1708107631.858329) can1 18FEF200#0000FFFFFFFF37FF
(1708107631.858899) can1 18EEFF1C#0204450E00000042
(1708107631.859625) can1 04EF001C#635BB845637BB861
(1708107631.865506) can1 18FF1080#000000FFFFFFFD00
(1708107631.866497) can1 18FF1180#0400FCFDFFFF02FF
(1708107631.868310) can1 0CF00400#FF7D7D000000FFFF
(1708107631.868915) can1 0CEF1100#2DFC6100A3942D95
(1708107631.869738) can1 04EF001C#9A5D768B65BA8968
(1708107631.873331) can1 18FFDC00#A014010000507B19
(1708107631.873900) can1 0CEF0100#B020000000625400
(1708107631.877657) can1 18FF1CF3#0000000000000000
(1708107631.878317) can1 18FFDC00#A100000000A4FFA3
(1708107631.878893) can1 0CF00300#CF004FFF00FFFFFF
(1708107631.879471) can1 15FD069B#B88573FFFFFFFFFF
(1708107631.880067) can1 04EF001C#5A405896A5E7A735
(1708107631.883311) can1 18FFDC00#A2FFFF6E921B00FF
(1708107631.888322) can1 0CF00400#FF7D7D000000FFFF
(1708107631.889912) can1 04EF001C#524348D5AD24B7B6
(1708107631.893325) can1 0CEF0100#B020000000625400
(1708107631.898324) can1 18FEF100#FF0000F5FF11DFFF
(1708107631.900027) can1 04EF001C#FC45D3A303622C80
(1708107631.908326) can1 0CF00400#FF7D7D000000FFFF
(1708107631.910138) can1 04EF001C#A948EC0657AF12E5
(1708107631.913343) can1 0CEF0100#B020000000625400
(1708107631.917637) can1 0CEF0017#812B8813CD0AFFFF
(1708107631.918306) can1 0CEF1100#E0EE442C71F9F042
(1708107631.920251) can1 04EF001C#694B320597ECCCA6
(1708107631.923315) can1 18FFDC00#C014010000507B19
(1708107631.923912) can1 18E8FF00#02FFFFFFFF00EF00
(1708107631.928318) can1 18FFDC00#C100000000A4FFA3
(1708107631.929022) can1 0CF00300#CF004FFF00FFFFFF
(1708107631.929448) can1 0CF00400#FF7D7D000000FFFF
(1708107631.930406) can1 04EF001C#524E20D8ACC9DE5B
(1708107631.933309) can1 18FFDC00#C2FFFF6E921B00FF
(1708107631.933987) can1 09F20000#000000FFFFFFFFFF
(1708107631.934469) can1 0CEF0100#B020000000625400
(1708107631.935141) can1 18FF1C17#0001500000000000
(1708107631.940492) can1 04EF001C#B45031F64A17CFB5
(1708107631.948317) can1 0CF00400#FF7D7D000000FFFF
(1708107631.950588) can1 04EF001C#A953341D5774CA3E
(1708107631.953336) can1 0CEF0100#B020000000625400
(1708107631.957667) can1 18FF1CF3#0000000000000000
(1708107631.958393) can1 18FEF200#0000FFFFFFFF37FF
(1708107631.960689) can1 04EF001C#6856DB1096112553
(1708107631.966511) can1 18FF1080#000000FFFFFFFD00
(1708107631.967503) can1 18FF1180#0400FCFDFFFF02FF
(1708107631.968314) can1 0CF00400#FF7D7D000000FFFF
(1708107631.968868) can1 0CEF1100#A9E234278C202DEF
(1708107631.969496) can1 18FF1380#000000003FC0C006
(1708107631.970806) can1 04EF001C#6459AF7F9A1E513C
(1708107631.973328) can1 18FFDC00#E014010000507B19
(1708107631.973923) can1 0CEF0100#B020000000625400
(1708107631.978314) can1 18FFDC00#E100000000A4FFA3
(1708107631.978898) can1 0CF00300#CF004FFF00FFFFFF
(1708107631.980937) can1 04EF001C#575CB5E2A91B4BA1
(1708107631.983293) can1 18FFDC00#E2FFFF6E921B00FF
(1708107631.988319) can1 0CF00400#FF7D7D000000FFFF
(1708107631.991061) can1 04EF001C#055FFD71FB380312
(1708107631.993337) can1 0CEF0100#B020000000625400
(1708107631.998324) can1 18FEF100#FF0000F5FF11DFFF
(1708107632.001164) can1 04EF001C#B541B8EF4BC6466C
(1708107632.008319) can1 0CF00400#FF7D7D000000FFFF
(1708107632.011272) can1 04EF001C#6344405A9D83BE99
(1708107632.013342) can1 0CEF0100#B020000000625400
(1708107632.018296) can1 0CEF1100#149C6E9381AAD2DC
(1708107632.021394) can1 04EF001C#45477F69BA60804A
(1708107632.023313) can1 18FFDC00#0014010000507B19
(1708107632.028312) can1 18FFDC00#0100000000A4FFA3
(1708107632.028868) can1 0CF00300#CF004FFF00FFFFFF
(1708107632.029467) can1 0CF00400#FF7D7D000000FFFF
(1708107632.031497) can1 04EF001C#2D4A7C24D22D8347
(1708107632.033316) can1 18FFDC00#02FFFF6E921B00FF
(1708107632.033895) can1 09F20000#000000FFFFFFFFFF
(1708107632.034487) can1 0CEF0100#B020000000625400
(1708107632.037640) can1 0CEF0017#812B8813CD0AFFFF
(1708107632.041594) can1 04EF001C#374C56F2C8EBA951
(1708107632.043321) can1 18E8FF00#02FFFFFFFF00EF00
(1708107632.048325) can1 0CF00400#FF7D7D000000FFFF
(1708107632.051718) can1 04EF001C#F54E82E00AA97D03
(1708107632.053341) can1 0CEF0100#B020000000625400
(1708107632.057666) can1 18FF1CF3#0000000000000000
(1708107632.058325) can1 18FEF200#0000FFFFFFFF37FF
(1708107632.061824) can1 04EF001C#B55138FFB55138FB
(1708107632.066519) can1 18FF1080#000000FFFFFFFD00
(1708107632.067490) can1 18FF1180#0400FCFDFFFF02FF
(1708107632.068313) can1 0CF00400#FF7D7D000000FFFF
(1708107632.068890) can1 0CEF1100#55901CD8C0609091
(1708107632.071922) can1 04EF001C#7554D6FA7554D6FE
(1708107632.073337) can1 18FFDC00#2014010000507B19
(1708107632.073946) can1 0CEF0100#B020000000625400
(1708107632.077648) can1 0CEF0017#812B8813CD0AFFFF
(1708107632.078310) can1 18FFDC00#2100000000A4FFA3
(1708107632.078914) can1 0CF00300#CF004FFF00FFFFFF
(1708107632.082049) can1 04EF001C#3857819138578195
(1708107632.083293) can1 18FFDC00#22FFFF6E921B00FF
(1708107632.083890) can1 18E8FF00#02FFFFFFFF00EF00
(1708107632.088324) can1 0CF00400#FF7D7D000000FFFF
(1708107632.092141) can1 04EF001C#F75938E7F77938C3
(1708107632.093339) can1 0CEF0100#B020000000625400
(1708107632.098316) can1 18FEF100#FF0000F5FF11DFFF
(1708107632.102266) can1 04EF001C#B85C5D9AB81C5DDE
(1708107632.108315) can1 0CF00400#FF7D7D000000FFFF
(1708107632.112372) can1 04EF001C#775F8CE1773F8C85
(1708107632.113334) can1 0CEF0100#B020000000625400
(1708107632.118316) can1 0CEF1100#8280AFA4103F5BD7
(1708107632.122489) can1 04EF001C#364227F436C22770
(1708107632.123315) can1 18FFDC00#4014010000507B19
(1708107632.128304) can1 18FFDC00#4100000000A4FFA3
(1708107632.128865) can1 0CF00300#CF004FFF00FFFFFF
(1708107632.129500) can1 0CF00400#FF7D7D000000FFFF
(1708107632.132617) can1 04EF001C#F844DF82F824DFE6
(1708107632.133395) can1 18FFDC00#42FFFF6E921B00FF
(1708107632.133910) can1 09F20000#000000FFFFFFFFFF
(1708107632.134547) can1 0CEF0100#B020000000625400
(1708107632.135102) can1 18FF1C17#0001500000000000
(1708107632.138330) can1 09F20100#4016000200FFFFBB
(1708107632.142713) can1 04EF001C#B44789E1B40789A5
(1708107632.143318) can1 09F20100#4172C90400006E92
(1708107632.143903) can1 18FEE500#36270000FFFFFFFF
(1708107632.148319) can1 0CF00400#FF7D7D000000FFFF
(1708107632.148920) can1 09F20100#421B00FFFFFFFF00
(1708107632.149479) can1 18FEEE00#3CFFFFFFFFFF42FF
(1708107632.152809) can1 04EF001C#774A24F4776A24D0
(1708107632.153404) can1 09F20100#430100FFFFFFFFFF
(1708107632.153988) can1 0CEF0100#B020000000625400
(1708107632.154557) can1 18FEEF00#FFFFFF00FFFFFFFF
(1708107632.157650) can1 0CEF0017#812B8813CD0AFFFF
(1708107632.158338) can1 18FEF200#0000FFFFFFFF37FF
(1708107632.162936) can1 04EF001C#354D5CE3354D5CE7
(1708107632.163529) can1 18E8FF00#02FFFFFFFF00EF00
(1708107632.164086) can1 18FEF700#FFFF1A01F500F600
(1708107632.167508) can1 18FF1080#000000FFFFFFFD00
(1708107632.168314) can1 0CF00400#FF7D7D000000FFFF
(1708107632.168871) can1 0CEF1100#BB84802DE903B25F
(1708107632.169472) can1 18FF1180#0400FCFDFFFF02FF
(1708107632.170490) can1 18FF1380#000000003FC0C006
(1708107632.173055) can1 04EF001C#F54F8AE10AA87502
(1708107632.173633) can1 0CEF0100#B020000000625400
(1708107632.174203) can1 18FFDC00#6014010000507B19
(1708107632.177679) can1 18FF1CF3#0000000000000000
(1708107632.178309) can1 18FFDC00#6100000000A4FFA3
(1708107632.178931) can1 0CF00300#CF004FFF00FFFFFF
(1708107632.183180) can1 04EF001C#4553DF7DBAB4209E
(1708107632.183759) can1 0CEF1700#01AB8813CD0AFFFF
(1708107632.184392) can1 18FFDC00#62FFFF6E921B00FF
(1708107632.188308) can1 0CF00400#FF7D7D000000FFFF
(1708107632.188924) can1 18FEFC00#FFA3FFFFFFFFFFFF
(1708107632.193270) can1 04EF001C#E3554C4BE3754C6F
(1708107632.193881) can1 0CEF0100#B020000000625400
(1708107632.194443) can1 18FEF600#FFFF3C2AFFFFFFFF
(1708107632.198324) can1 18FEF100#FF0000F5FF11DFFF
(1708107632.203398) can1 04EF001C#C3580546C3380522
(1708107632.208322) can1 0CF00400#FF7D7D000000FFFF
(1708107632.213335) can1 0CEF0100#B020000000625400
(1708107632.213866) can1 04EF001C#865B5A6D863B5A09
(1708107632.218291) can1 0CEF1100#CEB2AEC95539FAF3
(1708107632.223324) can1 18FFDC00#8014010000507B19
(1708107632.223902) can1 04EF001C#215ED050213ED034
(1708107632.228302) can1 18FFDC00#8100000000A4FFA3
(1708107632.228897) can1 0CF00300#CF004FFF00FFFFFF
(1708107632.229491) can1 0CF00400#FF7D7D000000FFFF
(1708107632.233310) can1 18FFDC00#82FFFF6E921B00FF
(1708107632.233851) can1 04EF001C#03410B5F03210B3B
(1708107632.234454) can1 09F20000#000000FFFFFFFFFF
(1708107632.235060) can1 0CEF0100#B020000000625400
(1708107632.243836) can1 04EF001C#34432DE534232D81
(1708107632.248320) can1 0CF00400#FF7D7D000000FFFF
(1708107632.253351) can1 0CEF0100#B020000000625400
(1708107632.254020) can1 04EF001C#F945D68BF905D6CF
(1708107632.258330) can1 18FEF200#0000FFFFFFFF37FF
(1708107632.264045) can1 04EF001C#B548F0E6B508F0A2
(1708107632.267501) can1 18FF1080#000000FFFFFFFD00
(1708107632.268314) can1 0CF00400#FF7D7D000000FFFF
(1708107632.268879) can1 0CEF1100#08B1417997DE3564
(1708107632.269505) can1 18FF1180#0400FCFDFFFF02FF
(1708107632.273328) can1 18FFDC00#A014010000507B19
(1708107632.273933) can1 0CEF0100#B020000000625400
(1708107632.274464) can1 04EF001C#774B2CF5772B2C91
(1708107632.277642) can1 0CEF0017#812B8813CD0AFFFF
(1708107632.278316) can1 18FFDC00#A100000000A4FFA3
(1708107632.278903) can1 0CF00300#CF004FFF00FFFFFF
(1708107632.279474) can1 0DF50B9B#5DFFFFFFFF0000FF
(1708107632.283303) can1 18FFDC00#A2FFFF6E921B00FF
(1708107632.283904) can1 18E8FF00#02FFFFFFFF00EF00
(1708107632.284429) can1 04EF001C#374E46F037EE4654
(1708107632.288313) can1 0CF00400#FF7D7D000000FFFF
(1708107632.293335) can1 0CEF0100#B020000000625400
(1708107632.294422) can1 04EF001C#F8507F96F8B07F72
(1708107632.298282) can1 18FF1CF3#0000000000000000
(1708107632.298872) can1 18FEF100#FF0000F5FF11DFFF
(1708107632.302500) can1 09F8021C#84FC45EB0200FFFF
(1708107632.303482) can1 09F8011C#AE6E2618106B5BC1
(1708107632.304488) can1 04EF001C#F3536CCDF3B36C29
(1708107632.305529) can1 19FA031C#84D25F00A5006700
(1708107632.306518) can1 0DF0101C#84F0A34D9011832B
(1708107632.307550) can1 18FEE81C#8FAC000021647E7E
(1708107632.308317) can1 0CF00400#FF7D7D000000FFFF
(1708107632.308876) can1 19FA041C#009384FF0C01C611
(1708107632.309651) can1 19FA041C#0158CA3011FFFFFF
(1708107632.310634) can1 19FA041C#02FFFF05B329D020
(1708107632.311645) can1 19FA041C#036810FFFFFFFFFF
(1708107632.312672) can1 19FA041C#040B000000000000
(1708107632.313376) can1 0CEF0100#B020000000625400
(1708107632.313953) can1 19FA041C#05FFFFFFFFFF0C6B
(1708107632.314639) can1 04EF001C#4557FF7945B7FF9D
(1708107632.315699) can1 19FA041C#06030C7B0000FFFF
(1708107632.316694) can1 19FA041C#07FFFFFF0DD313D4
(1708107632.317649) can1 0CEF0017#812B8813CD0AFFFF
(1708107632.318226) can1 19FA041C#0849540BFFFFFFFF
(1708107632.318765) can1 0CEF1100#57A1D44564B34D3B
(1708107632.319745) can1 19FA041C#09FF0F8F168A66F8
(1708107632.320743) can1 19FA041C#0A11FFFFFFFFFF12
(1708107632.321747) can1 19FA041C#0B581BE0C49411FF
(1708107632.322764) can1 19FA041C#0CFFFFFFFF143115
(1708107632.323345) can1 18E8FF00#02FFFFFFFF00EF00
(1708107632.323913) can1 18FFDC00#C014010000507B19
(1708107632.324483) can1 19FA041C#0D2E22F00AFFFFFF
(1708107632.325738) can1 04EF001C#0F5ADF240E5ADE20
(1708107632.326814) can1 19FA041C#0D2E22F00AFFFFFF
(1708107632.327809) can1 19FA041C#0EFFFF19AC0D748B
(1708107632.328399) can1 0CF00300#CF004FFF00FFFFFF
(1708107632.328954) can1 0CF00400#FF7D7D000000FFFF
(1708107632.329522) can1 18FFDC00#C100000000A4FFA3
(1708107632.330130) can1 19FA041C#0F480DFFFFFFFFFF
(1708107632.330883) can1 19FA041C#101AFD0C72CE3C0F
(1708107632.331864) can1 19FA041C#11FFFFFFFFFF1D79
(1708107632.332957) can1 19FA041C#123B9CC7CC10FFFF
(1708107632.333462) can1 09F20000#000000FFFFFFFFFF
(1708107632.334051) can1 0CEF0100#B020000000625400
(1708107632.334623) can1 18FFDC00#C2FFFF6E921B00FF
(1708107632.335859) can1 04EF001C#A55C4072A45C4176
(1708107632.336935) can1 19FA041C#13FFFFFF30A91A30
(1708107632.337931) can1 19FA041C#148EA00FFFFFFFFF
(1708107632.338932) can1 19FA041C#15FFFFFFFFFFFFFF
(1708107632.344958) can1 04EF001C#B75E42E0B63E4384
(1708107632.348316) can1 0CF00400#FF7D7D000000FFFF
(1708107632.353336) can1 0CEF0100#B020000000625400
(1708107632.355048) can1 04EF001C#B441B9E7B5C1B863
(1708107632.357689) can1 18FF1CF3#0000000000000000
(1708107632.358329) can1 18FEF200#0000FFFFFFFF37FF
(1708107632.365180) can1 04EF001C#374416FA3684173E
(1708107632.368313) can1 0CF00400#FF7D7D000000FFFF
(1708107632.368913) can1 0CEF1100#94A7529C125F9E4D
(1708107632.369493) can1 18FF1080#000000FFFFFFFD00
(1708107632.370496) can1 18FF1180#0400FCFDFFFF02FF
(1708107632.371503) can1 18FF1380#000000003FC0C006
(1708107632.373329) can1 18FFDC00#E014010000507B19
(1708107632.373914) can1 0CEF0100#B020000000625400
(1708107632.375287) can1 04EF001C#54476EE155876F25
(1708107632.378316) can1 18FFDC00#E100000000A4FFA3
(1708107632.378870) can1 0CF00300#CF004FFF00FFFFFF
(1708107632.383299) can1 18FFDC00#E2FFFF6E921B00FF
(1708107632.383896) can1 15FD069B#B98573FFFFFFFFFF
(1708107632.385397) can1 04EF001C#794A2A8478AA2B60
(1708107632.388310) can1 0CF00400#FF7D7D000000FFFF
(1708107632.393331) can1 0CEF0100#B020000000625400
(1708107632.395012) can1 18FF1C17#0001500000000000
(1708107632.395585) can1 04EF001C#184D708B1A4D728F
(1708107632.397654) can1 0CEF0017#812B8813CD0AFFFF
(1708107632.398316) can1 18FEF100#FF0000F5FF11DFFF
(1708107632.403327) can1 18E8FF00#02FFFFFFFF00EF00
(1708107632.405645) can1 04EF001C#FD4F82A1FCAF8345
(1708107632.408314) can1 0CF00400#FF7D7D000000FFFF
(1708107632.413331) can1 0CEF0100#B020000000625400
(1708107632.415738) can1 04EF001C#BA522F84B8522D80
(1708107632.418312) can1 0CEF1100#27D6B3DB4189400F
(1708107632.423328) can1 18FFDC00#0014010000507B19
(1708107632.425854) can1 04EF001C#5855F2935995F357
(1708107632.428305) can1 18FFDC00#0100000000A4FFA3
(1708107632.428966) can1 0CF00300#CF004FFF00FFFFFF
(1708107632.429453) can1 0CF00400#FF7D7D000000FFFF
(1708107632.433311) can1 18FFDC00#02FFFF6E921B00FF
(1708107632.433922) can1 09F20000#000000FFFFFFFFFF
(1708107632.434489) can1 0CEF0100#B020000000625400
(1708107632.435977) can1 04EF001C#2E58EF2E2F98EEEA
(1708107632.446055) can1 04EF001C#345AE5FC35DAE478
(1708107632.448317) can1 0CF00400#FF7D7D000000FFFF
(1708107632.453335) can1 0CEF0100#B020000000625400
(1708107632.456163) can1 04EF001C#F55C12F2F43C1396
(1708107632.458319) can1 18FEF200#0000FFFFFFFF37FF
(1708107632.466292) can1 04EF001C#B45F49F9B5DF487D
(1708107632.468306) can1 0CF00400#FF7D7D000000FFFF
(1708107632.468870) can1 0CEF1100#FBD55A3B0FC7C57D
(1708107632.469532) can1 18FF1080#000000FFFFFFFD00
(1708107632.470510) can1 18FF1180#0400FCFDFFFF02FF
(1708107632.473332) can1 18FFDC00#2014010000507B19
(1708107632.473916) can1 0CEF0100#B020000000625400
(1708107632.476384) can1 04EF001C#A942BC0CA8C2BD88
(1708107632.478309) can1 18FFDC00#2100000000A4FFA3
(1708107632.478890) can1 0CF00300#CF004FFF00FFFFFF
(1708107632.483291) can1 18FFDC00#22FFFF6E921B00FF
(1708107632.486509) can1 04EF001C#34451DE335051CA7
(1708107632.488313) can1 0CF00400#FF7D7D000000FFFF
(1708107632.493332) can1 0CEF0100#B020000000625400
(1708107632.496619) can1 04EF001C#F547CAE9F447CBED
(1708107632.497693) can1 18FF1CF3#0000000000000000
(1708107632.498310) can1 18FEF100#FF0000F5FF11DFFF
(1708107632.506737) can1 04EF001C#B54AE0E4B44AE1E0
(1708107632.508316) can1 0CF00400#FF7D7D000000FFFF
(1708107632.513337) can1 0CEF0100#B020000000625400
(1708107632.516841) can1 04EF001C#754D1EE375AD1E07
(1708107632.517725) can1 0CEF0017#812B8813CD0AFFFF
(1708107632.518310) can1 0CEF1100#AFC4859F7C3E5BE6
(1708107632.523307) can1 18FFDC00#4014010000507B19
(1708107632.523924) can1 18E8FF00#02FFFFFFFF00EF00
(1708107632.526959) can1 04EF001C#3650B7E63750B6E2
(1708107632.528299) can1 18FFDC00#4100000000A4FFA3
(1708107632.528868) can1 0CF00300#CF004FFF00FFFFFF
(1708107632.529463) can1 0CF00400#FF7D7D000000FFFF
(1708107632.533301) can1 18FFDC00#42FFFF6E921B00FF
(1708107632.533911) can1 09F20000#000000FFFFFFFFFF
(1708107632.534496) can1 0CEF0100#B020000000625400
(1708107632.537070) can1 04EF001C#2B53B20D2A73B329
(1708107632.547168) can1 04EF001C#B6551BE3B7151AA7
(1708107632.548316) can1 0CF00400#FF7D7D000000FFFF
(1708107632.553333) can1 0CEF0100#B020000000625400
(1708107632.557286) can1 04EF001C#7658B5EE7738B48A
(1708107632.557871) can1 0CEF0017#812B8813CD0AFFFF
(1708107632.558426) can1 18FEF200#0000FFFFFFFF37FF
(1708107632.567410) can1 04EF001C#375BEEE5363BEF81
(1708107632.568318) can1 0CF00400#FF7D7D000000FFFF
(1708107632.568871) can1 0CEF1100#57FFA4504F247470
(1708107632.569465) can1 18E8FF00#02FFFFFFFF00EF00
(1708107632.570055) can1 18FF1080#000000FFFFFFFD00
(1708107632.571499) can1 18FF1180#0400FCFDFFFF02FF
(1708107632.572499) can1 18FF1380#000000003FC0C006
(1708107632.573319) can1 18FFDC00#6014010000507B19
(1708107632.573912) can1 0CEF0100#B020000000625400
(1708107632.577525) can1 04EF001C#195EE99018DEE814
(1708107632.578124) can1 18FF1CF3#0000000000000000
(1708107632.578705) can1 0CF00300#CF004FFF00FFFFFF
(1708107632.579240) can1 18FFDC00#6100000000A4FFA3
(1708107632.583289) can1 18FFDC00#62FFFF6E921B00FF
(1708107632.587637) can1 04EF001C#46414C7747C14DF3
(1708107632.588331) can1 0CF00400#FF7D7D000000FFFF
(1708107632.593337) can1 0CEF0100#B020000000625400
(1708107632.594598) can1 18FF1C17#0001500000000000
(1708107632.597742) can1 04EF001C#0144214A0084208E
(1708107632.598325) can1 18FEF100#FF0000F5FF11DFFF
(1708107632.607848) can1 04EF001C#A1469448A346964C
(1708107632.608464) can1 0CF00400#FF7D7D000000FFFF
(1708107632.613329) can1 0CEF0100#B020000000625400
(1708107632.617972) can1 04EF001C#8349CF5782A9CEB3
(1708107632.618548) can1 0CEF1100#0DE8C80532C3991A
(1708107632.623312) can1 18FFDC00#8014010000507B19
(1708107632.628078) can1 04EF001C#3D4C5CA23CAC5D46
(1708107632.628700) can1 0CF00300#CF004FFF00FFFFFF
(1708107632.629244) can1 0CF00400#FF7D7D000000FFFF
(1708107632.629797) can1 18FFDC00#8100000000A4FFA3
(1708107632.633305) can1 18FFDC00#82FFFF6E921B00FF
(1708107632.633904) can1 09F20000#000000FFFFFFFFFF
(1708107632.634479) can1 0CEF0100#B020000000625400
(1708107632.637691) can1 0CEF0017#812B8813CD0AFFFF
(1708107632.638215) can1 04EF001C#E24E9558E04E975C
(1708107632.643346) can1 18E8FF00#02FFFFFFFF00EF00
(1708107632.648294) can1 04EF001C#3651BFE73411BDA3
(1708107632.648917) can1 0CF00400#FF7D7D000000FFFF
(1708107632.653325) can1 18FEEF00#FFFFFF00FFFFFFFF
(1708107632.653932) can1 0CEF0100#B020000000625400
(1708107632.657706) can1 18FF1CF3#0000000000000000
(1708107632.658329) can1 18FEF200#0000FFFFFFFF37FF
(1708107632.658882) can1 04EF001C#F8536795FA7365B1
(1708107632.668314) can1 0CF00400#FF7D7D000000FFFF
(1708107632.668888) can1 04EF001C#B65603E0B45601E4
(1708107632.669410) can1 0CEF1100#CEECDEDCC0AFCE48
(1708107632.670022) can1 18FF1080#000000FFFFFFFD00
(1708107632.671512) can1 18FF1180#0400FCFDFFFF02FF
(1708107632.673325) can1 18FFDC00#A014010000507B19
(1708107632.673916) can1 0CEF0100#B020000000625400
(1708107632.678314) can1 18FFDC00#A100000000A4FFA3
(1708107632.678900) can1 04EF001C#7559BEF77499BF33
(1708107632.679443) can1 0CF00300#CF004FFF00FFFFFF
(1708107632.683295) can1 18FFDC00#A2FFFF6E921B00FF
(1708107632.683883) can1 0CEF1700#01AB8813CD0AFFFF
(1708107632.688312) can1 0CF00400#FF7D7D000000FFFF
(1708107632.688914) can1 04EF001C#345CD5FA35DCD47E
(1708107632.693337) can1 0CEF0100#B020000000625400
(1708107632.693916) can1 18FEF600#FFFF3C2AFFFFFFFF
(1708107632.698328) can1 18FEF100#FF0000F5FF11DFFF
(1708107632.698881) can1 04EF001C#F85E0F98F93E0EFC
(1708107632.708314) can1 0CF00400#FF7D7D000000FFFF
(1708107632.708990) can1 04EF001C#B441B9E7B501B8A3
(1708107632.713337) can1 0CEF0100#B020000000625400
(1708107632.718297) can1 0CEF1100#C19ECD7B7BEE404E
(1708107632.719082) can1 04EF001C#754456EA746457CE
(1708107632.723309) can1 18FFDC00#C014010000507B19
(1708107632.728312) can1 18FFDC00#C100000000A4FFA3
(1708107632.728920) can1 0CF00300#CF004FFF00FFFFFF
(1708107632.729419) can1 04EF001C#34470DE134A70D05
(1708107632.730053) can1 0CF00400#FF7D7D000000FFFF
(1708107632.733310) can1 18FFDC00#C2FFFF6E921B00FF
(1708107632.733902) can1 09F20000#000000FFFFFFFFFF
(1708107632.734476) can1 0CEF0100#B020000000625400
(1708107632.737687) can1 0CEF0017#812B8813CD0AFFFF
(1708107632.739287) can1 04EF001C#F549BAE7F589BA23
(1708107632.743321) can1 18E8FF00#02FFFFFFFF00EF00
(1708107632.748323) can1 0CF00400#FF7D7D000000FFFF
(1708107632.749407) can1 04EF001C#B44CD1EAB4CCD16E
(1708107632.753337) can1 0CEF0100#B020000000625400
(1708107632.757716) can1 18FF1CF3#0000000000000000
(1708107632.758326) can1 18FEF200#0000FFFFFFFF37FF
(1708107632.759555) can1 04EF001C#E04F9F49E00F9F0D
(1708107632.768314) can1 0CF00400#FF7D7D000000FFFF
(1708107632.768918) can1 0CEF1100#0E9298C02C810936
(1708107632.769658) can1 04EF001C#5952CB9C5952CB98
(1708107632.770540) can1 18FF1080#000000FFFFFFFD00
(1708107632.771497) can1 18FF1180#0400FCFDFFFF02FF
(1708107632.772503) can1 18FF1380#000000003FC0C006
(1708107632.773329) can1 18FFDC00#E014010000507B19
(1708107632.773903) can1 0CEF0100#B020000000625400
(1708107632.778324) can1 18FFDC00#E100000000A4FFA3
(1708107632.778876) can1 0CF00300#CF004FFF00FFFFFF
(1708107632.779804) can1 04EF001C#AD55003BAD55003F
(1708107632.783292) can1 18FFDC00#E2FFFF6E921B00FF
(1708107632.788311) can1 0CF00400#FF7D7D000000FFFF
(1708107632.789881) can1 04EF001C#6A58A90E95BF56ED
(1708107632.793345) can1 0CEF0100#B020000000625400
(1708107632.797687) can1 0CEF0017#812B8813CD0AFFFF
(1708107632.798325) can1 18FEF100#FF0000F5FF11DFFF
(1708107632.799967) can1 04EF001C#3E5BE7ADC1BC184E
(1708107632.803322) can1 18E8FF00#02FFFFFFFF00EF00
(1708107632.808317) can1 0CF00400#FF7D7D000000FFFF
(1708107632.810085) can1 04EF001C#FC5D13BB03BAEC58
(1708107632.811112) can1 09F8021C#85FC45EB0100FFFF
(1708107632.812112) can1 09F8011C#AE6E2618106B5BC1
(1708107632.813134) can1 19FA031C#85D25F00A5006700
(1708107632.813727) can1 0CEF0100#B020000000625400
(1708107632.814297) can1 0DF0101C#85F0A34D9011832B
(1708107632.815192) can1 18FEE81C#8FAC000021647E7E
(1708107632.816224) can1 19FA041C#209385FF0C01C611
(1708107632.817229) can1 19FA041C#2158CA3011FFFFFF
(1708107632.818245) can1 19FA041C#22FFFF05B329D020
(1708107632.818794) can1 0CEF1100#558CFCDF4166A49E
(1708107632.819374) can1 19FA041C#236810FFFFFFFFFF
(1708107632.820217) can1 04EF001C#54415EE754415EE3
(1708107632.821310) can1 19FA041C#240B000000000000
(1708107632.822290) can1 19FA041C#25FFFFFFFFFF0C6B
(1708107632.823310) can1 19FA041C#26030C7B0000FFFF
(1708107632.823888) can1 18FFDC00#0014010000507B19
(1708107632.824452) can1 19FA041C#27FFFFFF0DD313D4
(1708107632.825368) can1 19FA041C#2849E40CFFFFFFFF
(1708107632.826362) can1 19FA041C#29FF0F8F168A6694
(1708107632.827350) can1 19FA041C#2A11FFFFFFFFFF12
(1708107632.828300) can1 18FFDC00#0100000000A4FFA3
(1708107632.828874) can1 0CF00300#CF004FFF00FFFFFF
(1708107632.829448) can1 0CF00400#FF7D7D000000FFFF
(1708107632.830019) can1 19FA041C#2B581BE0C49411FF
(1708107632.831308) can1 04EF001C#71436ACD71636AE9
(1708107632.832427) can1 19FA041C#2B581BE0C49411FF
(1708107632.833302) can1 18FFDC00#02FFFF6E921B00FF
(1708107632.833893) can1 09F20000#000000FFFFFFFFFF
(1708107632.834480) can1 0CEF0100#B020000000625400
(1708107632.835047) can1 19FA041C#2CFFFFFFFF143115
(1708107632.836434) can1 19FA041C#2D2E22F00AFFFFFF
(1708107632.837461) can1 19FA041C#2EFFFF19AC0D748B
(1708107632.838039) can1 0CEA1C00#00EE000000000000
(1708107632.838626) can1 19FA041C#2FAC0DFFFFFFFFFF
(1708107632.839514) can1 19FA041C#301AFD0C72CED80E
(1708107632.840416) can1 04EF001C#FF46C8B8FF06C8FC
(1708107632.841490) can1 19FA041C#31FFFFFFFFFF1D79
(1708107632.842491) can1 19FA041C#323B9CC76810FFFF
(1708107632.843502) can1 19FA041C#33FFFFFF30A91A30
(1708107632.844522) can1 19FA041C#348E0410FFFFFFFF
(1708107632.845536) can1 19FA041C#35FFFFFFFFFFFFFF
(1708107632.846528) can1 18EEFF1C#0204450E00000042
(1708107632.848308) can1 0CF00400#FF7D7D000000FFFF
(1708107632.848918) can1 18FECA00#40FF00000000FFFF
(1708107632.850517) can1 04EF001C#C9488F06C9088F42
(1708107632.853341) can1 0CEF0100#B020000000625400
(1708107632.857719) can1 18FF1CF3#0000000000000000
(1708107632.858323) can1 18FEF200#0000FFFFFFFF37FF
(1708107632.860619) can1 04EF001C#2B4B72152B2B7271
(1708107632.863321) can1 18FF1C17#0001500000000000
(1708107632.863926) can1 18FF2117#06FFFFFF00FFFFFF
(1708107632.868327) can1 0CF00400#FF7D7D000000FFFF
(1708107632.868904) can1 0CEF1100#9680AA041F09EEAE
(1708107632.870511) can1 18FF1080#000000FFFFFFFD00
(1708107632.871121) can1 04EF001C#254E5460252E5404
(1708107632.871743) can1 18FF1180#0400FCFDFFFF02FF
(1708107632.873333) can1 18FFDC00#2014010000507B19
(1708107632.873933) can1 0CEF0100#B020000000625400
(1708107632.877696) can1 0CEF0017#812B8813CD0AFFFF
(1708107632.878311) can1 18FFDC00#2100000000A4FFA3
(1708107632.878876) can1 0CF00300#CF004FFF00FFFFFF
(1708107632.880943) can1 04EF001C#E550627EE530621A
(1708107632.881600) can1 15FD069B#BA8573FFFFFFFFFF
(1708107632.883290) can1 18FFDC00#22FFFF6E921B00FF
(1708107632.883871) can1 18E8FF00#02FFFFFFFF00EF00
(1708107632.888317) can1 0CF00400#FF7D7D000000FFFF
(1708107632.890955) can1 04EF001C#3853A19538D3A111
(1708107632.893343) can1 0CEF0100#B020000000625400
(1708107632.898317) can1 18FEF100#FF0000F5FF11DFFF
(1708107632.901078) can1 04EF001C#F8555793F8955757
(1708107632.908318) can1 0CF00400#FF7D7D000000FFFF
(1708107632.911189) can1 04EF001C#B75872E6B65873E2
(1708107632.913335) can1 0CEF0100#B020000000625400
(1708107632.918288) can1 0CEF1100#E1B2A4712AB68ACF
(1708107632.921283) can1 04EF001C#765BADED775BACE9
(1708107632.923309) can1 18FFDC00#4014010000507B19
(1708107632.928302) can1 18FFDC00#4100000000A4FFA3
(1708107632.928945) can1 0CF00300#CF004FFF00FFFFFF
(1708107632.929444) can1 0CF00400#FF7D7D000000FFFF
(1708107632.931415) can1 04EF001C#A35E5640A27E5764
(1708107632.933301) can1 18FFDC00#42FFFF6E921B00FF
(1708107632.933918) can1 09F20000#000000FFFFFFFFFF
(1708107632.934486) can1 0CEF0100#B020000000625400
(1708107632.941539) can1 04EF001C#F940FE8EF800FFCA
(1708107632.948321) can1 0CF00400#FF7D7D000000FFFF
(1708107632.951653) can1 04EF001C#B643ABF5B723AA91
(1708107632.953335) can1 0CEF0100#B020000000625400
(1708107632.958333) can1 18FEF200#0000FFFFFFFF37FF
(1708107632.961738) can1 04EF001C#774644F87626459C
(1708107632.968323) can1 0CF00400#FF7D7D000000FFFF
(1708107632.968931) can1 0CEF1100#26B6B388D9D39495
(1708107632.971514) can1 18FF1080#000000FFFFFFFD00
(1708107632.972051) can1 04EF001C#3849718F39C9700B
(1708107632.972635) can1 18FF1180#0400FCFDFFFF02FF
(1708107632.973320) can1 18FFDC00#6014010000507B19
(1708107632.973938) can1 0CEF0100#B020000000625400
(1708107632.974494) can1 18FF1380#000000003FC0C006
(1708107632.977712) can1 0CEF0017#812B8813CD0AFFFF
(1708107632.978310) can1 18FFDC00#6100000000A4FFA3
(1708107632.978879) can1 0CF00300#CF004FFF00FFFFFF
(1708107632.981980) can1 04EF001C#844CE06A85ECE1CE
(1708107632.983286) can1 18FFDC00#62FFFF6E921B00FF
(1708107632.983862) can1 18E8FF00#02FFFFFFFF00EF00
(1708107632.988313) can1 0CF00400#FF7D7D000000FFFF
(1708107632.992087) can1 04EF001C#204F594921CF58CD
(1708107632.993336) can1 0CEF0100#B020000000625400
(1708107632.997728) can1 18FF1CF3#0000000000000000
(1708107632.998329) can1 18FEF100#FF0000F5FF11DFFF
(1708107633.002200) can1 04EF001C#0352934C02D292C8
(1708107633.008320) can1 0CF00400#FF7D7D000000FFFF
(1708107633.012306) can1 04EF001C#C554637AC4D462FE
(1708107633.013340) can1 0CEF0100#B020000000625400
(1708107633.018289) can1 0CEF1100#6BA622A4AE1EEC6F
(1708107633.022427) can1 04EF001C#6157DA596037DB3D
(1708107633.023322) can1 18FFDC00#8014010000507B19
(1708107633.028308) can1 18FFDC00#8100000000A4FFA3
(1708107633.028911) can1 0CF00300#CF004FFF00FFFFFF
(1708107633.029444) can1 0CF00400#FF7D7D000000FFFF
(1708107633.032523) can1 04EF001C#455A977444DA96F0
(1708107633.033309) can1 18FFDC00#82FFFF6E921B00FF
(1708107633.033924) can1 09F20000#000000FFFFFFFFFF
(1708107633.034525) can1 0CEF0100#B020000000625400
(1708107633.037709) can1 0CEF0017#812B8813CD0AFFFF
(1708107633.042623) can1 04EF001C#775C94E2763C9586
(1708107633.043328) can1 18E8FF00#02FFFFFFFF00EF00
(1708107633.048319) can1 0CF00400#FF7D7D000000FFFF
(1708107633.052748) can1 04EF001C#355FCCF1341FCDB5
(1708107633.053340) can1 0CEF0100#B020000000625400
(1708107633.057767) can1 18FF1CF3#0000000000000000
(1708107633.058318) can1 18FEF200#0000FFFFFFFF37FF
(1708107633.062868) can1 04EF001C#F841F787F961F6A3
(1708107633.068322) can1 0CF00400#FF7D7D000000FFFF
(1708107633.068902) can1 0CEF1100#ABA1ECA5EE6E9E6D
(1708107633.071511) can1 18FF1080#000000FFFFFFFD00
(1708107633.072509) can1 18FF1180#0400FCFDFFFF02FF
(1708107633.073068) can1 04EF001C#B74492FAB64493FE
(1708107633.073681) can1 0CEF0100#B020000000625400
(1708107633.074225) can1 18FFDC00#A014010000507B19
(1708107633.078318) can1 18FFDC00#A100000000A4FFA3
(1708107633.078928) can1 0CF00300#CF004FFF00FFFFFF
(1708107633.083077) can1 04EF001C#77474CF976074DBD
(1708107633.083677) can1 18FFDC00#A2FFFF6E921B00FF
(1708107633.088310) can1 0CF00400#FF7D7D000000FFFF
(1708107633.093197) can1 04EF001C#344A65EC350A64A8
(1708107633.093796) can1 0CEF0100#B020000000625400
(1708107633.094712) can1 18FF1C17#0001500000000000
(1708107633.098326) can1 18FEF100#FF0000F5FF11DFFF
(1708107633.103297) can1 04EF001C#F74C90F2F60C91B6
(1708107633.108306) can1 0CF00400#FF7D7D000000FFFF
(1708107633.113337) can1 0CEF0100#B020000000625400
(1708107633.113956) can1 04EF001C#B74FCAF1B6EFCB55
(1708107633.117717) can1 0CEF0017#812B8813CD0AFFFF
(1708107633.118354) can1 0CEF1100#17D00E5A7E65ADF1
(1708107633.123310) can1 18FFDC00#C014010000507B19
(1708107633.123851) can1 04EF001C#7752E4EC76F2E548
(1708107633.124449) can1 18E8FF00#02FFFFFFFF00EF00
(1708107633.128299) can1 18FFDC00#C100000000A4FFA3
(1708107633.128920) can1 0CF00300#CF004FFF00FFFFFF
(1708107633.129492) can1 0CF00400#FF7D7D000000FFFF
(1708107633.133307) can1 18FFDC00#C2FFFF6E921B00FF
(1708107633.133840) can1 04EF001C#36559FE337959E27
(1708107633.134434) can1 09F20000#000000FFFFFFFFFF
(1708107633.135091) can1 0CEF0100#B020000000625400
(1708107633.138330) can1 09F20100#6016000200FFFFBC
(1708107633.143284) can1 09F20100#6172C90400006E92
(1708107633.143831) can1 04EF001C#F5574AF9F4974B3D
(1708107633.148318) can1 0CF00400#FF7D7D000000FFFF
(1708107633.148914) can1 09F20100#621B00FFFFFFFF00
(1708107633.149500) can1 18FEEE00#3CFFFFFFFFFF42FF
(1708107633.153323) can1 09F20100#630100FFFFFFFFFF
(1708107633.153850) can1 04EF001C#B75A62E4B6BA6300
(1708107633.154490) can1 0CEF0100#B020000000625400
(1708107633.155020) can1 18FEEF00#FFFFFF00FFFFFFFF
(1708107633.158337) can1 18FEF200#0000FFFFFFFF37FF
(1708107633.163299) can1 18FEF700#FFFF1A01F500F600
(1708107633.164008) can1 04EF001C#7A5D918B7BBD906F
(1708107633.168319) can1 0CF00400#FF7D7D000000FFFF
(1708107633.168916) can1 0CEF1100#D1D551EB3103EE0B
(1708107633.172499) can1 18FF1080#000000FFFFFFFD00
(1708107633.173322) can1 18FFDC00#E014010000507B19
(1708107633.173904) can1 0CEF0100#B020000000625400
(1708107633.174468) can1 04EF001C#344035E635A03402
(1708107633.175056) can1 18FF1180#0400FCFDFFFF02FF
(1708107633.176510) can1 18FF1380#000000003FC0C006
(1708107633.178302) can1 18FFDC00#E100000000A4FFA3
(1708107633.178887) can1 0CF00300#CF004FFF00FFFFFF
(1708107633.183288) can1 18FFDC00#E2FFFF6E921B00FF
(1708107633.183890) can1 0CEF1700#01AB8813CD0AFFFF
(1708107633.184430) can1 04EF001C#6243795563837891
(1708107633.188313) can1 0CF00400#FF7D7D000000FFFF
(1708107633.188917) can1 18FEFC00#FFA3FFFFFFFFFFFF
(1708107633.193337) can1 0CEF0100#B020000000625400
(1708107633.193929) can1 18FEF600#FFFF3C2AFFFFFFFF
(1708107633.194487) can1 04EF001C#4546776844A6768C
(1708107633.198314) can1 18FEF100#FF0000F5FF11DFFF
(1708107633.204420) can1 04EF001C#E548A266E748A062
(1708107633.208310) can1 0CF00400#FF7D7D000000FFFF
(1708107633.213336) can1 0CEF0100#B020000000625400
(1708107633.214556) can1 04EF001C#ED4BB225EF0BB061
(1708107633.217740) can1 18FF1CF3#0000000000000000
(1708107633.218338) can1 0CEF1100#87C61EDF46FED030
(1708107633.223312) can1 18FFDC00#0014010000507B19
(1708107633.224668) can1 04EF001C#AE4EDB38ACCED9BC
(1708107633.228306) can1 18FFDC00#0100000000A4FFA3
(1708107633.228916) can1 0CF00300#CF004FFF00FFFFFF
(1708107633.229450) can1 0CF00400#FF7D7D000000FFFF
(1708107633.233310) can1 18FFDC00#02FFFF6E921B00FF
(1708107633.233912) can1 09F20000#000000FFFFFFFFFF
(1708107633.234479) can1 0CEF0100#B020000000625400
(1708107633.235060) can1 04EF001C#4A51C00748F1C2A3
(1708107633.237721) can1 0CEF0017#812B8813CD0AFFFF
(1708107633.243317) can1 18E8FF00#02FFFFFFFF00EF00
(1708107633.244902) can1 04EF001C#9E5302A59CF30001
(1708107633.248314) can1 0CF00400#FF7D7D000000FFFF
(1708107633.253332) can1 0CEF0100#B020000000625400
(1708107633.254978) can1 04EF001C#925626C0903624A4
(1708107633.257746) can1 18FF1CF3#0000000000000000
(1708107633.258344) can1 18FEF200#0000FFFFFFFF37FF
(1708107633.265111) can1 04EF001C#F8583F9EFA783DBA
(1708107633.268311) can1 0CF00400#FF7D7D000000FFFF
(1708107633.268903) can1 0CEF1100#BBC5C83F8552792D
(1708107633.272522) can1 18FF1080#000000FFFFFFFD00
(1708107633.273328) can1 18FFDC00#2014010000507B19
(1708107633.273903) can1 0CEF0100#B020000000625400
(1708107633.274503) can1 18FF1180#0400FCFDFFFF02FF
(1708107633.275220) can1 04EF001C#135CF3C2129CF206
(1708107633.277729) can1 0CEF0017#812B8813CD0AFFFF
(1708107633.278316) can1 18FFDC00#2100000000A4FFA3
(1708107633.278884) can1 0CF00300#CF004FFF00FFFFFF
(1708107633.281302) can1 0DF50B9B#5EFFFFFFFF0000FF
(1708107633.283289) can1 18FFDC00#22FFFF6E921B00FF
(1708107633.283872) can1 18E8FF00#02FFFFFFFF00EF00
(1708107633.285332) can1 04EF001C#D55E23F0D4FE2254
(1708107633.288313) can1 0CF00400#FF7D7D000000FFFF
(1708107633.293333) can1 0CEF0100#B020000000625400
(1708107633.294626) can1 18FF1C17#0001500000000000
(1708107633.295459) can1 04EF001C#6B41601F6A21617B
(1708107633.298380) can1 18FEF100#FF0000F5FF11DFFF
(1708107633.305543) can1 04EF001C#F643E9F5F763E8D1
(1708107633.308314) can1 0CF00400#FF7D7D000000FFFF
(1708107633.313333) can1 0CEF0100#B020000000625400
(1708107633.315639) can1 04EF001C#ED46DA28EC46DB2C
(1708107633.317700) can1 09F8021C#86FC45EB0400FFFF
(1708107633.318293) can1 0CEF1100#4FF43A9297CBCCB5
(1708107633.318845) can1 09F8011C#AE6E2618166B5BC1
(1708107633.319728) can1 19FA031C#86D25F00A5006700
(1708107633.320705) can1 0DF0101C#86F0A34DA038832B
(1708107633.321744) can1 18FEE81C#8FAC000021647E7E
(1708107633.322799) can1 19FA041C#409386FF0C01C611
(1708107633.323365) can1 18FFDC00#4014010000507B19
(1708107633.323953) can1 19FA041C#4158CACC10FFFFFF
(1708107633.324857) can1 19FA041C#42FFFF05B329D020
(1708107633.325756) can1 04EF001C#654A366465EA36C0
(1708107633.326857) can1 19FA041C#430410FFFFFFFFFF
(1708107633.327864) can1 19FA041C#440B000000000000
(1708107633.328433) can1 0CF00300#CF004FFF00FFFFFF
(1708107633.329009) can1 0CF00400#FF7D7D000000FFFF
(1708107633.329579) can1 18FFDC00#4100000000A4FFA3
(1708107633.330152) can1 19FA041C#45FFFFFFFFFF0C6B
(1708107633.330914) can1 19FA041C#46030C7B0000FFFF
(1708107633.331890) can1 19FA041C#47FFFFFF0DD313D4
(1708107633.332918) can1 19FA041C#4849E40CFFFFFFFF
(1708107633.333500) can1 09F20000#000000FFFFFFFFFF
(1708107633.334080) can1 0CEF0100#B020000000625400
(1708107633.334645) can1 18FFDC00#42FFFF6E921B00FF
(1708107633.335191) can1 19FA041C#49FF0F8F168A6694
(1708107633.335895) can1 04EF001C#864CE27A862CE21E
(1708107633.336974) can1 19FA041C#4A11FFFFFFFFFF12
(1708107633.337960) can1 19FA041C#4B581BE0C49411FF
(1708107633.338965) can1 19FA041C#4CFFFFFFFF143115
(1708107633.339972) can1 19FA041C#4D2E22F00AFFFFFF
(1708107633.340985) can1 19FA041C#4EFFFF19AC0D748B
(1708107633.342012) can1 19FA041C#4F740EFFFFFFFFFF
(1708107633.343015) can1 19FA041C#501AFD0C72CED80E
(1708107633.344025) can1 19FA041C#51FFFFFFFFFF1D79
(1708107633.345030) can1 19FA041C#523B9CC76810FFFF
(1708107633.346002) can1 04EF001C#AD4FD021AD6FD005
(1708107633.347071) can1 19FA041C#53FFFFFF30A91A30
(1708107633.348075) can1 19FA041C#548E0410FFFFFFFF
(1708107633.348654) can1 0CF00400#FF7D7D000000FFFF
(1708107633.349235) can1 19FA041C#55FFFFFFFFFFFFFF
(1708107633.353338) can1 0CEF0100#B020000000625400
(1708107633.356121) can1 04EF001C#B55138FF4AB6C71C
(1708107633.357734) can1 0CEF0017#812B8813CD0AFFFF
(1708107633.358328) can1 18FEF200#0000FFFFFFFF37FF
(1708107633.363318) can1 18E8FF00#02FFFFFFFF00EF00
(1708107633.366195) can1 04EF001C#7654D5E289F32A41
(1708107633.368313) can1 0CF00400#FF7D7D000000FFFF
(1708107633.368910) can1 0CEF1100#17EF3654CFAA1070
(1708107633.373324) can1 18FFDC00#6014010000507B19
(1708107633.373934) can1 0CEF0100#B020000000625400
(1708107633.374553) can1 18FF1080#000000FFFFFFFD00
(1708107633.375516) can1 18FF1180#0400FCFDFFFF02FF
(1708107633.376315) can1 04EF001C#6957D21996D02D9A
(1708107633.376894) can1 18FF1380#000000003FC0C006
(1708107633.377747) can1 18FF1CF3#0000000000000000
(1708107633.378323) can1 0CF00300#CF004FFF00FFFFFF
(1708107633.378911) can1 18FFDC00#6100000000A4FFA3
(1708107633.379579) can1 15FD069B#BB8573FFFFFFFFFF
(1708107633.383286) can1 18FFDC00#62FFFF6E921B00FF
(1708107633.386438) can1 04EF001C#605AB35C9FDD4CDF
(1708107633.388311) can1 0CF00400#FF7D7D000000FFFF
(1708107633.393331) can1 0CEF0100#B020000000625400
(1708107633.396547) can1 04EF001C#435DA943BC3A5620
(1708107633.398312) can1 18FEF100#FF0000F5FF11DFFF
(1708107633.406659) can1 04EF001C#E15F1E511ED8E1D2
(1708107633.408371) can1 0CF00400#FF7D7D000000FFFF
(1708107633.413336) can1 0CEF0100#B020000000625400
(1708107633.416768) can1 04EF001C#A142B44C5EE54BEF
(1708107633.418283) can1 0CEF1100#AF9AF58A57A962AD
(1708107633.423312) can1 18FFDC00#8014010000507B19
(1708107633.426898) can1 04EF001C#8645AA7379A25590
(1708107633.428298) can1 18FFDC00#8100000000A4FFA3
(1708107633.428872) can1 0CF00300#CF004FFF00FFFFFF
(1708107633.429475) can1 0CF00400#FF7D7D000000FFFF
(1708107633.433310) can1 18FFDC00#82FFFF6E921B00FF
(1708107633.433905) can1 09F20000#000000FFFFFFFFFF
(1708107633.434568) can1 0CEF0100#B020000000625400
(1708107633.437012) can1 04EF001C#564814FE564814FA
(1708107633.437725) can1 0CEF0017#812B8813CD0AFFFF
(1708107633.443315) can1 18E8FF00#02FFFFFFFF00EF00
(1708107633.447110) can1 04EF001C#794A2A84790A2AC0
(1708107633.448309) can1 0CF00400#FF7D7D000000FFFF
(1708107633.453337) can1 0CEF0100#B020000000625400
(1708107633.457211) can1 04EF001C#374D5EF337AD5E17
(1708107633.457821) can1 18FF1CF3#0000000000000000
(1708107633.458411) can1 18FEF200#0000FFFFFFFF37FF
(1708107633.467344) can1 04EF001C#F84F8789F92F86ED
(1708107633.468318) can1 0CF00400#FF7D7D000000FFFF
(1708107633.468873) can1 0CEF1100#EB993EAA34EAA8B7
(1708107633.473321) can1 18FFDC00#A014010000507B19
(1708107633.473937) can1 0CEF0100#B020000000625400
(1708107633.474510) can1 18FF1080#000000FFFFFFFD00
(1708107633.475502) can1 18FF1180#0400FCFDFFFF02FF
(1708107633.477431) can1 04EF001C#B9522C9CB8B22D78
(1708107633.478312) can1 18FFDC00#A100000000A4FFA3
(1708107633.478879) can1 0CF00300#CF004FFF00FFFFFF
(1708107633.483294) can1 18FFDC00#A2FFFF6E921B00FF
(1708107633.487529) can1 04EF001C#7855D3937A15D1D7
(1708107633.488318) can1 0CF00400#FF7D7D000000FFFF
(1708107633.493333) can1 0CEF0100#B020000000625400
(1708107633.497665) can1 04EF001C#3758F6E635F8F442
(1708107633.498314) can1 18FEF100#FF0000F5FF11DFFF
(1708107633.507785) can1 04EF001C#F85A2F8CFB6A2CA8
(1708107633.508400) can1 0CF00400#FF7D7D000000FFFF
(1708107633.513349) can1 0CEF0100#B020000000625400
(1708107633.517741) can1 0CEF0017#812B8813CD0AFFFF
(1708107633.518325) can1 04EF001C#B85D558BBB2D56EF
(1708107633.518841) can1 0CEF1100#218E727F6C0940F5
(1708107633.523308) can1 18FFDC00#C014010000507B19
(1708107633.523876) can1 18E8FF00#02FFFFFFFF00EF00
(1708107633.527995) can1 04EF001C#78407B967BF07832
(1708107633.528620) can1 0CF00300#CF004FFF00FFFFFF
(1708107633.529144) can1 0CF00400#FF7D7D000000FFFF
(1708107633.529711) can1 18FFDC00#C100000000A4FFA3
(1708107633.533311) can1 18FFDC00#C2FFFF6E921B00FF
(1708107633.533904) can1 09F20000#000000FFFFFFFFFF
(1708107633.534476) can1 0CEF0100#B020000000625400
(1708107633.538106) can1 04EF001C#3943209D3AB32379
(1708107633.548227) can1 04EF001C#F945D69BFAB5D57F
(1708107633.548871) can1 0CF00400#FF7D7D000000FFFF
(1708107633.553342) can1 0CEF0100#B020000000625400
(1708107633.554908) can1 18FF1C17#0001500000000000
(1708107633.557768) can1 18FF1CF3#0000000000000000
(1708107633.558353) can1 18FEF200#0000FFFFFFFF37FF
(1708107633.558925) can1 04EF001C#B748F2E6B358F6E2
(1708107633.568313) can1 0CF00400#FF7D7D000000FFFF
(1708107633.568877) can1 04EF001C#7A4B218D7E5B2589
(1708107633.569426) can1 0CEF1100#6E8203C4AE5CFD24
(1708107633.573361) can1 18FFDC00#E014010000507B19
(1708107633.573908) can1 0CEF0100#B020000000625400
(1708107633.574571) can1 18FF1080#000000FFFFFFFD00
(1708107633.575509) can1 18FF1180#0400FCFDFFFF02FF
(1708107633.576512) can1 18FF1380#000000003FC0C006
(1708107633.578299) can1 18FFDC00#E100000000A4FFA3
(1708107633.578884) can1 04EF001C#C54EB370C6BEB094
(1708107633.579435) can1 0CF00300#CF004FFF00FFFFFF
(1708107633.583290) can1 18FFDC00#E2FFFF6E921B00FF
(1708107633.588307) can1 0CF00400#FF7D7D000000FFFF
(1708107633.588911) can1 04EF001C#86510A7785E109D3
(1708107633.593335) can1 0CEF0100#B020000000625400
(1708107633.597740) can1 0CEF0017#812B8813CD0AFFFF
(1708107633.598325) can1 18FEF100#FF0100F5FF11DFFF
(1708107633.598883) can1 04EF001C#2154804A2224832E
(1708107633.603322) can1 18E8FF00#02FFFFFFFF00EF00
(1708107633.608323) can1 0CF00400#FF7D7D000000FFFF
(1708107633.608945) can1 04EF001C#0757BF790407BC3D
(1708107633.613342) can1 0CEF0100#B020000000625400
(1708107633.618294) can1 0CEF1100#95BC4AD2A2DB7B8F
(1708107633.619083) can1 04EF001C#C659087FC5490B7B
(1708107633.623316) can1 18FFDC00#0014010000507B19
(1708107633.628339) can1 18FFDC00#0100000000A4FFA3
(1708107633.628935) can1 0CF00300#CF004FFF00FFFFFF
(1708107633.629444) can1 04EF001C#625C815A608C839E
(1708107633.630054) can1 0CF00400#FF7D7D000000FFFF
(1708107633.633309) can1 18FFDC00#02FFFF6E921B00FF
(1708107633.633926) can1 09F20000#000000FFFFFFFFFF
(1708107633.634507) can1 0CEF0100#B020000000625400
(1708107633.639234) can1 04EF001C#215FD84123CFDAC5
(1708107633.648312) can1 0CF00400#FF7D7D000000FFFF
(1708107633.649350) can1 04EF001C#784173977A3171F3
(1708107633.653326) can1 18FEEF00#FFFFFF00FFFFFFFF
(1708107633.653932) can1 0CEF0100#B020000000625400
(1708107633.658330) can1 18FEF200#0000FFFFFFFF37FF
(1708107633.659464) can1 04EF001C#384419923A141BD6
(1708107633.668313) can1 0CF00400#FF7D7D000000FFFF
(1708107633.668913) can1 0CEF1100#D6B03809D78FC8E6
(1708107633.669679) can1 04EF001C#1F4727991D67259D
(1708107633.673339) can1 18FFDC00#2014010000507B19
(1708107633.673924) can1 0CEF0100#B020000000625400
(1708107633.674557) can1 18FF1080#000000FFFFFFFD00
(1708107633.675508) can1 18FF1180#0400FCFDFFFF02FF
(1708107633.677781) can1 18FF1CF3#0000000000000000
(1708107633.678345) can1 0CF00300#CF004FFF00FFFFFF
(1708107633.678988) can1 18FFDC00#2101000000A4FFA3
(1708107633.679718) can1 04EF001C#DD499387DC899263
(1708107633.683293) can1 18FFDC00#22FFFF6E921B00FF
(1708107633.683847) can1 0CEF1700#01AB8813CD0AFFFF
(1708107633.688309) can1 0CF00400#FF7D7D000000FFFF
(1708107633.689799) can1 04EF001C#9D4CF9829CACF846
(1708107633.693342) can1 0CEF0100#B020000000625400
(1708107633.693937) can1 18FEF600#FFFF3C2AFFFFFFFF
(1708107633.697754) can1 0CEF0017#812B8813CD0AFFFF
(1708107633.698335) can1 18FEF100#FF0200F5FF11DFFF
(1708107633.699903) can1 04EF001C#5D4F27815CAF2645
(1708107633.703319) can1 18E8FF00#02FFFFFFFF00EF00
(1708107633.708321) can1 0CF00400#FF7D7D000000FFFF
(1708107633.709988) can1 04EF001C#5552C7DC54D2C678
(1708107633.713345) can1 0CEF0100#B020000000625400
(1708107633.718297) can1 0CEF1100#01A21B7583508784
(1708107633.720106) can1 04EF001C#ED544A1AECD44BBE
(1708107633.723310) can1 18FFDC00#4014010000507B19
(1708107633.728292) can1 18FFDC00#4101000000A4FFA3
(1708107633.728899) can1 0CF00300#CF004FFF00FFFFFF
(1708107633.729463) can1 0CF00400#FF7D7D000000FFFF
(1708107633.730337) can1 04EF001C#D4576AD1D5D76B75
(1708107633.733306) can1 18FFDC00#42FFFF6E921B00FF
(1708107633.733910) can1 09F20000#000000FFFFFFFFFF
(1708107633.734537) can1 0CEF0100#B020000000625400
(1708107633.740342) can1 04EF001C#385AE9BC391AE8D8
(1708107633.748321) can1 0CF00400#FF7D7D000000FFFF
(1708107633.750440) can1 04EF001C#2C5DC51B2D5DC43F
(1708107633.753340) can1 0CEF0100#B020000000625400
(1708107633.754729) can1 18FF1C17#0001500000000000
(1708107633.757759) can1 0CEF0017#812B8813CD0AFFFF
(1708107633.758336) can1 18FEF200#0000FFFFFFFF37FF
(1708107633.760549) can1 04EF001C#EC5F1319ECDF13BD
(1708107633.763322) can1 18E8FF00#02FFFFFFFF00EF00
(1708107633.768323) can1 0CF00400#FF7D7D000000FFFF
(1708107633.768913) can1 0CEF1100#45A5F054E91245D7
(1708107633.770656) can1 04EF001C#E542F24CE5C2F2E8
(1708107633.773324) can1 18FFDC00#6014010000507B19
(1708107633.773934) can1 0CEF0100#B020000000625400
(1708107633.775518) can1 18FF1080#000000FFFFFFFD00
(1708107633.776521) can1 18FF1180#0400FCFDFFFF02FF
(1708107633.777503) can1 18FF1380#000000003FC0C006
(1708107633.778097) can1 18FF1CF3#0000000000000000
(1708107633.778655) can1 0CF00300#CF004FFF00FFFFFF
(1708107633.779215) can1 18FFDC00#6101000000A4FFA3
(1708107633.780783) can1 04EF001C#5D466F885DC66F2C
(1708107633.783287) can1 18FFDC00#62FFFF6E921B00FF
(1708107633.788309) can1 0CF00400#FF7D7D000000FFFF
(1708107633.790880) can1 04EF001C#9948DDA69988DD42
(1708107633.793337) can1 0CEF0100#B020000000625400
(1708107633.798313) can1 18FEF100#FF0300F5FF11DFFF
(1708107633.801018) can1 04EF001C#454B1F45458B1FA1
(1708107633.808321) can1 0CF00400#FF7D7D000000FFFF
(1708107633.811133) can1 04EF001C#084E7828096E792C
(1708107633.813348) can1 0CEF0100#B020000000625400
(1708107633.818289) can1 0CEF1100#4ED01AD29C9B4CA6
(1708107633.821242) can1 04EF001C#A150247EA050255A
(1708107633.822312) can1 09F8021C#87FC45EB0200FFFF
(1708107633.823271) can1 09F8011C#B06E2618166B5BC1
(1708107633.823865) can1 18FFDC00#8014010000507B19
(1708107633.824399) can1 19FA031C#87D25F00A5006700
(1708107633.825320) can1 0DF0101C#87F0A34DA038832B
(1708107633.826324) can1 18FEE81C#8FAC000021647E7E
(1708107633.827386) can1 19FA041C#609387FF0C01C611
(1708107633.828312) can1 18FFDC00#8102000000A4FFA3
(1708107633.828871) can1 0CF00300#CF004FFF00FFFFFF
(1708107633.829538) can1 0CF00400#FF7D7D000000FFFF
(1708107633.830014) can1 19FA041C#6158CA6810FFFFFF
(1708107633.831347) can1 04EF001C#EB53742DEA337569
(1708107633.832434) can1 19FA041C#62FFFF05B329D020
(1708107633.833301) can1 18FFDC00#82FFFF6E921B00FF
(1708107633.833922) can1 09F20000#000000FFFFFFFFFF
(1708107633.834510) can1 0CEF0100#B020000000625400
(1708107633.835089) can1 19FA041C#63A00FFFFFFFFFFF
(1708107633.836495) can1 19FA041C#640B000000000000
(1708107633.837488) can1 19FA041C#65FFFFFFFFFF0C6B
(1708107633.838079) can1 0CEF0017#812B8813CD0AFFFF
(1708107633.838619) can1 19FA041C#66030C7B0000FFFF
(1708107633.839487) can1 19FA041C#67FFFFFF0DD313D4
(1708107633.840503) can1 19FA041C#6849800CFFFFFFFF
(1708107633.841457) can1 04EF001C#6256D16063F6D0E4
(1708107633.842518) can1 19FA041C#69FF0F8F168A6630
(1708107633.843539) can1 19FA041C#6A11FFFFFFFFFF12
(1708107633.844549) can1 19FA041C#6B581BE0C43011FF
(1708107633.845555) can1 19FA041C#6CFFFFFFFF143115
(1708107633.846561) can1 19FA041C#6D2E22280AFFFFFF
(1708107633.847585) can1 19FA041C#6EFFFF19AC0D748B
(1708107633.848315) can1 0CF00400#FF7D7D000000FFFF
(1708107633.848885) can1 18E8FF00#02FFFFFFFF00EF00
(1708107633.849469) can1 18FECA00#40FF00000000FFFF
(1708107633.850054) can1 19FA041C#6F740EFFFFFFFFFF
(1708107633.851560) can1 04EF001C#A1586466A0C865C2
(1708107633.852637) can1 19FA041C#701AFD0C72CED80E
(1708107633.853328) can1 0CEF0100#B020000000625400
(1708107633.853927) can1 19FA041C#71FFFFFFFFFF1D79
(1708107633.854695) can1 19FA041C#723B9CC7A00FFFFF
(1708107633.855667) can1 19FA041C#73FFFFFF30A91A30
(1708107633.856741) can1 19FA041C#748E3C0FFFFFFFFF
(1708107633.857685) can1 19FA041C#75FFFFFFFFFFFFFF
(1708107633.858264) can1 0CEA1C00#00EE000000000000
(1708107633.858861) can1 18FEF200#0000FFFFFFFF37FF
(1708107633.859717) can1 18EEFF1C#0204450E00000042
(1708107633.861697) can1 04EF001C#385BE1AD398BE049
(1708107633.868311) can1 0CF00400#FF7D7D000000FFFF
(1708107633.868899) can1 0CEF1100#0FD4289BCF531E79
(1708107633.871776) can1 04EF001C#F95D16A3FB6D14A7
(1708107633.873327) can1 18FFDC00#A014010000507B19
(1708107633.873911) can1 0CEF0100#B020000000625400
(1708107633.875518) can1 18FF1080#000000FFFFFFFD00
(1708107633.876515) can1 18FF1180#0400FCFDFFFF02FF
(1708107633.877685) can1 15FD069B#BC8673FFFFFFFFFF
(1708107633.878304) can1 18FFDC00#A102000000A4FFA3
(1708107633.878893) can1 0CF00300#CF004FFF00FFFFFF
(1708107633.881907) can1 04EF001C#B840BDB6BA50BF92
(1708107633.883295) can1 18FFDC00#A2FFFF6E921B00FF
(1708107633.888318) can1 0CF00400#FF7D7D000000FFFF
(1708107633.892009) can1 04EF001C#794362BD7B3360F9
(1708107633.893326) can1 0CEF0100#B020000000625400
(1708107633.898319) can1 18FEF100#FF0500F5FF11DFFF
(1708107633.902130) can1 04EF001C#374606C835F6044C
(1708107633.908320) can1 0CF00400#FF7D7D000000FFFF
(1708107633.912234) can1 04EF001C#F848BFBEFAB8BD7A
(1708107633.913330) can1 0CEF0100#B020000000625400
(1708107633.917790) can1 18FF1CF3#0000000000000000
(1708107633.918320) can1 0CEF1100#DCC49AC71E059C37
(1708107633.922337) can1 04EF001C#B84BE5BDBB7BE6B9
(1708107633.923314) can1 18FFDC00#C014010000507B19
(1708107633.928304) can1 18FFDC00#C103000000A4FFA3
(1708107633.928901) can1 0CF00300#CF004FFF00FFFFFF
(1708107633.929453) can1 0CF00400#FF7D7D000000FFFF
(1708107633.932454) can1 04EF001C#7A4E09A8793E0AEC
(1708107633.933316) can1 18FFDC00#C2FFFF6E921B00FF
(1708107633.933903) can1 09F20000#000000FFFFFFFFFF
(1708107633.934488) can1 0CEF0100#B020000000625400
(1708107633.937777) can1 0CEF0017#812B8813CD0AFFFF
(1708107633.942570) can1 04EF001C#3951B0AF3A21B3EB
(1708107633.948350) can1 0CF00400#FF7D7D000000FFFF
(1708107633.948944) can1 18E8FF00#02FFFFFFFF00EF00
(1708107633.952676) can1 04EF001C#F95366ADFA0365C9
(1708107633.953385) can1 0CEF0100#B020000000625400
(1708107633.957794) can1 18FF1CF3#0000000000000000
(1708107633.958405) can1 18FEF200#0000FFFFFFFF37FF
(1708107633.962802) can1 04EF001C#B8560DA0BB060EC4
(1708107633.968315) can1 0CF00400#FF7D7D000000FFFF
(1708107633.968918) can1 0CEF1100#92C75337F5CB38E9
(1708107633.972895) can1 04EF001C#7859B3AF7B29B0EB
(1708107633.973505) can1 0CEF0100#B020000000625400
(1708107633.974045) can1 18FFDC00#E014010000507B19
(1708107633.975507) can1 18FF1080#000000FFFFFFFD00
(1708107633.976506) can1 18FF1180#0400FCFDFFFF02FF
(1708107633.977517) can1 18FF1380#000000003FC0C006
(1708107633.978383) can1 18FFDC00#E103000000A4FFA3
(1708107633.978897) can1 0CF00300#CF004FFF00FFFFFF
(1708107633.983027) can1 04EF001C#A35C4602A03C4526
(1708107633.983620) can1 18FFDC00#E2FFFF6E921B00FF
(1708107633.988317) can1 0CF00400#FF7D7D000000FFFF
(1708107633.993141) can1 04EF001C#865F7A29853F790D
(1708107633.993738) can1 0CEF0100#B020000000625400
(1708107633.997757) can1 0CEF0017#812B8813CD0AFFFF
(1708107633.998361) can1 18FEF100#FF0700F5FF11DFFF
(1708107634.003265) can1 04EF001C#2342321C20223138
(1708107634.003815) can1 18E8FF00#02FFFFFFFF00EF00
(1708107634.008309) can1 0CF00400#FF7D7D000000FFFF
(1708107634.013346) can1 0CEF0100#B020000000625400
(1708107634.013893) can1 04EF001C#E344C41AE004C71E
(1708107634.018295) can1 0CEF1100#64F6A10A67D6A9F5
(1708107634.023218) can1 18FF1C17#0001500000000000
(1708107634.023762) can1 04EF001C#C647F831C4E7FAD5
(1708107634.024357) can1 18FFDC00#0014010000507B19
(1708107634.028302) can1 18FFDC00#0104000000A4FFA3
(1708107634.028918) can1 0CF00300#CF004FFF00FFFFFF
(1708107634.029477) can1 0CF00400#FF7D7D000000FFFF
(1708107634.033314) can1 18FFDC00#02FFFF6E921B00FF
(1708107634.033843) can1 04EF001C#624A311C60AA33B8
(1708107634.034441) can1 09F20000#000000FFFFFFFFFF
(1708107634.035018) can1 0CEF0100#B020000000625400
(1708107634.043687) can1 04EF001C#B84CDDCABA4CDF8E
(1708107634.048319) can1 0CF00400#FF7D7D000000FFFF
(1708107634.053342) can1 0CEF0100#B020000000625400
(1708107634.053874) can1 04EF001C#784F03C97A2F01ED
(1708107634.057804) can1 18FF1CF3#0000000000000000
(1708107634.058401) can1 18FEF200#0000FFFFFFFF37FF
(1708107634.063943) can1 04EF001C#3752A6AC3512A4A8
(1708107634.068308) can1 0CF00400#FF7D7D000000FFFF
(1708107634.068893) can1 0CEF1100#3AF56C7A8227F15A
(1708107634.073331) can1 18FFDC00#2014010000507B19
(1708107634.073939) can1 0CEF0100#B020000000625400
(1708107634.074475) can1 04EF001C#F9545EDAFB145CDE
(1708107634.076510) can1 18FF1080#000000FFFFFFFD00
(1708107634.077564) can1 18FF1180#0400FCFDFFFF02FF
(1708107634.078075) can1 0CEF0017#812B8813CD0AFFFF
(1708107634.078640) can1 0CF00300#CF004FFF00FFFFFF
(1708107634.079247) can1 18FFDC00#2105000000A4FFA3
(1708107634.083300) can1 18FFDC00#22FFFF6E921B00FF
(1708107634.084153) can1 04EF001C#B95704C9BB2706ED
(1708107634.088306) can1 0CF00400#FF7D7D000000FFFF
(1708107634.088878) can1 18E8FF00#02FFFFFFFF00EF00
(1708107634.093330) can1 0CEF0100#B020000000625400
(1708107634.094247) can1 04EF001C#785AABCC7A8AA948
(1708107634.098309) can1 18FEF100#FF0900F5FF11DFFF
(1708107634.104351) can1 04EF001C#385DD1CB3B0DD2CF
(1708107634.108307) can1 0CF00400#FF7D7D000000FFFF
(1708107634.113335) can1 0CEF0100#B020000000625400
(1708107634.114488) can1 04EF001C#FA5F05D9F98F065D
(1708107634.118286) can1 0CEF1100#E8E4966E51732344
(1708107634.123309) can1 18FFDC00#4014010000507B19
(1708107634.124598) can1 04EF001C#DC42CAF4DF72C990
(1708107634.128298) can1 18FFDC00#4106000000A4FFA3
(1708107634.128900) can1 0CF00300#CF004FFF00FFFFFF
(1708107634.129448) can1 0CF00400#FF7D7D000000FFFF
(1708107634.133302) can1 18FFDC00#42FFFF6E921B00FF
(1708107634.133897) can1 09F20000#000000FFFFFFFFFF
(1708107634.134541) can1 0CEF0100#B020000000625400
(1708107634.135029) can1 04EF001C#9F45B3EB9C55B0AF
(1708107634.138342) can1 09F20100#8016000000FFFFBC
(1708107634.143305) can1 09F20100#8172C90400006E92
(1708107634.143909) can1 18FEE500#36270000FFFFFFFF
(1708107634.144825) can1 04EF001C#384879DE3B387AFA
(1708107634.148310) can1 0CF00400#FF7D7D000000FFFF
(1708107634.148950) can1 09F20100#821B00FFFFFFFF00
(1708107634.149468) can1 18FEEE00#3CFFFFFFFFFF42FF
(1708107634.153337) can1 09F20100#830100FFFFFFFFFF
(1708107634.153946) can1 0CEF0100#B020000000625400
(1708107634.154515) can1 18FEEF00#FFFFFF00FFFFFFFF
(1708107634.155060) can1 04EF001C#FA4AADCCF8FAAF28
(1708107634.157785) can1 0CEF0017#812B8813CD0AFFFF
(1708107634.158375) can1 18FEF200#0000FFFFFFFF37FF
(1708107634.163307) can1 18FEF700#FFFF1A01F500F600
(1708107634.165023) can1 04EF001C#FD4D92F3FFBD9057
(1708107634.168310) can1 0CF00400#FF7D7D000000FFFF
(1708107634.168960) can1 0CEF1100#D59C58DBFA43A943
(1708107634.169471) can1 18E8FF00#02FFFFFFFF00EF00
(1708107634.173320) can1 18FFDC00#6014010000507B19
(1708107634.173930) can1 0CEF0100#B020000000625400
(1708107634.175145) can1 04EF001C#D55053AED70051AA
(1708107634.176516) can1 18FF1080#000000FFFFFFFD00
(1708107634.177518) can1 18FF1180#0400FCFDFFFF02FF
(1708107634.178109) can1 18FF1CF3#0000000000000000
(1708107634.178689) can1 0CF00300#CF004FFF00FFFFFF
(1708107634.179273) can1 18FF1380#000000003FC0C006
(1708107634.179840) can1 18FFDC00#6106000000A4FFA3
(1708107634.183302) can1 18FFDC00#62FFFF6E921B00FF
(1708107634.183884) can1 0CEF1700#01AB8813CD0AFFFF
(1708107634.185283) can1 04EF001C#2554842A24C485EE
(1708107634.188309) can1 0CF00400#FF7D7D000000FFFF
(1708107634.188892) can1 18FEFC00#FFA3FFFFFFFFFFFF
(1708107634.193336) can1 0CEF0100#B020000000625400
(1708107634.193934) can1 18FEF600#FFFF3C2AFFFFFFFF
(1708107634.195381) can1 04EF001C#E6565130E7C650F4
(1708107634.198310) can1 18FEF100#FF0C00F5FF11DFFF
(1708107634.205492) can1 04EF001C#3B59F2D73AA9F373
(1708107634.208312) can1 0CF00400#FF7D7D000000FFFF
(1708107634.213333) can1 0CEF0100#B020000000625400
(1708107634.214801) can1 18FF1C17#0001500000000000
(1708107634.215596) can1 04EF001C#195CF9F2189CF856
(1708107634.218303) can1 0CEF1100#0C8A5856240211F4
(1708107634.223321) can1 18FFDC00#8014010000507B19
(1708107634.225722) can1 04EF001C#FD5E0AD0FC9E0B74
(1708107634.228291) can1 18FFDC00#8108000000A4FFA3
(1708107634.228875) can1 0CF00300#CF004FFF00FFFFFF
(1708107634.229456) can1 0CF00400#FF7D7D000000FFFF
(1708107634.233312) can1 18FFDC00#82FFFF6E921B00FF
(1708107634.233897) can1 09F20000#000000FFFFFFFFFF
(1708107634.234475) can1 0CEF0100#B020000000625400
(1708107634.235841) can1 04EF001C#DA41D4F7DBC1D513
(1708107634.237789) can1 0CEF0017#812B8813CD0AFFFF
(1708107634.245908) can1 04EF001C#B943A4EDBB23A6E9
(1708107634.248311) can1 0CF00400#FF7D7D000000FFFF
(1708107634.248905) can1 18E8FF00#02FFFFFFFF00EF00
(1708107634.253337) can1 0CEF0100#B020000000625400
(1708107634.256015) can1 04EF001C#78464BE07A2649E4
(1708107634.257818) can1 18FF1CF3#0000000000000000
(1708107634.258395) can1 18FEF200#0000FFFFFFFF37FF
(1708107634.266142) can1 04EF001C#384971EF39C9700B
(1708107634.268307) can1 0CF00400#FF7D7D000000FFFF
(1708107634.268907) can1 0CEF1100#4A8993E6CDDE273A
(1708107634.273318) can1 18FFDC00#A014010000507B19
(1708107634.273927) can1 0CEF0100#B020000000625400
(1708107634.276234) can1 04EF001C#2D4C4C422CCC4DA6
(1708107634.277380) can1 0DF50B9B#5FFFFFFFFF0000FF
(1708107634.277984) can1 18FF1080#000000FFFFFFFD00
(1708107634.278567) can1 0CF00300#CF004FFF00FFFFFF
(1708107634.279121) can1 18FFDC00#A109000000A4FFA3
(1708107634.279686) can1 18FF1180#0400FCFDFFFF02FF
(1708107634.283306) can1 18FFDC00#A2FFFF6E921B00FF
(1708107634.286360) can1 04EF001C#B74EC290B52EC094
(1708107634.288308) can1 0CF00400#FF7D7D000000FFFF
(1708107634.293335) can1 0CEF0100#B020000000625400
(1708107634.296469) can1 04EF001C#7851F3F77A31F1F3
(1708107634.298300) can1 18FEF100#FF0F00F5FF11DFFF
(1708107634.306587) can1 04EF001C#385499F239F49836
(1708107634.308313) can1 0CF00400#FF7D7D000000FFFF
(1708107634.313334) can1 0CEF0100#B020000000625400
(1708107634.316692) can1 04EF001C#FA564DE0FB964C44
(1708107634.317789) can1 0CEF0017#812B8813CD0AFFFF
(1708107634.318340) can1 0CEF1100#B8B860FB5ECAFF2E
(1708107634.323322) can1 18FFDC00#C014010000507B19
(1708107634.326822) can1 04EF001C#B85975FFB9F9743B
(1708107634.328290) can1 18FFDC00#C109000000A4FFA3
(1708107634.328878) can1 0CF00300#CF004FFF00FFFFFF
(1708107634.329502) can1 0CF00400#FF7D7D000000FFFF
(1708107634.330011) can1 18E8FF00#02FFFFFFFF00EF00
(1708107634.330917) can1 09F8021C#88FC45EB0000FFFF
(1708107634.331858) can1 09F8011C#B66E2618186B5BC1
(1708107634.332896) can1 19FA031C#88D25F00A5006700
(1708107634.333486) can1 09F20000#000000FFFFFFFFFF
(1708107634.334066) can1 0CEF0100#B020000000625400
(1708107634.334657) can1 0DF0101C#88F0A34DB05F832B
(1708107634.335179) can1 18FFDC00#C2FFFF6E921B00FF
(1708107634.335956) can1 18FEE81C#8FAC000021647D7E
(1708107634.336944) can1 04EF001C#005DE83B01FDE9FF
(1708107634.338002) can1 19FA041C#809388FF0C01C611
(1708107634.339002) can1 19FA041C#8158CA6810FFFFFF
(1708107634.340026) can1 19FA041C#82FFFF05B329D020
(1708107634.341044) can1 19FA041C#83A00FFFFFFFFFFF
(1708107634.342059) can1 19FA041C#840B000000000000
(1708107634.343046) can1 19FA041C#85FFFFFFFFFF0C6B
(1708107634.343625) can1 18FF2117#06FFFFFF00FFFFFF
(1708107634.344193) can1 19FA041C#86030C7B0000FFFF
(1708107634.345069) can1 19FA041C#87FFFFFF0DD313D4
(1708107634.346079) can1 19FA041C#88491C0CFFFFFFFF
(1708107634.347034) can1 04EF001C#E25F1D29E3FF1CED
(1708107634.348177) can1 19FA041C#89FF0F8F168A6694
(1708107634.348690) can1 0CF00400#FF7D7D000000FFFF
(1708107634.349261) can1 19FA041C#8A11FFFFFFFFFF12
(1708107634.350155) can1 19FA041C#8B581BE0C43011FF
(1708107634.351129) can1 19FA041C#8CFFFFFFFF143115
(1708107634.352142) can1 19FA041C#8D2E22280AFFFFFF
(1708107634.353163) can1 19FA041C#8EFFFF19AC0D748B
(1708107634.353735) can1 0CEF0100#B020000000625400
(1708107634.354312) can1 19FA041C#8FD80EFFFFFFFFFF
(1708107634.355200) can1 19FA041C#901AFD0C72CE3C0F
(1708107634.356196) can1 19FA041C#91FFFFFFFFFF1D79
(1708107634.357151) can1 04EF001C#9E428AD49F428BB0
(1708107634.358217) can1 19FA041C#923B9CC70410FFFF
(1708107634.358805) can1 18FEF200#0000FFFFFFFF37FF
(1708107634.359366) can1 19FA041C#93FFFFFF30A91A30
(1708107634.360267) can1 19FA041C#948E0410FFFFFFFF
(1708107634.361237) can1 19FA041C#95FFFFFFFFFFFFFF
(1708107634.367252) can1 04EF001C#B744929AB6A4931E
(1708107634.368313) can1 0CF00400#FF7D7D000000FFFF
(1708107634.368923) can1 0CEF1100#82BF97AAABEB3E06
(1708107634.373323) can1 18FFDC00#E014010000507B19
(1708107634.373935) can1 0CEF0100#B020000000625400
(1708107634.377373) can1 04EF001C#7A4741F17BE74035
(1708107634.377965) can1 18FF1080#000000FFFFFFFD00
(1708107634.378532) can1 0CF00300#CF004FFF00FFFFFF
(1708107634.379138) can1 18FF1CF3#0000000000000000
(1708107634.379718) can1 18FF1180#0400FCFDFFFF02FF
(1708107634.380290) can1 18FFDC00#E10B000000A4FFA3
(1708107634.380923) can1 18FF1380#000000003FC0C006
(1708107634.382207) can1 15FD069B#BD8673FFFFFFFFFF
(1708107634.383293) can1 18FFDC00#E2FFFF6E921B00FF
(1708107634.387503) can1 04EF001C#A14AF424A0EAF5E0
(1708107634.388329) can1 0CF00400#FF7D7D000000FFFF
(1708107634.393336) can1 0CEF0100#B020000000625400
(1708107634.397601) can1 04EF001C#864DEA1B87EDEBDF
(1708107634.398189) can1 0CEF0017#812B8813CD0AFFFF
(1708107634.398709) can1 18FEF100#FF1300F5FF11DFFF
(1708107634.407729) can1 04EF001C#2150A03E20F0A1FA
(1708107634.408337) can1 0CF00400#FF7D7D000000FFFF
(1708107634.408952) can1 18E8FF00#02FFFFFFFF00EF00
(1708107634.413336) can1 0CEF0100#B020000000625400
(1708107634.417830) can1 04EF001C#E2527524E3F274E0
(1708107634.418359) can1 0CEF1100#D4AE489E58968419
(1708107634.423328) can1 18FFDC00#0014010000507B19
(1708107634.427936) can1 04EF001C#C6556803C7D569E7
(1708107634.428525) can1 0CF00300#CF004FFF00FFFFFF
(1708107634.429067) can1 0CF00400#FF7D7D000000FFFF
(1708107634.429645) can1 18FFDC00#010B000000A4FFA3
(1708107634.433309) can1 18FFDC00#02FFFF6E921B00FF
(1708107634.433904) can1 09F20000#000000FFFFFFFFFF
(1708107634.434482) can1 0CEF0100#B020000000625400
(1708107634.438055) can1 04EF001C#6258A12E63D8A0CA
(1708107634.448153) can1 04EF001C#B85A6DFCB99A6C58
(1708107634.448744) can1 0CF00400#FF7D7D000000FFFF
(1708107634.453337) can1 0CEF0100#B020000000625400
(1708107634.454773) can1 18FF1C17#0001500000000000
(1708107634.458377) can1 04EF001C#7A5D91EB7B5D908F
(1708107634.458982) can1 18FEF200#0000FFFFFFFF37FF
(1708107634.459654) can1 18FF1CF3#0000000000000000
(1708107634.468324) can1 0CF00400#FF7D7D000000FFFF
(1708107634.468899) can1 04EF001C#384039E6396038A2
(1708107634.469412) can1 0CEF1100#17A08E453C7847FD
(1708107634.473330) can1 18FFDC00#2014010000507B19
(1708107634.473941) can1 0CEF0100#B020000000625400
(1708107634.477797) can1 0CEF0017#812B8813CD0AFFFF
(1708107634.478390) can1 0CF00300#CF004FFF00FFFFFF
(1708107634.478992) can1 04EF001C#F842EFE4F8C2EF00
(1708107634.479546) can1 18FF1080#000000FFFFFFFD00
(1708107634.480122) can1 18FFDC00#210D000000A4FFA3
(1708107634.480683) can1 18FF1180#0400FCFDFFFF02FF
(1708107634.483290) can1 18FFDC00#22FFFF6E921B00FF
(1708107634.488323) can1 0CF00400#FF7D7D000000FFFF
(1708107634.488909) can1 04EF001C#B7459A9BB7859A3F
(1708107634.489456) can1 18E8FF00#02FFFFFFFF00EF00
(1708107634.493366) can1 0CEF0100#B020000000625400
(1708107634.498316) can1 18FEF100#FF1500F5FF11DFFF
(1708107634.498902) can1 04EF001C#78483BEE78483B8A
(1708107634.508325) can1 0CF00400#FF7D7D000000FFFF
(1708107634.508903) can1 04EF001C#374B6E95376B6ED1
(1708107634.513350) can1 0CEF0100#B020000000625400
(1708107634.518284) can1 0CEF1100#A6D2B79229EA7B0D
(1708107634.518976) can1 04EF001C#F94D96E3F90D96C7
(1708107634.523316) can1 18FFDC00#4014010000507B19
(1708107634.528302) can1 18FFDC00#410D000000A4FFA3
(1708107634.528871) can1 0CF00300#CF004FFF00FFFFFF
(1708107634.529435) can1 04EF001C#B8503DF6B8703DB2
(1708107634.529982) can1 0CF00400#FF7D7D000000FFFF
(1708107634.533307) can1 18FFDC00#42FFFF6E921B00FF
(1708107634.533904) can1 09F20000#000000FFFFFFFFFF
(1708107634.534489) can1 0CEF0100#B020000000625400
(1708107634.539151) can1 04EF001C#7953E2FD7913E2D9
(1708107634.548318) can1 0CF00400#FF7D7D000000FFFF
(1708107634.549278) can1 04EF001C#37568688371686AC
(1708107634.553339) can1 0CEF0100#B020000000625400
(1708107634.558328) can1 18FEF200#0000FFFFFFFF37FF
(1708107634.559402) can1 04EF001C#F9583EF6F9783EB2
(1708107634.568319) can1 0CF00400#FF7D7D000000FFFF
(1708107634.568915) can1 0CEF1100#67D6A1DBEF18DD7B
(1708107634.569570) can1 04EF001C#225CC32A227CC36E
(1708107634.573329) can1 18FFDC00#6014010000507B19
(1708107634.573930) can1 0CEF0100#B020000000625400
(1708107634.578309) can1 18FFDC00#610E000000A4FFA3
(1708107634.578897) can1 0CF00300#CF004FFF00FFFFFF
(1708107634.579472) can1 18FF1080#000000FFFFFFFD00
(1708107634.580030) can1 04EF001C#2F5FD6412F5FD625
(1708107634.580617) can1 18FF1180#0400FCFDFFFF02FF
(1708107634.581525) can1 18FF1380#000000003FC0C006
(1708107634.583290) can1 18FFDC00#62FFFF6E921B00FF
(1708107634.588320) can1 0CF00400#FF7D7D000000FFFF
(1708107634.589755) can1 04EF001C#ED41E24FED41E22B
(1708107634.593335) can1 0CEF0100#B020000000625400
(1708107634.598313) can1 18FEF100#FF1800F5FF11DFFF
(1708107634.599850) can1 04EF001C#8A44AE728AA4AEF6
(1708107634.608320) can1 0CF00400#FF7D7D000000FFFF
(1708107634.609930) can1 04EF001C#A5479809A5C798ED
(1708107634.613340) can1 0CEF0100#B020000000625400
(1708107634.617808) can1 0CEF0017#812B8813CD0AFFFF
(1708107634.618400) can1 0CEF1100#2EC081D6145D60E4
(1708107634.620053) can1 04EF001C#674A341467CA34F0
(1708107634.623327) can1 18FFDC00#8014010000507B19
(1708107634.628288) can1 18FFDC00#810E000000A4FFA3
(1708107634.628863) can1 0CF00300#CF004FFF00FFFFFF
(1708107634.629489) can1 0CF00400#FF7D7D000000FFFF
(1708107634.630012) can1 18E8FF00#02FFFFFFFF00EF00
(1708107634.630564) can1 04EF001C#004D682B010D690F
(1708107634.633313) can1 18FFDC00#82FFFF6E921B00FF
(1708107634.633912) can1 09F20000#000000FFFFFFFFFF
(1708107634.634493) can1 0CEF0100#B020000000625400
(1708107634.637838) can1 18FF1CF3#0000000000000000
(1708107634.640269) can1 04EF001C#F84E8FE8F90E8ECC
(1708107634.648312) can1 0CF00400#FF7D7D000000FFFF
(1708107634.650364) can1 04EF001C#ED51625FEC51633B
(1708107634.653331) can1 18FEEF00#FFFFFF00FFFFFFFF
(1708107634.653912) can1 0CEF0100#B020000000625400
(1708107634.657816) can1 0CEF0017#812B8813CD0AFFFF
(1708107634.658431) can1 18FEF200#0000FFFFFFFF37FF
(1708107634.660478) can1 04EF001C#AC540952AD9408F6
(1708107634.668322) can1 0CF00400#FF7D7D000000FFFF
(1708107634.668907) can1 0CEF1100#D0FBA1A9A6CA22FE
(1708107634.669429) can1 18E8FF00#02FFFFFFFF00EF00
(1708107634.670607) can1 04EF001C#CD577359CC9772FD
(1708107634.673332) can1 18FFDC00#A014010000507B19
(1708107634.673920) can1 0CEF0100#B020000000625400
(1708107634.677846) can1 18FF1CF3#0000000000000000
(1708107634.678421) can1 0CF00300#CF004FFF00FFFFFF
(1708107634.678980) can1 18FFDC00#A110000000A4FFA3
(1708107634.679550) can1 18FF1080#000000FFFFFFFD00
(1708107634.680524) can1 18FF1180#0400FCFDFFFF02FF
(1708107634.681064) can1 04EF001C#645AB71C65FAB6D8
(1708107634.683293) can1 18FFDC00#A2FFFF6E921B00FF
(1708107634.683848) can1 0CEF1700#01AB8813CD0AFFFF
(1708107634.688323) can1 0CF00400#FF7D7D000000FFFF
(1708107634.690819) can1 04EF001C#EC5C0B5AEDDC0ABE
(1708107634.693341) can1 0CEF0100#B020000000625400
(1708107634.693928) can1 18FEF600#FFFF3C2AFFFFFFFF
(1708107634.698311) can1 18FEF100#FF1A00F5FF11DFFF
(1708107634.700943) can1 04EF001C#785F83F97A7F81BD
(1708107634.708318) can1 0CF00400#FF7D7D000000FFFF
(1708107634.711040) can1 04EF001C#384229E43A822B40
(1708107634.713338) can1 0CEF0100#B020000000625400
(1708107634.714810) can1 18FF1C17#0001500000000000
(1708107634.717869) can1 0CEF0017#812B8813CD0AFFFF
(1708107634.718449) can1 0CEF1100#9EF6985A6C86172F
(1708107634.721154) can1 04EF001C#F944DEEAFBC4DC0E
(1708107634.723303) can1 18FFDC00#C014010000507B19
(1708107634.728311) can1 18FFDC00#C110000000A4FFA3
(1708107634.728861) can1 0CF00300#CF004FFF00FFFFFF
(1708107634.729437) can1 0CF00400#FF7D7D000000FFFF
(1708107634.730017) can1 18E8FF00#02FFFFFFFF00EF00
(1708107634.731324) can1 04EF001C#4C480E4E4F280D4A
(1708107634.733307) can1 18FFDC00#C2FFFF6E921B00FF
(1708107634.733910) can1 09F20000#000000FFFFFFFFFF
(1708107634.734494) can1 0CEF0100#B020000000625400
(1708107634.741388) can1 04EF001C#784A2BEC7B2A28E8
(1708107634.748315) can1 0CF00400#FF7D7D000000FFFF
(1708107634.751483) can1 04EF001C#374D5E9335ED5C57
(1708107634.753335) can1 0CEF0100#B020000000625400
(1708107634.757850) can1 18FF1CF3#0000000000000000
(1708107634.758427) can1 18FEF200#0000FFFFFFFF37FF
(1708107634.761635) can1 04EF001C#F84F87E9FA8F854D
(1708107634.768326) can1 0CF00400#FF7D7D000000FFFF
(1708107634.768911) can1 0CEF1100#4FEA4A952C4C716E
(1708107634.771710) can1 04EF001C#B752228CB5B22008
(1708107634.773326) can1 18FFDC00#E014010000507B19
(1708107634.773930) can1 0CEF0100#B020000000625400
(1708107634.778297) can1 18FFDC00#E111000000A4FFA3
(1708107634.778902) can1 0CF00300#CF004FFF00FFFFFF
(1708107634.779518) can1 18FF1080#000000FFFFFFFD00
(1708107634.780517) can1 18FF1180#0400FCFDFFFF02FF
(1708107634.781517) can1 18FF1380#000000003FC0C006
(1708107634.782098) can1 04EF001C#E2554D23E0554F47
(1708107634.783284) can1 18FFDC00#E2FFFF6E921B00FF
(1708107634.788309) can1 0CF00400#FF7D7D000000FFFF
(1708107634.791952) can1 04EF001C#C658000EC458026A
(1708107634.793338) can1 0CEF0100#B020000000625400
(1708107634.798311) can1 18FEF100#FF1C00F5FF11DFFF
(1708107634.802065) can1 04EF001C#865B5A0D845B5869
(1708107634.808307) can1 0CF00400#FF7D7D000000FFFF
(1708107634.812179) can1 04EF001C#215ED030231ED214
(1708107634.813327) can1 0CEF0100#B020000000625400
(1708107634.818292) can1 0CEF1100#789AC6F21DF3853F
(1708107634.822308) can1 04EF001C#06410E1707C10FF3
(1708107634.823323) can1 18FFDC00#0014010000507B19
(1708107634.828296) can1 18FFDC00#0112000000A4FFA3
(1708107634.828910) can1 0CF00300#CF004FFF00FFFFFF
(1708107634.829542) can1 0CF00400#FF7D7D000000FFFF
(1708107634.832392) can1 04EF001C#C543DB0DC483DAA9
(1708107634.833301) can1 18FFDC00#02FFFF6E921B00FF
(1708107634.833900) can1 09F20000#000000FFFFFFFFFF
(1708107634.834531) can1 09F8021C#89FC45EB0000FFFF
(1708107634.835041) can1 0CEF0100#B020000000625400
(1708107634.835669) can1 09F8011C#B86E2618186B5BC1
(1708107634.836576) can1 19FA031C#89D25F00A5006700
(1708107634.837467) can1 0DF0101C#89F0A34DB05F832B
(1708107634.838028) can1 0CEF0017#812B8813CD0AFFFF
(1708107634.838592) can1 18FEE81C#8FAC000021647D7E
(1708107634.839533) can1 19FA041C#A09389FF0C01C611
(1708107634.840534) can1 19FA041C#A158CA9411FFFFFF
(1708107634.841553) can1 19FA041C#A2FFFF05B329D020
(1708107634.842486) can1 04EF001C#AF469A58AEA69BDC
(1708107634.843584) can1 19FA041C#A3CC10FFFFFFFFFF
(1708107634.844603) can1 19FA041C#A40B000000000000
(1708107634.845600) can1 19FA041C#A5FFFFFFFFFF0C6B
(1708107634.846606) can1 19FA041C#A6030C7B0000FFFF
(1708107634.847608) can1 19FA041C#A7FFFFFF0DD313D4
(1708107634.848363) can1 0CF00400#FF7D7D000000FFFF
(1708107634.848893) can1 18E8FF00#02FFFFFFFF00EF00
(1708107634.849510) can1 18FECA00#40FF00000000FFFF
(1708107634.850034) can1 19FA041C#A849B80BFFFFFFFF
(1708107634.851650) can1 19FA041C#A9FF0F8F168A665C
(1708107634.852604) can1 04EF001C#71493AA770693BE3
(1708107634.853335) can1 0CEF0100#B020000000625400
(1708107634.853920) can1 19FA041C#AA12FFFFFFFFFF12
(1708107634.854726) can1 19FA041C#AB581BE0C4F811FF
(1708107634.855697) can1 19FA041C#ACFFFFFFFF143115
(1708107634.856743) can1 19FA041C#AD2E22280AFFFFFF
(1708107634.857720) can1 19FA041C#AEFFFF19AC0D748B
(1708107634.858300) can1 0CEA1C00#00EE000000000000
(1708107634.858919) can1 18FEF200#0000FFFFFFFF37FF
(1708107634.859463) can1 19FA041C#AF100EFFFFFFFFFF
(1708107634.860757) can1 19FA041C#B01AFD0C72CE3C0F
(1708107634.861771) can1 19FA041C#B1FFFFFFFFFF1D79
(1708107634.862722) can1 04EF001C#1E4C7EDA1ECC7E3E
(1708107634.863792) can1 19FA041C#B23B9CC76810FFFF
(1708107634.864855) can1 19FA041C#B3FFFFFF30A91A30
(1708107634.865819) can1 19FA041C#B48E0410FFFFFFFF
(1708107634.866811) can1 19FA041C#B5FFFFFFFFFFFFFF
(1708107634.867797) can1 18EEFF1C#0204450E00000042
(1708107634.868376) can1 0CEF1100#86992682DB716C8B
(1708107634.868909) can1 0CF00400#FF7D7D000000FFFF
(1708107634.872844) can1 04EF001C#374E469037EE4654
(1708107634.873444) can1 0CEF0100#B020000000625400
(1708107634.873996) can1 18FFDC00#2014010000507B19
(1708107634.877861) can1 18FF1CF3#0000000000000000
(1708107634.878452) can1 0CF00300#CF004FFF00FFFFFF
(1708107634.879008) can1 18FFDC00#2112000000A4FFA3
(1708107634.880301) can1 15FD069B#BE8673FFFFFFFFFF
(1708107634.880991) can1 18FF1080#000000FFFFFFFD00
(1708107634.881612) can1 18FF1180#0400FCFDFFFF02FF
(1708107634.882964) can1 04EF001C#F9507EFEF9507E9A
(1708107634.883532) can1 18FFDC00#22FFFF6E921B00FF
(1708107634.888311) can1 0CF00400#FF7D7D000000FFFF
(1708107634.893052) can1 04EF001C#B7532A8DB7132AA9
(1708107634.893622) can1 0CEF0100#B020000000625400
(1708107634.897827) can1 0CEF0017#812B8813CD0AFFFF
(1708107634.898436) can1 18FEF100#FF1E00F5FF11DFFF
(1708107634.903166) can1 04EF001C#7956CAF886D1351B
(1708107634.908311) can1 0CF00400#FF7D7D000000FFFF
(1708107634.908903) can1 18E8FF00#02FFFFFFFF00EF00
(1708107634.913288) can1 04EF001C#3759FE87C89E0124
(1708107634.913855) can1 0CEF0100#B020000000625400
(1708107634.914642) can1 18FF1C17#0001500000000000
(1708107634.918302) can1 0CEF1100#C8941F71113D595A
(1708107634.923306) can1 18FFDC00#4014010000507B19
(1708107634.923888) can1 04EF001C#F85B27FD075CD89E
(1708107634.928293) can1 18FFDC00#4113000000A4FFA3
(1708107634.928906) can1 0CF00300#CF004FFF00FFFFFF
(1708107634.929476) can1 0CF00400#FF7D7D000000FFFF
(1708107634.933298) can1 18FFDC00#42FFFF6E921B00FF
(1708107634.933829) can1 04EF001C#B85E4DC84749B28B
(1708107634.934535) can1 09F20000#000000FFFFFFFFFF
(1708107634.935077) can1 0CEF0100#B020000000625400
(1708107634.943624) can1 04EF001C#794172DF86568D9C
(1708107634.948313) can1 0CF00400#FF7D7D000000FFFF
(1708107634.953332) can1 0CEF0100#B020000000625400
(1708107634.953881) can1 04EF001C#384419D2C733E6F1
(1708107634.957836) can1 0CEF0017#812B8813CD0AFFFF
(1708107634.958439) can1 18FEF200#0000FFFFFFFF37FF
(1708107634.963833) can1 04EF001C#F946CED8061131DB
(1708107634.968309) can1 0CF00400#FF7D7D000000FFFF
(1708107634.968910) can1 0CEF1100#168F3607E3EA114A
(1708107634.969439) can1 18E8FF00#02FFFFFFFF00EF00
(1708107634.973322) can1 18FFDC00#6014010000507B19
(1708107634.973906) can1 0CEF0100#B020000000625400
(1708107634.974446) can1 04EF001C#B849F5DF475E0A9C
(1708107634.977862) can1 18FF1CF3#0000000000000000
(1708107634.978430) can1 0CF00300#CF004FFF00FFFFFF
(1708107634.979067) can1 18FFDC00#6113000000A4FFA3
(1708107634.980518) can1 18FF1080#000000FFFFFFFD00
(1708107634.981513) can1 18FF1180#0400FCFDFFFF02FF
(1708107634.982518) can1 18FF1380#000000003FC0C006
(1708107634.983287) can1 18FFDC00#62FFFF6E921B00FF
(1708107634.984094) can1 04EF001C#E24C850A1D7B7A69
(1708107634.988311) can1 0CF00400#FF7D7D000000FFFF
(1708107634.993338) can1 0CEF0100#B020000000625400
(1708107634.994209) can1 04EF001C#A24FDF095D78206A
(1708107634.998308) can1 18FEF100#FF1F00F5FF11DFFF
(1708107635.004292) can1 04EF001C#8652123479A5ED97
(1708107635.008312) can1 0CF00400#FF7D7D000000FFFF
(1708107635.013349) can1 0CEF0100#B020000000625400
(1708107635.014440) can1 04EF001C#2155880BDEA277A8
(1708107635.018300) can1 0CEF1100#6CBAC35B5ACD720E
(1708107635.023320) can1 18FFDC00#8014010000507B19
(1708107635.024524) can1 04EF001C#0B58CB56F4CF3495
(1708107635.028298) can1 18FFDC00#8113000000A4FFA3
(1708107635.028923) can1 0CF00300#CF004FFF00FFFFFF
(1708107635.029439) can1 0CF00400#FF7D7D000000FFFF
(1708107635.033311) can1 18FFDC00#82FFFF6E921B00FF
(1708107635.033935) can1 09F20000#000000FFFFFFFFFF
(1708107635.034477) can1 0CEF0100#B020000000625400
(1708107635.035052) can1 04EF001C#EE5A397C11EDC69F
(1708107635.037841) can1 0CEF0017#812B8813CD0AFFFF
(1708107635.044757) can1 04EF001C#F85C1FCA07CBE009
(1708107635.048307) can1 0CF00400#FF7D7D000000FFFF
(1708107635.048983) can1 18E8FF00#02FFFFFFFF00EF00
(1708107635.053341) can1 0CEF0100#B020000000625400
(1708107635.054857) can1 04EF001C#DD5F23E122A8DC42
(1708107635.058328) can1 18FEF200#0000FFFFFFFF37FF
(1708107635.064945) can1 04EF001C#7A4269C485959647
(1708107635.068305) can1 0CF00400#FF7D7D000000FFFF
(1708107635.068921) can1 0CEF1100#AAB92CEB262BB069
(1708107635.073320) can1 18FFDC00#A014010000507B19
(1708107635.073933) can1 0CEF0100#B020000000625400
(1708107635.075072) can1 04EF001C#9445B8B36BB24710
(1708107635.078308) can1 18FFDC00#A113000000A4FFA3
(1708107635.078877) can1 0CF00300#CF004FFF00FFFFFF
(1708107635.081539) can1 18FF1080#000000FFFFFFFD00
(1708107635.082517) can1 18FF1180#0300FCFDFFFF02FF
(1708107635.083299) can1 18FFDC00#A2FFFF6E921B00FF
(1708107635.085171) can1 04EF001C#2D486C76D2BF93D5
(1708107635.088309) can1 0CF00400#FF7D7D000000FFFF
(1708107635.093331) can1 0CEF0100#B020000000625400
(1708107635.095284) can1 04EF001C#EC4ABB7C139D44FF
(1708107635.097871) can1 18FF1CF3#0000000000000000
(1708107635.098467) can1 18FEF100#FF2000F5FF11DFFF
(1708107635.105381) can1 04EF001C#784D13DB879AEC58
(1708107635.108341) can1 0CF00400#FF7D7D000000FFFF
(1708107635.113333) can1 0CEF0100#B020000000625400
(1708107635.115496) can1 04EF001C#6C50EF6693671005
(1708107635.117847) can1 0CEF0017#812B8813CD0AFFFF
(1708107635.118384) can1 0CEF1100#F8A8F2FFD45F437E
(1708107635.123314) can1 18FFDC00#C014010000507B19
(1708107635.125612) can1 04EF001C#2C53B565D3844AE6
(1708107635.128289) can1 18FFDC00#C113000000A4FFA3
(1708107635.128869) can1 0CF00300#CF004FFF00FFFFFF
(1708107635.129447) can1 0CF00400#FF7D7D000000FFFF
(1708107635.130026) can1 18E8FF00#02FFFFFFFF00EF00
(1708107635.133304) can1 18FFDC00#C2FFFF6E921B00FF
(1708107635.133905) can1 09F20000#000000FFFFFFFFFF
(1708107635.134474) can1 0CEF0100#B020000000625400
(1708107635.135753) can1 04EF001C#1456A4A0EBA15B03
(1708107635.138325) can1 09F20100#A016000100FFFFBC
(1708107635.143294) can1 09F20100#A172C90400006E92
(1708107635.145840) can1 04EF001C#7858BBCE87CF440D
(1708107635.148308) can1 0CF00400#FF7D7D000000FFFF
(1708107635.148880) can1 09F20100#A21B00FFFFFFFF00
(1708107635.149471) can1 18FEEE00#3CFFFFFFFFFF42FF
(1708107635.153319) can1 09F20100#A30100FFFFFFFFFF
(1708107635.153933) can1 0CEF0100#B020000000625400
(1708107635.154492) can1 18FEEF00#FFFFFF00FFFFFFFF
(1708107635.155966) can1 04EF001C#945B48AD6BECB74E
(1708107635.157861) can1 18FF1CF3#0000000000000000
(1708107635.158465) can1 18FEF200#0000FFFFFFFF37FF
(1708107635.163316) can1 18FEF700#FFFF1A01F500F600
(1708107635.166066) can1 04EF001C#F95D16C3F90D16C7
(1708107635.168307) can1 0CF00400#FF7D7D000000FFFF
(1708107635.168932) can1 0CEF1100#20ADAA3E16990369
(1708107635.173328) can1 18FFDC00#E014010000507B19
(1708107635.173952) can1 0CEF0100#B020000000625400
(1708107635.176170) can1 04EF001C#ED40EA7EED50EA3A
(1708107635.178317) can1 18FFDC00#E114000000A4FFA3
(1708107635.178894) can1 0CF00300#CF004FFF00FFFFFF
(1708107635.181528) can1 18FF1080#000000FFFFFFFD00
(1708107635.182504) can1 18FF1180#0300FCFDFFFF02FF
(1708107635.183292) can1 18FFDC00#E2FFFF6E921B00FF
(1708107635.183853) can1 0CEF1700#01AB8813CD0AFFFF
(1708107635.184457) can1 18FF1380#000000003FC0C006
(1708107635.185049) can1 18FF1C17#0001500000000000
(1708107635.186298) can1 04EF001C#194439DA1994395E
(1708107635.188308) can1 0CF00400#FF7D7D000000FFFF
(1708107635.188892) can1 18FEFC00#FFA3FFFFFFFFFFFF
(1708107635.193340) can1 0CEF0100#B020000000625400
(1708107635.193896) can1 18FEF600#FFFF3C2AFFFFFFFF
(1708107635.196407) can1 04EF001C#FD46CAF8FDD6CA3C
(1708107635.197840) can1 0CEF0017#812B8813CD0AFFFF
(1708107635.198431) can1 18FEF100#FF2100F5FF11DFFF
(1708107635.206528) can1 04EF001C#8649CA2F86F9CACB
(1708107635.208308) can1 0CF00400#FF7D7D000000FFFF
(1708107635.208929) can1 18E8FF00#02FFFFFFFF00EF00
(1708107635.213337) can1 0CEF0100#B020000000625400
(1708107635.216635) can1 04EF001C#214C4012201C4116
(1708107635.218286) can1 0CEF1100#95DEDAC940423483
(1708107635.223330) can1 18FFDC00#0014010000507B19
(1708107635.226735) can1 04EF001C#E24E9508E35E944C
(1708107635.228302) can1 18FFDC00#0114000000A4FFA3
(1708107635.228866) can1 0CF00300#CF004FFF00FFFFFF
(1708107635.229463) can1 0CF00400#FF7D7D000000FFFF
(1708107635.233303) can1 18FFDC00#02FFFF6E921B00FF
(1708107635.233922) can1 09F20000#000000FFFFFFFFFF
(1708107635.234508) can1 0CEF0100#B020000000625400
(1708107635.236881) can1 04EF001C#FD5172EFFC81736B
(1708107635.246958) can1 04EF001C#F85367C5F9C36601
(1708107635.248340) can1 0CF00400#FF7D7D000000FFFF
(1708107635.253332) can1 0CEF0100#B020000000625400
(1708107635.257094) can1 04EF001C#B8560DC0BA060FC4
(1708107635.257900) can1 18FF1CF3#0000000000000000
(1708107635.258477) can1 18FEF200#0000FFFFFFFF37FF
(1708107635.267171) can1 04EF001C#7959B2C77B49B083
(1708107635.268312) can1 0CF00400#FF7D7D000000FFFF
(1708107635.268870) can1 0CEF1100#55DD34C903289698
(1708107635.273333) can1 18FFDC00#2014010000507B19
(1708107635.273926) can1 0CEF0100#B020000000625400
(1708107635.277296) can1 04EF001C#395CD8C23B8CDA46
(1708107635.278301) can1 18FFDC00#2114000000A4FFA3
(1708107635.278890) can1 0CF00300#CF004FFF00FFFFFF
(1708107635.280002) can1 0DF50B9B#60FFFFFFFF0000FF
(1708107635.282531) can1 18FF1080#000000FFFFFFFD00
(1708107635.283291) can1 18FFDC00#22FFFF6E921B00FF
(1708107635.283869) can1 18FF1180#0300FCFDFFFF02FF
(1708107635.287413) can1 04EF001C#F85E0FC8FACE0D0C
(1708107635.288314) can1 0CF00400#FF7D7D000000FFFF
(1708107635.293328) can1 0CEF0100#B020000000625400
(1708107635.297508) can1 04EF001C#B741BA9FB5C1B87B
(1708107635.298415) can1 18FEF100#FF2200F5FF11DFFF
(1708107635.307620) can1 04EF001C#78445BE27B2458E6
(1708107635.308315) can1 0CF00400#FF7D7D000000FFFF
(1708107635.313332) can1 0CEF0100#B020000000625400
(1708107635.317754) can1 04EF001C#394700E93A2703ED
(1708107635.318295) can1 0CEF1100#09CCE92D72C39A13
(1708107635.323313) can1 18FFDC00#4014010000507B19
(1708107635.327852) can1 04EF001C#F849B7EFFB69B4AB
(1708107635.328457) can1 0CF00300#CF004FFF00FFFFFF
(1708107635.328995) can1 0CF00400#FF7D7D000000FFFF
(1708107635.329553) can1 18FFDC00#4115000000A4FFA3
(1708107635.333305) can1 18FFDC00#42FFFF6E921B00FF
(1708107635.333914) can1 09F20000#000000FFFFFFFFFF
(1708107635.334478) can1 0CEF0100#B020000000625400
(1708107635.337860) can1 0CEF0017#812B8813CD0AFFFF
(1708107635.338445) can1 04EF001C#B74CD292B40CD1B6
(1708107635.340007) can1 09F8021C#8AFC45EB0000FFFF
(1708107635.341011) can1 09F8011C#BA6E2618206B5BC1
(1708107635.342011) can1 19FA031C#8AD25F00A5006700
(1708107635.343024) can1 0DF0101C#8AF0A34DC086832B
(1708107635.344107) can1 18FEE81C#8FAC000021647D7E
(1708107635.345156) can1 19FA041C#C0938AFF0C01C611
(1708107635.346111) can1 19FA041C#C158CA6810FFFFFF
(1708107635.347129) can1 19FA041C#C2FFFF05B329D020
(1708107635.348063) can1 04EF001C#2E50AF462D30AC42
(1708107635.348653) can1 0CF00400#FF7D7D000000FFFF
(1708107635.349233) can1 18E8FF00#02FFFFFFFF00EF00
(1708107635.349822) can1 19FA041C#C30410FFFFFFFFFF
(1708107635.351192) can1 19FA041C#C40B000000000000
(1708107635.352185) can1 19FA041C#C5FFFFFFFFFF0C6B
(1708107635.353192) can1 19FA041C#C6030C7B0000FFFF
(1708107635.353795) can1 0CEF0100#B020000000625400
(1708107635.354377) can1 19FA041C#C7FFFFFF0DD313D4
(1708107635.355236) can1 19FA041C#C849B80BFFFFFFFF
(1708107635.356216) can1 19FA041C#C9FF0F8F168A6694
(1708107635.357234) can1 19FA041C#CA11FFFFFFFFFF12
(1708107635.357847) can1 0CEF0017#812B8813CD0AFFFF
(1708107635.358391) can1 04EF001C#DC524AD4DEF24810
(1708107635.358973) can1 18FEF200#0000FFFFFFFF37FF
(1708107635.359574) can1 19FA041C#CB581BE0C43011FF
(1708107635.360288) can1 19FA041C#CCFFFFFFFF143115
(1708107635.361279) can1 19FA041C#CD2E22280AFFFFFF
(1708107635.362282) can1 19FA041C#CEFFFF19AC0D748B
(1708107635.363310) can1 19FA041C#CF100EFFFFFFFFFF
(1708107635.364303) can1 19FA041C#D01AFD0C72CE740E
(1708107635.365323) can1 19FA041C#D1FFFFFFFFFF1D79
(1708107635.366341) can1 19FA041C#D23B9CC70410FFFF
(1708107635.367342) can1 19FA041C#D3FFFFFF30A91A30
(1708107635.368314) can1 0CF00400#FF7D7D000000FFFF
(1708107635.368859) can1 04EF001C#A8550573AA550717
(1708107635.369432) can1 0CEF1100#F8FAE2E9E4CB62EE
(1708107635.369979) can1 18E8FF00#02FFFFFFFF00EF00
(1708107635.370546) can1 19FA041C#D48E0410FFFFFFFF
(1708107635.371398) can1 19FA041C#D5FFFFFFFFFFFFFF
(1708107635.373324) can1 18FFDC00#6014010000507B19
(1708107635.373894) can1 0CEF0100#B020000000625400
(1708107635.374931) can1 18FF1C17#0001100000000000
(1708107635.377885) can1 18FF1CF3#0000000000000000
(1708107635.378460) can1 04EF001C#2158E0362318E212
(1708107635.379002) can1 0CF00300#CF004FFF00FFFFFF
(1708107635.379564) can1 15FD069B#BF8673FFFFFFFFFF
(1708107635.380172) can1 18FFDC00#6115000000A4FFA3
(1708107635.382522) can1 18FF1080#000000FFFFFFFD00
(1708107635.383284) can1 18FFDC00#62FFFF6E921B00FF
(1708107635.383865) can1 18FF1180#0300FCFDFFFF02FF
(1708107635.384580) can1 18FF1380#000000003FC0C006
(1708107635.388311) can1 0CF00400#FF7D7D000000FFFF
(1708107635.388884) can1 04EF001C#065BDE0D07DBDFE9
(1708107635.393335) can1 0CEF0100#B020000000625400
(1708107635.398337) can1 18FEF100#FF2300F5FF11DFFF
(1708107635.398877) can1 04EF001C#C75D2903C69D28A7
(1708107635.408308) can1 0CF00400#FF7D7D000000FFFF
(1708107635.408928) can1 04EF001C#6240613663A060B2
(1708107635.413336) can1 0CEF0100#B020000000625400
(1708107635.418308) can1 0CEF1100#CFF03E93BFEAE5F5
(1708107635.418890) can1 04EF001C#46435C1547435D71
(1708107635.423324) can1 18FFDC00#8014010000507B19
(1708107635.428294) can1 18FFDC00#8115000000A4FFA3
(1708107635.428909) can1 0CF00300#CF004FFF00FFFFFF
(1708107635.429508) can1 04EF001C#0646361007663754
(1708107635.430046) can1 0CF00400#FF7D7D000000FFFF
(1708107635.433308) can1 18FFDC00#82FFFF6E921B00FF
(1708107635.433923) can1 09F20000#000000FFFFFFFFFF
(1708107635.434482) can1 0CEF0100#B020000000625400
(1708107635.437866) can1 0CEF0017#812B8813CD0AFFFF
(1708107635.439070) can1 04EF001C#A248E73EA308E61A
(1708107635.448305) can1 0CF00400#FF7D7D000000FFFF
(1708107635.448927) can1 18E8FF00#02FFFFFFFF00EF00
(1708107635.449486) can1 04EF001C#F84AAFECF96AAEA8
(1708107635.453341) can1 0CEF0100#B020000000625400
(1708107635.457887) can1 18FF1CF3#0000000000000000
(1708107635.458521) can1 18FEF200#0000FFFFFFFF37FF
(1708107635.459306) can1 04EF001C#B94DD4E3B86DD5A7
(1708107635.468308) can1 0CF00400#FF7D7D000000FFFF
(1708107635.468894) can1 0CEF1100#88F40D6AD9B50F06
(1708107635.469491) can1 04EF001C#7850FBF67950FA92
(1708107635.473319) can1 18FFDC00#A014010000507B19
(1708107635.473923) can1 0CEF0100#B020000000625400
(1708107635.478303) can1 18FFDC00#A116000000A4FFA3
(1708107635.478864) can1 0CF00300#CF004FFF00FFFFFF
(1708107635.479571) can1 04EF001C#5C53C6D55DB3C751
(1708107635.483313) can1 18FFDC00#A2FFFF6E921B00FF
(1708107635.483884) can1 18FF1080#000000FFFFFFFD00
(1708107635.484509) can1 18FF1180#0300FCFDFFFF02FF
(1708107635.488310) can1 0CF00400#FF7D7D000000FFFF
(1708107635.489653) can1 04EF001C#1D56ADD81CB6AC5C
(1708107635.493337) can1 0CEF0100#B020000000625400
(1708107635.498316) can1 18FEF100#FF2400F5FF11DFFF
(1708107635.499764) can1 04EF001C#DE5818CEDF98196A
(1708107635.508310) can1 0CF00400#FF7D7D000000FFFF
(1708107635.509882) can1 04EF001C#9D5B41D59CFB4011
(1708107635.513368) can1 0CEF0100#B020000000625400
(1708107635.518299) can1 0CEF1100#5FE62E168D6A4064
(1708107635.519963) can1 04EF001C#955E619094FE6054
(1708107635.523303) can1 18FFDC00#C014010000507B19
(1708107635.528297) can1 18FFDC00#C116000000A4FFA3
(1708107635.528866) can1 0CF00300#CF004FFF00FFFFFF
(1708107635.529480) can1 0CF00400#FF7D7D000000FFFF
(1708107635.530193) can1 04EF001C#55415F8F57215D8B
(1708107635.533308) can1 18FFDC00#C2FFFF6E921B00FF
(1708107635.533888) can1 09F20000#000000FFFFFFFFFF
(1708107635.534469) can1 0CEF0100#B020000000625400
(1708107635.540182) can1 04EF001C#B743AA9DB523A899
(1708107635.548309) can1 0CF00400#FF7D7D000000FFFF
(1708107635.550288) can1 04EF001C#AD469848AF269A4C
(1708107635.553338) can1 0CEF0100#B020000000625400
(1708107635.557875) can1 0CEF0017#812B8813CD0AFFFF
(1708107635.558476) can1 18FEF200#0000FFFFFFFF37FF
(1708107635.560400) can1 04EF001C#6C49274F6E09256B
(1708107635.568307) can1 0CF00400#FF7D7D000000FFFF
(1708107635.568911) can1 0CEF1100#6F991B8A14C3C0B6
(1708107635.569430) can1 18E8FF00#02FFFFFFFF00EF00
(1708107635.570562) can1 04EF001C#B74CD292B50CD0B6
(1708107635.573332) can1 18FFDC00#E014010000507B19
(1708107635.573968) can1 0CEF0100#B020000000625400
(1708107635.577899) can1 18FF1CF3#0000000000000000
(1708107635.578486) can1 0CF00300#CF004FFF00FFFFFF
(1708107635.579068) can1 18FFDC00#E116000000A4FFA3
(1708107635.580645) can1 04EF001C#B94FC4E1BB4FC685
(1708107635.583290) can1 18FFDC00#E2FFFF6E921B00FF
(1708107635.583918) can1 18FF1080#000000FFFFFFFD00
(1708107635.584558) can1 18FF1180#0300FCFDFFFF02FF
(1708107635.585526) can1 18FF1380#000000003FC0C006
(1708107635.588312) can1 0CF00400#FF7D7D000000FFFF
(1708107635.590772) can1 04EF001C#3E52AFC43CB2AD40
(1708107635.593339) can1 0CEF0100#B020000000625400
(1708107635.597863) can1 0CEF0017#812B8813CD0AFFFF
(1708107635.598467) can1 18FEF100#FF2500F5FF11DFFF
(1708107635.600875) can1 04EF001C#FD545ADAFFB4585E
(1708107635.604984) can1 18FF1C17#0001100000000000
(1708107635.608308) can1 0CF00400#FF7D7D000000FFFF
(1708107635.608911) can1 18E8FF00#02FFFFFFFF00EF00
(1708107635.610977) can1 04EF001C#9A5726E198F72425
(1708107635.613340) can1 0CEF0100#B020000000625400
(1708107635.618299) can1 0CEF1100#A79407C97E22B9E2
(1708107635.621109) can1 04EF001C#215AF03423DAF2D0
(1708107635.623312) can1 18FFDC00#0014010000507B19
(1708107635.628297) can1 18FFDC00#0117000000A4FFA3
(1708107635.628899) can1 0CF00300#CF004FFF00FFFFFF
(1708107635.629445) can1 0CF00400#FF7D7D000000FFFF
(1708107635.631206) can1 04EF001C#765D9D8B74DD9F6F
(1708107635.633309) can1 18FFDC00#02FFFF6E921B00FF
(1708107635.633902) can1 09F20000#000000FFFFFFFFFF
(1708107635.634472) can1 0CEF0100#B020000000625400
(1708107635.641322) can1 04EF001C#385FC1F93ADFC31D
(1708107635.648308) can1 0CF00400#FF7D7D000000FFFF
(1708107635.651429) can1 04EF001C#FA41F5F7F8C1F713
(1708107635.653329) can1 18FEEF00#FFFFFF00FFFFFFFF
(1708107635.653911) can1 0CEF0100#B020000000625400
(1708107635.657910) can1 18FF1CF3#0000000000000000
(1708107635.658491) can1 18FEF200#0000FFFFFFFF37FF
(1708107635.661532) can1 04EF001C#B8449DE2BB249EE6
(1708107635.668304) can1 0CF00400#FF7D7D000000FFFF
(1708107635.668896) can1 0CEF1100#F888F2F69C570136
(1708107635.671633) can1 04EF001C#794742E97A2741ED
(1708107635.673335) can1 18FFDC00#2014010000507B19
(1708107635.673908) can1 0CEF0100#B020000000625400
(1708107635.677884) can1 0CEF0017#812B8813CD0AFFFF
(1708107635.678475) can1 0CF00300#CF004FFF00FFFFFF
(1708107635.679053) can1 18FFDC00#2117000000A4FFA3
(1708107635.681754) can1 04EF001C#384A69EC3B2A6AE8
(1708107635.683297) can1 18FFDC00#22FFFF6E921B00FF
(1708107635.683851) can1 0CEF1700#01AB8813CD0AFFFF
(1708107635.684549) can1 18FF1080#000000FFFFFFFD00
(1708107635.685530) can1 18FF1180#0300FCFDFFFF02FF
(1708107635.688311) can1 0CF00400#FF7D7D000000FFFF
(1708107635.688882) can1 18E8FF00#02FFFFFFFF00EF00
(1708107635.691877) can1 04EF001C#F84C9FEAFB0C9CCE
(1708107635.693336) can1 0CEF0100#B020000000625400
(1708107635.693932) can1 18FEF600#FFFF3C2AFFFFFFFF
(1708107635.698311) can1 18FEF100#FF2600F5FF11DFFF
(1708107635.701984) can1 04EF001C#B84FC5E9BB0FC6CD
(1708107635.708310) can1 0CF00400#FF7D7D000000FFFF
(1708107635.712086) can1 04EF001C#7A52E9E47932EAE0
(1708107635.713334) can1 0CEF0100#B020000000625400
(1708107635.718296) can1 0CEF1100#17BADE438EFEF26F
(1708107635.722190) can1 04EF001C#37559E8B34359D8F
(1708107635.723310) can1 18FFDC00#4014010000507B19
(1708107635.728294) can1 18FFDC00#4118000000A4FFA3
(1708107635.728898) can1 0CF00300#CF004FFF00FFFFFF
(1708107635.729499) can1 0CF00400#FF7D7D000000FFFF
(1708107635.732320) can1 04EF001C#F85747E1FB0744C5
(1708107635.733298) can1 18FFDC00#42FFFF6E921B00FF
(1708107635.733919) can1 09F20000#000000FFFFFFFFFF
(1708107635.734511) can1 0CEF0100#B020000000625400
(1708107635.742422) can1 04EF001C#B85A6DECBB0A6EC8
(1708107635.748306) can1 0CF00400#FF7D7D000000FFFF
(1708107635.752524) can1 04EF001C#785D93EB7B2D90EF
(1708107635.753334) can1 0CEF0100#B020000000625400
(1708107635.758334) can1 18FEF200#0000FFFFFFFF37FF
(1708107635.762654) can1 04EF001C#384039F63AD03B12
(1708107635.768308) can1 0CF00400#FF7D7D000000FFFF
(1708107635.768901) can1 0CEF1100#55BFA4D2EBAA01C4
