(1708107810.721886) can1 18FF1080#000000FFFFFFFD00
(1708107810.722928) can1 18FF1180#0300FCFDFFFF02FF
(1708107810.723461) can1 18FFDC00#C014010000507B19
(1708107810.727011) can1 04EF001C#F946CE88F986CE4C
(1708107810.728233) can1 18FFDC00#C100000000A4FFA3
(1708107810.728869) can1 0CF00300#CF004FFF00FFFFFF
(1708107810.729380) can1 0CF00400#FF7D7D000000FFFF
(1708107810.733240) can1 18FFDC00#C2FFFF6E921B00FF
(1708107810.733847) can1 09F20000#000000FFFFFFFFFF
(1708107810.734485) can1 0CEF0100#B020000000625400
(1708107810.737098) can1 04EF001C#B849F58FB889F54B
(1708107810.747200) can1 04EF001C#794C1A8279EC1A26
(1708107810.748246) can1 0CF00400#FF7D7D000000FFFF
(1708107810.749348) can1 0CEF0017#812B8813CD0AFFFF
(1708107810.753255) can1 0CEF0100#B020000000625400
(1708107810.757314) can1 04EF001C#394F408139EF4025
(1708107810.758258) can1 18FEF200#0000FFFFFFFF37FF
(1708107810.758822) can1 18E8FF00#02FFFFFFFF00EF00
(1708107810.767422) can1 04EF001C#F65179E7F6D17963
(1708107810.768293) can1 0CF00400#FF7D7D000000FFFF
(1708107810.768787) can1 0CEF1100#D5B418D0AA5223C9
(1708107810.773265) can1 18FFDC00#E014010000507B19
(1708107810.773848) can1 0CEF0100#B020000000625400
(1708107810.777549) can1 04EF001C#B8541D92B8341DF6
(1708107810.778278) can1 18FFDC00#E100000000A4FFA3
(1708107810.778809) can1 0CF00300#CF004FFF00FFFFFF
(1708107810.783232) can1 18FFDC00#E2FFFF6E921B00FF
(1708107810.787702) can1 04EF001C#7957C2997937C2FD
(1708107810.788248) can1 0CF00400#FF7D7D000000FFFF
(1708107810.789379) can1 18FF1CF3#0000000000000000
(1708107810.793255) can1 0CEF0100#B020000000625400
(1708107810.797768) can1 04EF001C#C55A1374C53A1310
(1708107810.798413) can1 18FEF100#FF0000F5FF11DFFF
(1708107810.807888) can1 04EF001C#875D6B63873D6B07
(1708107810.808441) can1 0CF00400#FF7D7D000000FFFF
(1708107810.813275) can1 0CEF0100#B020000000625400
(1708107810.817994) can1 04EF001C#2340225E23C022DA
(1708107810.818522) can1 0CEF1100#3AA4A46C747316FC
(1708107810.821880) can1 18FF1080#000000FFFFFFFD00
(1708107810.822865) can1 18FF1180#0300FCFDFFFF02FF
(1708107810.823439) can1 18FFDC00#0014010000507B19
(1708107810.824034) can1 18FF1380#000000003FC0C006
(1708107810.828111) can1 04EF001C#05431D6D05C31DE9
(1708107810.828707) can1 0CF00300#CF004FFF00FFFFFF
(1708107810.829241) can1 0CF00400#FF7D7D000000FFFF
(1708107810.829798) can1 0CEF0017#812B8813CD0AFFFF
(1708107810.830371) can1 18FFDC00#0100000000A4FFA3
(1708107810.833244) can1 18FFDC00#02FFFF6E921B00FF
(1708107810.833847) can1 09F20000#000000FFFFFFFFFF
(1708107810.834481) can1 0CEF0100#B020000000625400
(1708107810.838214) can1 04EF001C#C645E873C6E5E8D7
(1708107810.838815) can1 18E8FF00#02FFFFFFFF00EF00
(1708107810.848246) can1 0CF00400#FF7D7D000000FFFF
(1708107810.848840) can1 04EF001C#6348205663882092
(1708107810.849376) can1 18FECA00#40FF00000000FFFF
(1708107810.853275) can1 0CEF0100#B020000000625400
(1708107810.858261) can1 18FEF200#0000FFFFFFFF37FF
(1708107810.858787) can1 04EF001C#B84AED8CB8AAED68
(1708107810.868249) can1 0CF00400#FF7D7D000000FFFF
(1708107810.868779) can1 04EF001C#7A4D119B7B4D109F
(1708107810.869347) can1 0CEF1100#83D86FF8F66BFCB3
(1708107810.873263) can1 18FFDC00#2014010000507B19
(1708107810.873927) can1 0CEF0100#B020000000625400
(1708107810.878044) can1 18FF1C17#0001000000000000
(1708107810.878630) can1 0CF00300#CF004FFF00FFFFFF
(1708107810.879196) can1 04EF001C#3850B9963910B8D2
(1708107810.879707) can1 18FFDC00#2100000000A4FFA3
(1708107810.882652) can1 15FD069B#28C173FFFFFFFFFF
(1708107810.883239) can1 18FFDC00#22FFFF6E921B00FF
(1708107810.888255) can1 0CF00400#FF7D7D000000FFFF
(1708107810.888928) can1 04EF001C#F9526E9CF8126FD8
(1708107810.893256) can1 0CEF0100#B020000000625400
(1708107810.898252) can1 18FEF100#FF0000F5FF11DFFF
(1708107810.898904) can1 04EF001C#B955149BB81515DF
(1708107810.908253) can1 0CF00400#FF7D7D000000FFFF
(1708107810.909001) can1 04EF001C#7958BA967838BBF2
(1708107810.909627) can1 0CEA1C00#00EE000000000000
(1708107810.911055) can1 18EEFF1C#0204450E00000042
(1708107810.913265) can1 0CEF0100#B020000000625400
(1708107810.918215) can1 0CEF1100#52CA4D342339DE5D
(1708107810.919137) can1 04EF001C#395BE095383BE1F1
(1708107810.922899) can1 18FF1080#000000FFFFFFFD00
(1708107810.923468) can1 18FFDC00#4014010000507B19
(1708107810.924024) can1 18FF1180#0300FCFDFFFF02FF
(1708107810.928240) can1 18FFDC00#4100000000A4FFA3
(1708107810.928852) can1 0CF00300#CF004FFF00FFFFFF
(1708107810.929355) can1 04EF001C#F95D1693F83D17F7
(1708107810.929927) can1 0CF00400#FF7D7D000000FFFF
(1708107810.930510) can1 18FF1CF3#0000000000000000
(1708107810.933238) can1 18FFDC00#42FFFF6E921B00FF
(1708107810.933866) can1 09F20000#000000FFFFFFFFFF
(1708107810.934433) can1 0CEF0100#B020000000625400
(1708107810.939320) can1 04EF001C#B840BD86B920BCE2
(1708107810.948250) can1 0CF00400#FF7D7D000000FFFF
(1708107810.949363) can1 0CEF0017#812B8813CD0AFFFF
(1708107810.949929) can1 04EF001C#E343FC5DE223FD39
(1708107810.953268) can1 0CEF0100#B020000000625400
(1708107810.958265) can1 18FEF200#0000FFFFFFFF37FF
(1708107810.958848) can1 18E8FF00#02FFFFFFFF00EF00
(1708107810.959576) can1 04EF001C#5B4669985A0668DC
(1708107810.968250) can1 0CF00400#FF7D7D000000FFFF
(1708107810.968883) can1 0CEF1100#1BCE7D3DC6F9CB32
(1708107810.969795) can1 04EF001C#1E4956BF1F69579B
(1708107810.973257) can1 18FFDC00#6014010000507B19
(1708107810.973857) can1 0CEF0100#B020000000625400
(1708107810.978249) can1 18FFDC00#6100000000A4FFA3
(1708107810.978838) can1 0CF00300#CF004FFF00FFFFFF
(1708107810.979793) can1 04EF001C#DA4B849DDB4B8599
(1708107810.983228) can1 18FFDC00#62FFFF6E921B00FF
(1708107810.988251) can1 0CF00400#FF7D7D000000FFFF
(1708107810.989363) can1 0CEF0017#812B8813CD0AFFFF
(1708107810.989960) can1 04EF001C#644F1F6964AF1F8D
(1708107810.993257) can1 0CEF0100#B020000000625400
(1708107810.998250) can1 18FEF100#FF0000F5FF11DFFF
(1708107810.998846) can1 18E8FF00#02FFFFFFFF00EF00
(1708107811.000020) can1 04EF001C#1B528B8C1BB28B68
(1708107811.008250) can1 0CF00400#FF7D7D000000FFFF
(1708107811.009394) can1 18FF1CF3#0000000000000000
(1708107811.010104) can1 04EF001C#9A543E829AB43E66
(1708107811.013271) can1 0CEF0100#B020000000625400
(1708107811.018227) can1 0CEF1100#EAF876F95AEAEB9F
(1708107811.020223) can1 04EF001C#7E57C5A17EB7C545
(1708107811.022866) can1 18FF1080#000000FFFFFFFD00
(1708107811.023451) can1 18FFDC00#8014010000507B19
(1708107811.024066) can1 18FF1180#0300FCFDFFFF02FF
(1708107811.024884) can1 18FF1380#000000003FC0C006
(1708107811.028227) can1 18FFDC00#8100000000A4FFA3
(1708107811.028854) can1 0CF00300#CF004FFF00FFFFFF
(1708107811.029377) can1 0CF00400#FF7D7D000000FFFF
(1708107811.030384) can1 04EF001C#5C5A8EBC5CBA8E58
(1708107811.033243) can1 18FFDC00#82FFFF6E921B00FF
(1708107811.033849) can1 09F20000#000000FFFFFFFFFF
(1708107811.034468) can1 0CEF0100#B020000000625400
(1708107811.040459) can1 04EF001C#A05C455AA0FC45FE
(1708107811.048250) can1 0CF00400#FF7D7D000000FFFF
(1708107811.050557) can1 04EF001C#BF5F42A1BF9F4265
(1708107811.053266) can1 0CEF0100#B020000000625400
(1708107811.058262) can1 18FEF200#0000FFFFFFFF37FF
(1708107811.060657) can1 04EF001C#EC41E327EC81E3E3
(1708107811.061691) can1 09F8021C#EAFC4B060500FFFF
(1708107811.062695) can1 09F8011C#1C6E2618686B5BC1
(1708107811.063708) can1 19FA031C#EAD26800B0007600
(1708107811.064692) can1 0DF0101C#EAF0A34D80C59D2B
(1708107811.065732) can1 18FEE81C#9E0400002164497E
(1708107811.066799) can1 19FA041C#009FEAFF0D017512
(1708107811.067806) can1 19FA041C#0158CA6810FFFFFF
(1708107811.068345) can1 0CEF1100#B2FD0A38B31752D1
(1708107811.068918) can1 0CF00400#FF7D7D000000FFFF
(1708107811.069478) can1 0CEF0017#812B8813CD0AFFFF
(1708107811.070079) can1 19FA041C#02FFFF055528D020
(1708107811.070844) can1 04EF001C#DA44FC92DAE4FC36
(1708107811.071858) can1 19FA041C#033C0FFFFFFFFFFF
(1708107811.072879) can1 19FA041C#040CBC020C7B8C0A
(1708107811.073484) can1 0CEF0100#B020000000625400
(1708107811.074022) can1 18FFDC00#A014010000507B19
(1708107811.074588) can1 19FA041C#05FFFFFFFFFF0DD3
(1708107811.075877) can1 19FA041C#06137648AC0DFFFF
(1708107811.076916) can1 19FA041C#07FFFFFF0F3E172C
(1708107811.077909) can1 19FA041C#08659411FFFFFFFF
(1708107811.078479) can1 0CF00300#CF004FFF00FFFFFF
(1708107811.079150) can1 18E8FF00#02FFFFFFFF00EF00
(1708107811.079663) can1 18FFDC00#A100000000A4FFA3
(1708107811.080218) can1 19FA041C#09FF100000F4E200
(1708107811.080988) can1 04EF001C#C047FE41C0E7FEE5
(1708107811.081967) can1 19FA041C#0A00FFFFFFFFFF12
(1708107811.082967) can1 19FA041C#0B071CE0C43011FF
(1708107811.083538) can1 18FFDC00#A2FFFF6E921B00FF
(1708107811.084110) can1 19FA041C#0CFFFFFFFF148214
(1708107811.085022) can1 19FA041C#0D2E228C0AFFFFFF
(1708107811.085989) can1 19FA041C#0EFFFF19FD0C748B
(1708107811.087024) can1 19FA041C#0FF00AFFFFFFFFFF
(1708107811.088014) can1 19FA041C#101AFD0C72CED80E
(1708107811.088589) can1 0CF00400#FF7D7D000000FFFF
(1708107811.089185) can1 19FA041C#11FFFFFFFFFF1D28
(1708107811.089756) can1 18FF1CF3#0000000000000000
(1708107811.090320) can1 19FA041C#123C92B8A00FFFFF
(1708107811.090986) can1 04EF001C#E54AB264E44AB360
(1708107811.092066) can1 19FA041C#13FFFFFF2CB61CFC
(1708107811.093074) can1 19FA041C#1485CC10FFFFFFFF
(1708107811.093753) can1 0CEF0100#B020000000625400
(1708107811.094241) can1 19FA041C#15FF30A91A308EA0
(1708107811.095135) can1 19FA041C#160FFFFFFFFFFFFF
(1708107811.098250) can1 18FEF100#FF0000F5FF11DFFF
(1708107811.101103) can1 04EF001C#B84CDD8AB90CDCCE
(1708107811.108272) can1 0CF00400#FF7D7D000000FFFF
(1708107811.111215) can1 04EF001C#794F028178EF0325
(1708107811.113272) can1 0CEF0100#B020000000625400
(1708107811.118229) can1 0CEF1100#62EE60BC6447206F
(1708107811.121332) can1 04EF001C#3852A9943A52AB90
(1708107811.123237) can1 18FFDC00#C014010000507B19
(1708107811.123883) can1 18FF1080#000000FFFFFFFD00
(1708107811.124870) can1 18FF1180#0300FCFDFFFF02FF
(1708107811.128231) can1 18FFDC00#C100000000A4FFA3
(1708107811.128896) can1 0CF00300#CF004FFF00FFFFFF
(1708107811.129380) can1 0CF00400#FF7D7D000000FFFF
(1708107811.131426) can1 04EF001C#2D55843B2F35865F
(1708107811.133238) can1 18FFDC00#C2FFFF6E921B00FF
(1708107811.133830) can1 09F20000#000000FFFFFFFFFF
(1708107811.134400) can1 0CEF0100#B020000000625400
(1708107811.138260) can1 09F20100#A016000200FFFFC3
(1708107811.141554) can1 04EF001C#B8570581BA870745
(1708107811.143222) can1 09F20100#A172C90400006E92
(1708107811.148253) can1 0CF00400#FF7D7D000000FFFF
(1708107811.148955) can1 09F20100#A21B00FFFFFFFF00
(1708107811.149403) can1 18FEEE00#3CFFFFFFFFFF42FF
(1708107811.149998) can1 0CEF0017#812B8813CD0AFFFF
(1708107811.151651) can1 04EF001C#AE5A7B3CAD4A7838
(1708107811.153255) can1 09F20100#A30100FFFFFFFFFF
(1708107811.153850) can1 0CEF0100#B020000000625400
(1708107811.154440) can1 18FEEF00#FFFFFF00FFFFFFFF
(1708107811.158264) can1 18FEF200#0000FFFFFFFF37FF
(1708107811.158831) can1 18E8FF00#02FFFFFFFF00EF00
(1708107811.161776) can1 04EF001C#395DD0833A6DD3A7
(1708107811.163232) can1 18FEF700#FFFF1A01F500F600
(1708107811.168247) can1 0CF00400#FF7D7D000000FFFF
(1708107811.168889) can1 0CEF1100#29E08027239B5092
(1708107811.171889) can1 04EF001C#F95F0681FA6F05A5
(1708107811.173259) can1 18FFDC00#E014010000507B19
(1708107811.173850) can1 0CEF0100#B020000000625400
(1708107811.178246) can1 18FFDC00#E100000000A4FFA3
(1708107811.178832) can1 0CF00300#CF004FFF00FFFFFF
(1708107811.181995) can1 04EF001C#B842AD94BB72AEB0
(1708107811.183216) can1 18FFDC00#E2FFFF6E921B00FF
(1708107811.183787) can1 0CEF1700#01AB8813CD0AFFFF
(1708107811.188238) can1 0CF00400#FF7D7D000000FFFF
(1708107811.188876) can1 18FEFC00#FFA3FFFFFFFFFFFF
(1708107811.189424) can1 18FF1CF3#0000000000000000
(1708107811.192111) can1 04EF001C#074637680456346C
(1708107811.193263) can1 0CEF0100#B020000000625400
(1708107811.193879) can1 18FEF600#FFFF3C2AFFFFFFFF
(1708107811.198246) can1 18FEF100#FF0100F5FF11DFFF
(1708107811.202227) can1 04EF001C#A348E646A058E542
(1708107811.206934) can1 18FF1C17#0001000000000000
(1708107811.208240) can1 0CF00400#FF7D7D000000FFFF
(1708107811.212330) can1 04EF001C#874BDB65847BD841
(1708107811.213263) can1 0CEF0100#B020000000625400
(1708107811.218221) can1 0CEF1100#9492BA903512B77A
(1708107811.222465) can1 04EF001C#484E3A184ABE38FC
(1708107811.223309) can1 18FFDC00#0014010000507B19
(1708107811.223924) can1 18FF1080#000000FFFFFFFD00
(1708107811.224876) can1 18FF1180#0300FCFDFFFF02FF
(1708107811.225887) can1 18FF1380#000000003FC0C006
(1708107811.228232) can1 18FFDC00#0100000000A4FFA3
(1708107811.228867) can1 0CF00300#CF004FFF00FFFFFF
(1708107811.229384) can1 0CF00400#FF7D7D000000FFFF
(1708107811.229949) can1 0CEF0017#812B8813CD0AFFFF
(1708107811.232558) can1 04EF001C#E350645EE1E066FA
(1708107811.233246) can1 18FFDC00#02FFFF6E921B00FF
(1708107811.233844) can1 09F20000#000000FFFFFFFFFF
(1708107811.234446) can1 0CEF0100#B020000000625400
(1708107811.238262) can1 18E8FF00#02FFFFFFFF00EF00
(1708107811.242684) can1 04EF001C#C753597DC5035B39
(1708107811.248248) can1 0CF00400#FF7D7D000000FFFF
(1708107811.252778) can1 04EF001C#875633788546317C
(1708107811.253399) can1 0CEF0100#B020000000625400
(1708107811.258263) can1 18FEF200#0000FFFFFFFF37FF
(1708107811.262889) can1 04EF001C#B8587D8EB9C87C0A
(1708107811.268280) can1 0CF00400#FF7D7D000000FFFF
(1708107811.268784) can1 0CEF1100#DE9D1243C4D64277
(1708107811.273024) can1 04EF001C#795BA28579ABA261
(1708107811.273593) can1 0CEF0100#B020000000625400
(1708107811.274138) can1 18FFDC00#2014010000507B19
(1708107811.278249) can1 18FFDC00#2100000000A4FFA3
(1708107811.278808) can1 0CF00300#CF004FFF00FFFFFF
(1708107811.282325) can1 0DF50B9B#15FFFFFFFF0000FF
(1708107811.283155) can1 04EF001C#385EC98838EEC92C
(1708107811.283659) can1 18FFDC00#22FFFF6E921B00FF
(1708107811.288250) can1 0CF00400#FF7D7D000000FFFF
(1708107811.289411) can1 18FF1CF3#0000000000000000
(1708107811.293234) can1 04EF001C#F940FE9EF970FEBA
(1708107811.293830) can1 0CEF0100#B020000000625400
(1708107811.298250) can1 18FEF100#FF0200F5FF11DFFF
(1708107811.303328) can1 04EF001C#B943A49DB953A499
(1708107811.308249) can1 0CF00400#FF7D7D000000FFFF
(1708107811.309384) can1 0CEF0017#812B8813CD0AFFFF
(1708107811.313266) can1 0CEF0100#B020000000625400
(1708107811.313801) can1 04EF001C#79464A9886B1B57B
(1708107811.318224) can1 0CEF1100#038353EC099CA35A
(1708107811.318809) can1 18E8FF00#02FFFFFFFF00EF00
(1708107811.323233) can1 18FFDC00#4014010000507B19
(1708107811.323837) can1 04EF001C#384971AFC7AE8E6C
(1708107811.324888) can1 18FF1080#000000FFFFFFFD00
(1708107811.325864) can1 18FF1180#0300FCFDFFFF02FF
(1708107811.328220) can1 18FFDC00#4101000000A4FFA3
(1708107811.328848) can1 0CF00300#CF004FFF00FFFFFF
(1708107811.329370) can1 0CF00400#FF7D7D000000FFFF
(1708107811.333229) can1 18FFDC00#42FFFF6E921B00FF
(1708107811.333767) can1 04EF001C#F94BA6A5068C5946
(1708107811.334423) can1 09F20000#000000FFFFFFFFFF
(1708107811.334949) can1 0CEF0100#B020000000625400
(1708107811.343789) can1 04EF001C#B94ECCA046893343
(1708107811.348247) can1 0CF00400#FF7D7D000000FFFF
(1708107811.353264) can1 0CEF0100#B020000000625400
(1708107811.353924) can1 04EF001C#7A51F1A785960E44
(1708107811.358263) can1 18FEF200#0000FFFFFFFF37FF
(1708107811.363994) can1 04EF001C#395498BAC6936759
(1708107811.368250) can1 0CF00400#FF7D7D000000FFFF
(1708107811.368871) can1 0CEF1100#3E835D44F2B3D3C3
(1708107811.373258) can1 18FFDC00#6014010000507B19
(1708107811.373856) can1 0CEF0100#B020000000625400
(1708107811.374421) can1 04EF001C#F9564EB8F9564E9C
(1708107811.378238) can1 18FFDC00#6101000000A4FFA3
(1708107811.378827) can1 0CF00300#CF004FFF00FFFFFF
(1708107811.380589) can1 15FD069B#29C273FFFFFFFFFF
(1708107811.383217) can1 18FFDC00#62FFFF6E921B00FF
(1708107811.384248) can1 04EF001C#B85975BFB83975FB
(1708107811.388242) can1 0CF00400#FF7D7D000000FFFF
(1708107811.389389) can1 0CEF0017#812B8813CD0AFFFF
(1708107811.393267) can1 0CEF0100#B020000000625400
(1708107811.394371) can1 04EF001C#075DEF4307DDEFE7
(1708107811.398231) can1 18FEF100#FF0300F5FF11DFFF
(1708107811.398819) can1 18E8FF00#02FFFFFFFF00EF00
(1708107811.404454) can1 04EF001C#A35F5E61A25F5F45
(1708107811.408240) can1 0CF00400#FF7D7D000000FFFF
(1708107811.409421) can1 18FF1CF3#0000000000000000
(1708107811.413266) can1 0CEF0100#B020000000625400
(1708107811.414586) can1 04EF001C#AF42BA1CAEE2BB98
(1708107811.418217) can1 0CEF1100#48B28B79418E63D6
(1708107811.423252) can1 18FFDC00#8014010000507B19
(1708107811.424696) can1 04EF001C#6F45441B6EA545DF
(1708107811.425330) can1 18FF1080#000000FFFFFFFD00
(1708107811.426862) can1 18FF1180#0300FCFDFFFF02FF
(1708107811.427890) can1 18FF1380#000000003FC0C006
(1708107811.428445) can1 0CF00300#CF004FFF00FFFFFF
(1708107811.429016) can1 0CF00400#FF7D7D000000FFFF
(1708107811.429601) can1 18FF1C17#0001000000000000
(1708107811.430173) can1 18FFDC00#8101000000A4FFA3
(1708107811.433238) can1 18FFDC00#82FFFF6E921B00FF
(1708107811.433838) can1 09F20000#000000FFFFFFFFFF
(1708107811.434436) can1 0CEF0100#B020000000625400
(1708107811.434956) can1 04EF001C#0B484B3609484912
(1708107811.444911) can1 04EF001C#C64A905CC40A9238
(1708107811.448240) can1 0CF00400#FF7D7D000000FFFF
(1708107811.453259) can1 0CEF0100#B020000000625400
(1708107811.455016) can1 04EF001C#BF4DD293BD0DD0F7
(1708107811.458259) can1 18FEF200#0000FFFFFFFF37FF
(1708107811.465118) can1 04EF001C#BA4FC7B9B8EFC53D
(1708107811.468235) can1 0CF00400#FF7D7D000000FFFF
(1708107811.468872) can1 0CEF1100#86B166893F7A33A1
(1708107811.469392) can1 0CEF0017#812B8813CD0AFFFF
(1708107811.473257) can1 18FFDC00#A014010000507B19
(1708107811.473856) can1 0CEF0100#B020000000625400
(1708107811.475248) can1 04EF001C#D55243DCD7F24158
(1708107811.478242) can1 18FFDC00#A102000000A4FFA3
(1708107811.478843) can1 0CF00300#CF004FFF00FFFFFF
(1708107811.479376) can1 18E8FF00#02FFFFFFFF00EF00
(1708107811.483240) can1 18FFDC00#A2FFFF6E921B00FF
(1708107811.485339) can1 04EF001C#6C55C7036EE5C587
(1708107811.488243) can1 0CF00400#FF7D7D000000FFFF
(1708107811.489422) can1 18FF1CF3#0000000000000000
(1708107811.493269) can1 0CEF0100#B020000000625400
(1708107811.495452) can1 04EF001C#2D58EC062FE8EE82
(1708107811.498281) can1 18FEF100#FF0400F5FF11DFFF
(1708107811.505553) can1 04EF001C#B85A6DACBAEA6F28
(1708107811.508243) can1 0CF00400#FF7D7D000000FFFF
(1708107811.513257) can1 0CEF0100#B020000000625400
(1708107811.515678) can1 04EF001C#AD5D4003AFED4287
(1708107811.518221) can1 0CEF1100#D4A0B89DCD0EC0B6
(1708107811.523247) can1 18FFDC00#C014010000507B19
(1708107811.525789) can1 04EF001C#6C406F166E106D72
(1708107811.526380) can1 18FF1080#000000FFFFFFFD00
(1708107811.527864) can1 18FF1180#0300FCFDFFFF02FF
(1708107811.528446) can1 0CF00300#CF004FFF00FFFFFF
(1708107811.529038) can1 0CF00400#FF7D7D000000FFFF
(1708107811.529577) can1 18FFDC00#C103000000A4FFA3
(1708107811.533237) can1 18FFDC00#C2FFFF6E921B00FF
(1708107811.533865) can1 09F20000#000000FFFFFFFFFF
(1708107811.534404) can1 0CEF0100#B020000000625400
(1708107811.535915) can1 04EF001C#1E4306851CD30421
(1708107811.546009) can1 04EF001C#B94594BBBBD5961F
(1708107811.548237) can1 0CF00400#FF7D7D000000FFFF
(1708107811.549402) can1 0CEF0017#812B8813CD0AFFFF
(1708107811.553266) can1 0CEF0100#B020000000625400
(1708107811.556119) can1 04EF001C#79483AB67BB83872
(1708107811.558246) can1 18FEF200#0000FFFFFFFF37FF
(1708107811.558841) can1 18E8FF00#02FFFFFFFF00EF00
(1708107811.566227) can1 04EF001C#384B61CD3AAB6369
(1708107811.567264) can1 09F8021C#EBFC87070A00FFFF
(1708107811.568239) can1 0CF00400#FF7D7D000000FFFF
(1708107811.568872) can1 09F8011C#1C6E26186A6B5BC1
(1708107811.569380) can1 0CEF1100#15A4AED40BFC66C0
(1708107811.570320) can1 19FA031C#EBD26800B0007600
(1708107811.571285) can1 0DF0101C#EBF0A34D80C59D2B
(1708107811.572319) can1 18FEE81C#860500002164477E
(1708107811.573250) can1 18FFDC00#E014010000507B19
(1708107811.573852) can1 0CEF0100#B020000000625400
(1708107811.574429) can1 19FA041C#209FEBFF0D017512
(1708107811.575416) can1 19FA041C#2158CA6810FFFFFF
(1708107811.576339) can1 04EF001C#E24E9518E08E979C
(1708107811.577434) can1 19FA041C#22FFFF055528D020
(1708107811.578260) can1 18FFDC00#E103000000A4FFA3
(1708107811.578801) can1 0CF00300#CF004FFF00FFFFFF
(1708107811.579385) can1 19FA041C#233C0FFFFFFFFFFF
(1708107811.580446) can1 19FA041C#240CBC020C7B280A
(1708107811.581465) can1 19FA041C#25FFFFFFFFFF0DD3
(1708107811.582467) can1 19FA041C#26137648AC0DFFFF
(1708107811.583258) can1 18FFDC00#E2FFFF6E921B00FF
(1708107811.583795) can1 19FA041C#27FFFFFF0F3E172C
(1708107811.584536) can1 19FA041C#2865F811FFFFFFFF
(1708107811.585546) can1 19FA041C#29FF100000F4E200
(1708107811.586457) can1 04EF001C#7251F9877051FBC3
(1708107811.587550) can1 19FA041C#2A00FFFFFFFFFF12
(1708107811.588248) can1 0CF00400#FF7D7D000000FFFF
(1708107811.588960) can1 19FA041C#2B071CE0C43011FF
(1708107811.589627) can1 19FA041C#2CFFFFFFFF148214
(1708107811.590597) can1 19FA041C#2D2E228C0AFFFFFF
(1708107811.591589) can1 19FA041C#2EFFFF19FD0C748B
(1708107811.592613) can1 19FA041C#2FB80BFFFFFFFFFF
(1708107811.593260) can1 0CEF0100#B020000000625400
(1708107811.593848) can1 19FA041C#301AFD0C72CED80E
(1708107811.594653) can1 19FA041C#31FFFFFFFFFF1D28
(1708107811.595646) can1 19FA041C#323C92B8A00FFFFF
(1708107811.596583) can1 04EF001C#BE541BE2BC5419A6
(1708107811.597665) can1 19FA041C#33FFFFFF2CB61CFC
(1708107811.598232) can1 18FEF100#FF0600F5FF11DFFF
(1708107811.598802) can1 19FA041C#34856810FFFFFFFF
(1708107811.599688) can1 19FA041C#35FF30A91A308E3C
(1708107811.600698) can1 19FA041C#360FFFFFFFFFFFFF
(1708107811.606702) can1 04EF001C#A2561700A0561544
(1708107811.608243) can1 0CF00400#FF7D7D000000FFFF
(1708107811.613278) can1 0CEF0100#B020000000625400
(1708107811.616800) can1 04EF001C#87594B2785794943
(1708107811.618236) can1 0CEF1100#B9D690AB5913B74B
(1708107811.623261) can1 18FFDC00#0014010000507B19
(1708107811.625884) can1 18FF1080#000000FFFFFFFD00
(1708107811.626871) can1 18FF1180#0300FCFDFFFF02FF
(1708107811.627444) can1 04EF001C#475CA522459CA7A6
(1708107811.628020) can1 18FF1380#000000003FC0C006
(1708107811.628585) can1 0CF00300#CF004FFF00FFFFFF
(1708107811.629147) can1 0CF00400#FF7D7D000000FFFF
(1708107811.629721) can1 18FF1CF3#0000000000000000
(1708107811.630364) can1 18FFDC00#0104000000A4FFA3
(1708107811.633239) can1 18FFDC00#02FFFF6E921B00FF
(1708107811.633848) can1 09F20000#000000FFFFFFFFFF
(1708107811.634428) can1 0CEF0100#B020000000625400
(1708107811.637023) can1 04EF001C#E45E1328E68E11AC
(1708107811.647151) can1 04EF001C#C641C827C4B1CA83
(1708107811.648242) can1 0CF00400#FF7D7D000000FFFF
(1708107811.649408) can1 0CEF0017#812B8813CD0AFFFF
(1708107811.653259) can1 18FEEF00#FFFFFF00FFFFFFFF
(1708107811.653841) can1 0CEF0100#B020000000625400
(1708107811.657235) can1 04EF001C#8644A22284F4A0C6
(1708107811.658141) can1 18FF1C17#0001000000000000
(1708107811.658645) can1 18E8FF00#02FFFFFFFF00EF00
(1708107811.659250) can1 18FEF200#0000FFFFFFFF37FF
(1708107811.667350) can1 04EF001C#B8468DD0BB168ED4
(1708107811.668239) can1 0CF00400#FF7D7D000000FFFF
(1708107811.668903) can1 0CEF1100#66CA419424472366
(1708107811.673259) can1 18FFDC00#2014010000507B19
(1708107811.673878) can1 0CEF0100#B020000000625400
(1708107811.677452) can1 04EF001C#794932D77A1931D3
(1708107811.678239) can1 18FFDC00#2104000000A4FFA3
(1708107811.678834) can1 0CF00300#CF004FFF00FFFFFF
(1708107811.683232) can1 18FFDC00#22FFFF6E921B00FF
(1708107811.683826) can1 0CEF1700#01AB8813CD0AFFFF
(1708107811.687571) can1 04EF001C#384C59DA3B5C5A9E
(1708107811.688244) can1 0CF00400#FF7D7D000000FFFF
(1708107811.689442) can1 18FF1CF3#0000000000000000
(1708107811.693261) can1 0CEF0100#B020000000625400
(1708107811.693866) can1 18FEF600#FFFF3C2AFFFFFFFF
(1708107811.697696) can1 04EF001C#F94E8ED0FA7E8DB4
(1708107811.698293) can1 18FEF100#FF0900F5FF11DFFF
(1708107811.707792) can1 04EF001C#B95134FFBA51379B
(1708107811.708380) can1 0CF00400#FF7D7D000000FFFF
(1708107811.709415) can1 0CEF0017#812B8813CD0AFFFF
(1708107811.713269) can1 0CEF0100#B020000000625400
(1708107811.717899) can1 04EF001C#7954DAFA7A54D99E
(1708107811.718494) can1 0CEF1100#10F907A913FA1757
(1708107811.719017) can1 18E8FF00#02FFFFFFFF00EF00
(1708107811.723250) can1 18FFDC00#4014010000507B19
(1708107811.726896) can1 18FF1080#000000FFFFFFFD00
(1708107811.727862) can1 18FF1180#0300FCFDFFFF02FF
(1708107811.728423) can1 04EF001C#385781F13BB78275
(1708107811.728992) can1 0CF00300#CF004FFF00FFFFFF
(1708107811.729561) can1 0CF00400#FF7D7D000000FFFF
(1708107811.730203) can1 18FFDC00#4106000000A4FFA3
(1708107811.733229) can1 18FFDC00#42FFFF6E921B00FF
(1708107811.733835) can1 09F20000#000000FFFFFFFFFF
(1708107811.734402) can1 0CEF0100#B020000000625400
(1708107811.738141) can1 04EF001C#F95936F7FAB93573
(1708107811.748249) can1 0CF00400#FF7D7D000000FFFF
(1708107811.748889) can1 04EF001C#B85C5DFABB7C5EBE
(1708107811.753272) can1 0CEF0100#B020000000625400
(1708107811.758262) can1 18FEF200#0000FFFFFFFF37FF
(1708107811.758805) can1 04EF001C#7A5F81E9791F82CD
(1708107811.768251) can1 0CF00400#FF7D7D000000FFFF
(1708107811.768781) can1 04EF001C#384229F43AF22B30
(1708107811.769507) can1 0CEF1100#D8FECBE8E58222E5
(1708107811.773263) can1 18FFDC00#6014010000507B19
(1708107811.773850) can1 0CEF0100#B020000000625400
(1708107811.778254) can1 18FFDC00#6107000000A4FFA3
(1708107811.778807) can1 04EF001C#F944DEFAFB94DC5E
(1708107811.779382) can1 0CF00300#CF004FFF00FFFFFF
(1708107811.783224) can1 18FFDC00#62FFFF6E921B00FF
(1708107811.788248) can1 0CF00400#FF7D7D000000FFFF
(1708107811.788877) can1 04EF001C#B84785F1BA578795
(1708107811.789503) can1 0CEF0017#812B8813CD0AFFFF
(1708107811.793267) can1 0CEF0100#B020000000625400
(1708107811.798236) can1 18FEF100#FF0D00F5FF11DFFF
(1708107811.798834) can1 18E8FF00#02FFFFFFFF00EF00
(1708107811.799343) can1 04EF001C#E34AB424E15AB640
(1708107811.808247) can1 0CF00400#FF7D7D000000FFFF
(1708107811.808961) can1 04EF001C#C64DA80BC41DAA2F
(1708107811.809544) can1 18FF1CF3#0000000000000000
(1708107811.813270) can1 0CEF0100#B020000000625400
(1708107811.818216) can1 0CEF1100#8BE8EDB598750DCF
(1708107811.819068) can1 04EF001C#6250E1366000E312
(1708107811.823247) can1 18FFDC00#8014010000507B19
(1708107811.826897) can1 18FF1080#000000FFFFFFFD00
(1708107811.827858) can1 18FF1180#0300FCFDFFFF02FF
(1708107811.828445) can1 0CF00300#CF004FFF00FFFFFF
(1708107811.828998) can1 0CF00400#FF7D7D000000FFFF
(1708107811.829572) can1 04EF001C#2253BB3523E3BAF1
(1708107811.830138) can1 18FF1380#000000003FC0C006
(1708107811.830726) can1 18FFDC00#8108000000A4FFA3
(1708107811.833240) can1 18FFDC00#82FFFF6E921B00FF
(1708107811.833846) can1 09F20000#000000FFFFFFFFFF
(1708107811.834429) can1 0CEF0100#B020000000625400
(1708107811.839273) can1 04EF001C#0756B7180646B67C
(1708107811.848247) can1 0CF00400#FF7D7D000000FFFF
(1708107811.848964) can1 18FECA00#40FF00000000FFFF
(1708107811.849446) can1 04EF001C#A258673EA308661A
(1708107811.853271) can1 0CEF0100#B020000000625400
(1708107811.858259) can1 18FEF200#0000FFFFFFFF37FF
(1708107811.859486) can1 04EF001C#635BB83563EBB8F1
(1708107811.868248) can1 0CF00400#FF7D7D000000FFFF
(1708107811.868782) can1 0CEF1100#4CECFA4CDF0AC635
(1708107811.869500) can1 0CEF0017#812B8813CD0AFFFF
(1708107811.870053) can1 04EF001C#DE5D302BDE9D306F
(1708107811.873253) can1 18FFDC00#A014010000507B19
(1708107811.873858) can1 0CEF0100#B020000000625400
(1708107811.878231) can1 18FFDC00#A109000000A4FFA3
(1708107811.878819) can1 0CF00300#CF004FFF00FFFFFF
(1708107811.879377) can1 18E8FF00#02FFFFFFFF00EF00
(1708107811.879947) can1 04EF001C#9E409A369EC09A32
(1708107811.883231) can1 18FFDC00#A2FFFF6E921B00FF
(1708107811.885253) can1 15FD069B#2AC273FFFFFFFFFF
(1708107811.888235) can1 0CF00400#FF7D7D000000FFFF
(1708107811.889447) can1 0CEA1C00#00EE000000000000
(1708107811.890038) can1 04EF001C#5D43472DA204B8EE
(1708107811.890861) can1 18EEFF1C#0204450E00000042
(1708107811.893265) can1 0CEF0100#B020000000625400
(1708107811.898238) can1 18FEF100#FF1100F5FF11DFFF
(1708107811.899913) can1 04EF001C#56466470A9419BF3
(1708107811.908252) can1 0CF00400#FF7D7D000000FFFF
(1708107811.909455) can1 18FF1CF3#0000000000000000
(1708107811.910059) can1 04EF001C#EC48ABAE134F542D
(1708107811.913273) can1 0CEF0100#B020000000625400
(1708107811.918216) can1 0CEF1100#439EE9EB644B4833
(1708107811.920140) can1 04EF001C#B04BED4D4FAC122E
(1708107811.923234) can1 18FFDC00#C014010000507B19
(1708107811.927897) can1 18FF1080#000000FFFFFFFD00
(1708107811.928465) can1 0CF00300#CF004FFF00FFFFFF
(1708107811.929029) can1 0CF00400#FF7D7D000000FFFF
(1708107811.929601) can1 18FF1180#0300FCFDFFFF02FF
(1708107811.930169) can1 18FFDC00#C10B000000A4FFA3
(1708107811.930716) can1 04EF001C#964EE27869E91D5B
(1708107811.933221) can1 18FFDC00#C2FFFF6E921B00FF
(1708107811.933818) can1 09F20000#000000FFFFFFFFFF
(1708107811.934413) can1 0CEF0100#B020000000625400
(1708107811.940371) can1 04EF001C#F9507E1E06D7811D
(1708107811.948253) can1 0CF00400#FF7D7D000000FFFF
(1708107811.949428) can1 0CEF0017#812B8813CD0AFFFF
(1708107811.950483) can1 04EF001C#EC5373B513D48CB6
(1708107811.953266) can1 0CEF0100#B020000000625400
(1708107811.958264) can1 18FEF200#0000FFFFFFFF37FF
(1708107811.958853) can1 18E8FF00#02FFFFFFFF00EF00
(1708107811.960605) can1 04EF001C#E55652F81B11AC3B
(1708107811.968250) can1 0CF00400#FF7D7D000000FFFF
(1708107811.968787) can1 0CEF1100#8892BD7038369013
(1708107811.970677) can1 04EF001C#A55968F75B1E9634
(1708107811.973263) can1 18FFDC00#E014010000507B19
(1708107811.973864) can1 0CEF0100#B020000000625400
(1708107811.977942) can1 18FF1C17#0001000000000000
(1708107811.978541) can1 0CF00300#CF004FFF00FFFFFF
(1708107811.979101) can1 18FFDC00#E10D000000A4FFA3
(1708107811.980786) can1 04EF001C#655C86F29B7B7851
(1708107811.983222) can1 18FFDC00#E2FFFF6E921B00FF
(1708107811.988248) can1 0CF00400#FF7D7D000000FFFF
(1708107811.989457) can1 18FF1CF3#0000000000000000
(1708107811.990926) can1 04EF001C#225FDBC9DC78256A
(1708107811.993269) can1 0CEF0100#B020000000625400
(1708107811.998238) can1 18FEF100#FF1600F5FF11DFFF
(1708107812.001045) can1 04EF001C#E441EBE71BE614C4
(1708107812.008248) can1 0CF00400#FF7D7D000000FFFF
(1708107812.011152) can1 04EF001C#C644E0F239A31F91
(1708107812.013267) can1 0CEF0100#B020000000625400
(1708107812.018236) can1 0CEF1100#DB8CDB2F57C3AFAB
(1708107812.021276) can1 04EF001C#8747BBF97820441A
(1708107812.023246) can1 18FFDC00#0014010000507B19
(1708107812.027893) can1 18FF1080#000000FFFFFFFD00
(1708107812.028513) can1 0CF00300#CF004FFF00FFFFFF
(1708107812.029052) can1 0CF00400#FF7D7D000000FFFF
(1708107812.029585) can1 0CEF0017#812B8813CD0AFFFF
(1708107812.030157) can1 18FF1180#0300FCFDFFFF02FF
(1708107812.030799) can1 18FFDC00#010E000000A4FFA3
(1708107812.031325) can1 18FF1380#000000003FC0C006
(1708107812.031902) can1 04EF001C#5A4A081C5AEA0838
(1708107812.033225) can1 18FFDC00#02FFFF6E921B00FF
(1708107812.033847) can1 09F20000#000000FFFFFFFFFF
(1708107812.034435) can1 0CEF0100#B020000000625400
(1708107812.038266) can1 18E8FF00#02FFFFFFFF00EF00
(1708107812.041495) can1 04EF001C#084D608B086D602F
(1708107812.048252) can1 0CF00400#FF7D7D000000FFFF
(1708107812.051596) can1 04EF001C#C74FB9F1C72FB915
(1708107812.053270) can1 0CEF0100#B020000000625400
(1708107812.058256) can1 18FEF200#0000FFFFFFFF37FF
(1708107812.061705) can1 04EF001C#F951761FF891775B
(1708107812.068236) can1 0CF00400#FF7D7D000000FFFF
(1708107812.068878) can1 0CEF1100#14808E94B4B63373
(1708107812.071808) can1 04EF001C#B9541C1AB8741DBE
(1708107812.072863) can1 09F8021C#ECFC87070300FFFF
(1708107812.073439) can1 0CEF0100#B020000000625400
(1708107812.074009) can1 09F8011C#206E26186E6B5BC1
(1708107812.074643) can1 18FFDC00#2014010000507B19
(1708107812.075146) can1 19FA031C#ECD25700A0006500
(1708107812.075936) can1 0DF0101C#ECF0A34D90EC9D2B
(1708107812.076899) can1 18FEE81C#860500002164457E
(1708107812.077951) can1 19FA041C#409FECFF0D017512
(1708107812.078541) can1 0CF00300#CF004FFF00FFFFFF
(1708107812.079155) can1 18FFDC00#210F000000A4FFA3
(1708107812.079660) can1 19FA041C#4158CA6810FFFFFF
(1708107812.080988) can1 19FA041C#42FFFF055528D020
(1708107812.081920) can1 04EF001C#2F58EEA62DD8ECA2
(1708107812.083010) can1 19FA041C#43A00FFFFFFFFFFF
(1708107812.083591) can1 18FFDC00#22FFFF6E921B00FF
(1708107812.084135) can1 19FA041C#440CBC020C7BC409
(1708107812.085062) can1 19FA041C#45FFFFFFFFFF0DD3
(1708107812.086028) can1 19FA041C#46137648800CFFFF
(1708107812.087049) can1 19FA041C#47FFFFFF0F3E172C
(1708107812.088048) can1 19FA041C#48659411FFFFFFFF
(1708107812.088624) can1 0CF00400#FF7D7D000000FFFF
(1708107812.089204) can1 19FA041C#49FF100000F4E200
(1708107812.089775) can1 18FF1CF3#0000000000000000
(1708107812.090389) can1 19FA041C#4A00FFFFFFFFFF12
(1708107812.091077) can1 19FA041C#4B071CE0C43011FF
(1708107812.092020) can1 04EF001C#F15A2654F3BA2430
(1708107812.093128) can1 19FA041C#4CFFFFFFFF148214
(1708107812.093736) can1 0CEF0100#B020000000625400
(1708107812.094277) can1 19FA041C#4D2E22F00AFFFFFF
(1708107812.095149) can1 19FA041C#4EFFFF19FD0C748B
(1708107812.096154) can1 19FA041C#4FB80BFFFFFFFFFF
(1708107812.097158) can1 19FA041C#501AFD0C72CED80E
(1708107812.098168) can1 19FA041C#51FFFFFFFFFF1D28
(1708107812.098715) can1 18FEF100#FF1A00F5FF11DFFF
(1708107812.099300) can1 19FA041C#523C34B70410FFFF
(1708107812.100206) can1 19FA041C#53FFFFFF2CB61CFC
(1708107812.101211) can1 19FA041C#54856810FFFFFFFF
(1708107812.102143) can1 04EF001C#A35D4EC3A11D4C07
(1708107812.103212) can1 19FA041C#55FF30A91A308EA0
(1708107812.104241) can1 19FA041C#560FFFFFFFFFFFFF
(1708107812.108251) can1 0CF00400#FF7D7D000000FFFF
(1708107812.109439) can1 0CEF0017#812B8813CD0AFFFF
(1708107812.112266) can1 04EF001C#B85F4519BBDF461D
(1708107812.113264) can1 0CEF0100#B020000000625400
(1708107812.118232) can1 0CEF1100#66B7E9888B034603
(1708107812.118784) can1 18E8FF00#02FFFFFFFF00EF00
(1708107812.122376) can1 04EF001C#79426A0C7AC26908
(1708107812.123240) can1 18FFDC00#4014010000507B19
(1708107812.127899) can1 18FF1080#000000FFFFFFFD00
(1708107812.128475) can1 0CF00300#CF004FFF00FFFFFF
(1708107812.129026) can1 0CF00400#FF7D7D000000FFFF
(1708107812.129658) can1 18FF1180#0300FCFDFFFF02FF
(1708107812.130180) can1 18FFDC00#4110000000A4FFA3
(1708107812.132471) can1 04EF001C#6C4547A36E054567
(1708107812.133228) can1 18FFDC00#42FFFF6E921B00FF
(1708107812.133824) can1 09F20000#000000FFFFFFFFFF
(1708107812.134423) can1 0CEF0100#B020000000625400
(1708107812.138261) can1 09F20100#C016000200FFFFC4
(1708107812.142595) can1 04EF001C#F947C609FB47C48D
(1708107812.143224) can1 09F20100#C172C90400006E92
(1708107812.143829) can1 18FEE500#36270000FFFFFFFF
(1708107812.148250) can1 0CF00400#FF7D7D000000FFFF
(1708107812.148896) can1 09F20100#C21B00FFFFFFFF00
(1708107812.149400) can1 18FEEE00#3CFFFFFFFFFF42FF
(1708107812.152702) can1 04EF001C#B94AEC04BBEAEE20
(1708107812.153285) can1 09F20100#C30100FFFFFFFFFF
(1708107812.153877) can1 0CEF0100#B020000000625400
(1708107812.154539) can1 18FEEF00#FFFFFF00FFFFFFFF
(1708107812.156935) can1 18FF2117#06FFFFFF00FFFFFF
(1708107812.158249) can1 18FEF200#0000FFFFFFFF37FF
(1708107812.162816) can1 04EF001C#794D1203780D13C7
(1708107812.163386) can1 18FEF700#FFFF1A01F500F600
(1708107812.168253) can1 0CF00400#FF7D7D000000FFFF
(1708107812.168873) can1 0CEF1100#BFB16901CF47D260
(1708107812.172931) can1 04EF001C#3850B9163970B8B2
(1708107812.173534) can1 0CEF0100#B020000000625400
(1708107812.174095) can1 18FFDC00#6014010000507B19
(1708107812.178232) can1 18FFDC00#6111000000A4FFA3
(1708107812.178784) can1 0CF00300#CF004FFF00FFFFFF
(1708107812.183050) can1 04EF001C#F9526E1CF8126FD8
(1708107812.183656) can1 0CEF1700#01AB8813CD0AFFFF
(1708107812.184186) can1 18FFDC00#62FFFF6E921B00FF
(1708107812.188240) can1 0CF00400#FF7D7D000000FFFF
(1708107812.188898) can1 18FEFC00#FFA3FFFFFFFFFFFF
(1708107812.189479) can1 0CEF0017#812B8813CD0AFFFF
(1708107812.193181) can1 04EF001C#235692C82236932C
(1708107812.193747) can1 0CEF0100#B020000000625400
(1708107812.194311) can1 18FEF600#FFFF3C2AFFFFFFFF
(1708107812.198252) can1 18FEF100#FF1D00F5FF11DFFF
(1708107812.198799) can1 18E8FF00#02FFFFFFFF00EF00
(1708107812.203285) can1 04EF001C#E45823FEE578225A
(1708107812.208248) can1 0CF00400#FF7D7D000000FFFF
(1708107812.209477) can1 18FF1CF3#0000000000000000
(1708107812.213257) can1 0CEF0100#B020000000625400
(1708107812.213798) can1 04EF001C#C65B18EDC79B19A9
(1708107812.218221) can1 0CEF1100#E9A22635B8BAEC5B
(1708107812.223248) can1 18FFDC00#8014010000507B19
(1708107812.223865) can1 04EF001C#655E96F064DE97F4
(1708107812.228236) can1 18FFDC00#8112000000A4FFA3
(1708107812.228893) can1 0CF00300#CF004FFF00FFFFFF
(1708107812.229394) can1 0CF00400#FF7D7D000000FFFF
(1708107812.229976) can1 18FF1080#000000FFFFFFFD00
(1708107812.230869) can1 18FF1180#0300FCFDFFFF02FF
(1708107812.231885) can1 18FF1380#000000003FC0C006
(1708107812.233225) can1 18FFDC00#82FFFF6E921B00FF
(1708107812.233777) can1 04EF001C#22412BD722212B33
(1708107812.234377) can1 09F20000#000000FFFFFFFFFF
(1708107812.234984) can1 0CEF0100#B020000000625400
(1708107812.243733) can1 04EF001C#0844288208642826
(1708107812.247646) can1 18FF1C17#0001000000000000
(1708107812.248256) can1 0CF00400#FF7D7D000000FFFF
(1708107812.253254) can1 0CEF0100#B020000000625400
(1708107812.253845) can1 04EF001C#A64693F0A6A69394
(1708107812.258247) can1 18FEF200#0000FFFFFFFF37FF
(1708107812.263947) can1 04EF001C#F948BE06F9E8BE22
(1708107812.268247) can1 0CF00400#FF7D7D000000FFFF
(1708107812.268846) can1 0CEF1100#29A1C835FBD04E40
(1708107812.269515) can1 0CEF0017#812B8813CD0AFFFF
(1708107812.273244) can1 18FFDC00#A014010000507B19
(1708107812.273925) can1 0CEF0100#B020000000625400
(1708107812.274378) can1 04EF001C#BA4BE71DBAEBE739
(1708107812.278237) can1 18FFDC00#A113000000A4FFA3
(1708107812.278789) can1 0CF00300#CF004FFF00FFFFFF
(1708107812.279388) can1 18E8FF00#02FFFFFFFF00EF00
(1708107812.283240) can1 18FFDC00#A2FFFF6E921B00FF
(1708107812.284180) can1 04EF001C#794E0A0079EE0A24
(1708107812.284948) can1 0DF50B9B#16FFFFFFFF0000FF
(1708107812.288238) can1 0CF00400#FF7D7D000000FFFF
(1708107812.293257) can1 0CEF0100#B020000000625400
(1708107812.294271) can1 04EF001C#3851B1173891B153
(1708107812.298228) can1 18FEF100#FF2100F5FF11DFFF
(1708107812.304384) can1 04EF001C#F953661DF9F36639
(1708107812.308243) can1 0CF00400#FF7D7D000000FFFF
(1708107812.313254) can1 0CEF0100#B020000000625400
(1708107812.314506) can1 04EF001C#DE566820DED66824
(1708107812.318223) can1 0CEF1100#95D02ACA6BDB7DDC
(1708107812.323246) can1 18FFDC00#C014010000507B19
(1708107812.324607) can1 04EF001C#9E59522F613EADCC
(1708107812.328222) can1 18FFDC00#C114000000A4FFA3
(1708107812.328861) can1 0CF00300#CF004FFF00FFFFFF
(1708107812.329370) can1 0CF00400#FF7D7D000000FFFF
(1708107812.329953) can1 18FF1080#000000FFFFFFFD00
(1708107812.330553) can1 18FF1CF3#0000000000000000
(1708107812.331157) can1 18FF1180#0300FCFDFFFF02FF
(1708107812.333224) can1 18FFDC00#C2FFFF6E921B00FF
(1708107812.333843) can1 09F20000#000000FFFFFFFFFF
(1708107812.334447) can1 0CEF0100#B020000000625400
(1708107812.334948) can1 04EF001C#5F5CBD225FDCBD26
(1708107812.344838) can1 04EF001C#F95E0E10F9DE0E14
(1708107812.348235) can1 0CF00400#FF7D7D000000FFFF
(1708107812.349458) can1 0CEF0017#812B8813CD0AFFFF
(1708107812.353257) can1 0CEF0100#B020000000625400
(1708107812.354940) can1 04EF001C#1542056C15C20568
(1708107812.358263) can1 18FEF200#0000FFFFFFFF37FF
(1708107812.358869) can1 18E8FF00#02FFFFFFFF00EF00
(1708107812.365041) can1 04EF001C#79445A0A79845A4E
(1708107812.368242) can1 0CF00400#FF7D7D000000FFFF
(1708107812.368869) can1 0CEF1100#56D43C1399B72A8E
(1708107812.373247) can1 18FFDC00#E014010000507B19
(1708107812.373867) can1 0CEF0100#B020000000625400
(1708107812.375166) can1 04EF001C#9547A9999577A9DD
(1708107812.378238) can1 18FFDC00#E115000000A4FFA3
(1708107812.378791) can1 0CF00300#CF004FFF00FFFFFF
(1708107812.383226) can1 15FD069B#2BC273FFFFFFFFFF
(1708107812.383775) can1 18FFDC00#E2FFFF6E921B00FF
(1708107812.385310) can1 04EF001C#1E4A4ECC1E1A4EE8
(1708107812.388239) can1 0CF00400#FF7D7D000000FFFF
(1708107812.389481) can1 18FF1CF3#0000000000000000
(1708107812.393255) can1 0CEF0100#B020000000625400
(1708107812.395383) can1 04EF001C#7D4D16D382DAE930
(1708107812.398230) can1 18FEF100#FF2300F5FF11DFFF
(1708107812.405491) can1 04EF001C#E34F9C211C986382
(1708107812.408241) can1 0CF00400#FF7D7D000000FFFF
(1708107812.413254) can1 0CEF0100#B020000000625400
(1708107812.415618) can1 04EF001C#FD526ACC024595AF
(1708107812.418211) can1 0CEF1100#79C626AFF2A62A12
(1708107812.423258) can1 18FFDC00#0014010000507B19
(1708107812.425727) can1 04EF001C#BE5513D34162EC90
(1708107812.428232) can1 18FFDC00#0116000000A4FFA3
(1708107812.428844) can1 0CF00300#CF004FFF00FFFFFF
(1708107812.429376) can1 0CF00400#FF7D7D000000FFFF
(1708107812.429924) can1 0CEF0017#812B8813CD0AFFFF
(1708107812.430550) can1 18FF1080#000000FFFFFFFD00
(1708107812.431871) can1 18FF1180#0300FCFDFFFF02FF
(1708107812.432987) can1 18FF1380#000000003FC0C006
(1708107812.433531) can1 09F20000#000000FFFFFFFFFF
(1708107812.434067) can1 0CEF0100#B020000000625400
(1708107812.434629) can1 18FFDC00#02FFFF6E921B00FF
(1708107812.435865) can1 04EF001C#8258463E7CCFB8DD
(1708107812.438271) can1 18E8FF00#02FFFFFFFF00EF00
(1708107812.445962) can1 04EF001C#075BDF15F9CC21F6
(1708107812.448240) can1 0CF00400#FF7D7D000000FFFF
(1708107812.453255) can1 0CEF0100#B020000000625400
(1708107812.456050) can1 04EF001C#C85D266B36EAD8A8
(1708107812.458267) can1 18FEF200#0000FFFFFFFF37FF
(1708107812.466181) can1 04EF001C#FA5F05F904A8FB7A
(1708107812.468240) can1 0CF00400#FF7D7D000000FFFF
(1708107812.468876) can1 0CEF1100#39C5ECAF9AF77150
(1708107812.473253) can1 18FFDC00#2014010000507B19
(1708107812.473863) can1 0CEF0100#B020000000625400
(1708107812.476275) can1 04EF001C#EC42FB5412750517
(1708107812.478227) can1 18FFDC00#2116000000A4FFA3
(1708107812.478847) can1 0CF00300#CF004FFF00FFFFFF
(1708107812.483229) can1 18FFDC00#22FFFF6E921B00FF
(1708107812.486390) can1 04EF001C#7A4551E38412AFC0
(1708107812.488237) can1 0CF00400#FF7D7D000000FFFF
(1708107812.489520) can1 18FF1CF3#0000000000000000
(1708107812.493254) can1 0CEF0100#B020000000625400
(1708107812.496490) can1 04EF001C#394878F6C4DF8515
(1708107812.498234) can1 18FEF100#FF2500F5FF11DFFF
(1708107812.506619) can1 04EF001C#F94AAEF404DD5317
(1708107812.508238) can1 0CF00400#FF7D7D000000FFFF
(1708107812.509462) can1 0CEF0017#812B8813CD0AFFFF
(1708107812.513255) can1 0CEF0100#B020000000625400
(1708107812.516708) can1 04EF001C#B84DD5FB45DA2818
(1708107812.518212) can1 0CEF1100#D2EB213DB650F2FE
(1708107812.518804) can1 18E8FF00#02FFFFFFFF00EF00
(1708107812.523246) can1 18FFDC00#4014010000507B19
(1708107812.526836) can1 04EF001C#7950FAFE84F7073D
(1708107812.528221) can1 18FFDC00#4117000000A4FFA3
(1708107812.528885) can1 0CF00300#CF004FFF00FFFFFF
(1708107812.529389) can1 0CF00400#FF7D7D000000FFFF
(1708107812.529975) can1 18FF1080#000000FFFFFFFD00
(1708107812.530872) can1 18FF1180#0300FCFDFFFF02FF
(1708107812.533222) can1 18FFDC00#42FFFF6E921B00FF
(1708107812.533815) can1 09F20000#000000FFFFFFFFFF
(1708107812.534397) can1 0CEF0100#B020000000625400
(1708107812.536948) can1 04EF001C#6C53F75591F40A96
(1708107812.547063) can1 04EF001C#F95556FB04F2AB38
(1708107812.548236) can1 0CF00400#FF7D7D000000FFFF
(1708107812.553257) can1 0CEF0100#B020000000625400
(1708107812.557172) can1 04EF001C#B9587CF6473F82F5
(1708107812.558255) can1 18FEF200#0000FFFFFFFF37FF
(1708107812.567285) can1 04EF001C#7A5BA1ED847C5FAE
(1708107812.568244) can1 0CF00400#FF7D7D000000FFFF
(1708107812.568867) can1 0CEF1100#9DEB3085D1075A04
(1708107812.573242) can1 18FFDC00#6014010000507B19
(1708107812.573864) can1 0CEF0100#B020000000625400
(1708107812.576405) can1 09F8021C#EDFC87070000FFFF
(1708107812.576986) can1 18FF1C17#0001000000000000
(1708107812.577553) can1 04EF001C#845E70187A598E7B
(1708107812.578299) can1 18FFDC00#6117000000A4FFA3
(1708107812.578810) can1 09F8011C#1E6E26186C6B5BC1
(1708107812.579364) can1 0CF00300#CF004FFF00FFFFFF
(1708107812.579953) can1 19FA031C#EDD25700A0006500
(1708107812.581445) can1 0DF0101C#EDF0A34D90EC9D2B
(1708107812.582464) can1 18FEE81C#860500002164447E
(1708107812.583219) can1 18FFDC00#62FFFF6E921B00FF
(1708107812.583834) can1 19FA041C#609FEDFF0D017512
(1708107812.584563) can1 19FA041C#6158CA0410FFFFFF
(1708107812.585573) can1 19FA041C#62FFFF055528D020
(1708107812.586558) can1 19FA041C#63A00FFFFFFFFFFF
(1708107812.587513) can1 04EF001C#9F4193DF61866D7C
(1708107812.588243) can1 0CF00400#FF7D7D000000FFFF
(1708107812.588919) can1 19FA041C#640CBC020C7BC409
(1708107812.589530) can1 0CEF0017#812B8813CD0AFFFF
(1708107812.590107) can1 19FA041C#65FFFFFFFFFF0DD3
(1708107812.591622) can1 19FA041C#66137648800CFFFF
(1708107812.592656) can1 19FA041C#67FFFFFF0F3E172C
(1708107812.593313) can1 0CEF0100#B020000000625400
(1708107812.593831) can1 19FA041C#68659411FFFFFFFF
(1708107812.594686) can1 19FA041C#69FF100000F4E200
(1708107812.595677) can1 19FA041C#6A00FFFFFFFFFF12
(1708107812.596756) can1 19FA041C#6B071CE0C43011FF
(1708107812.597633) can1 04EF001C#02452A33FCC2D4D0
(1708107812.598275) can1 18FEF100#FF2700F5FF11DFFF
(1708107812.598823) can1 18E8FF00#02FFFFFFFF00EF00
(1708107812.599389) can1 19FA041C#6CFFFFFFFF148214
(1708107812.600723) can1 19FA041C#6D2E22F00AFFFFFF
(1708107812.601723) can1 19FA041C#6EFFFF19FD0C748B
(1708107812.602753) can1 19FA041C#6FB80BFFFFFFFFFF
(1708107812.603747) can1 19FA041C#701AFD0C72CED80E
(1708107812.604787) can1 19FA041C#71FFFFFFFFFF1D28
(1708107812.605868) can1 19FA041C#723C34B70410FFFF
(1708107812.606789) can1 19FA041C#73FFFFFF2CB61CFC
(1708107812.607744) can1 04EF001C#BB4786F9440079DA
(1708107812.608321) can1 0CF00400#FF7D7D000000FFFF
(1708107812.608961) can1 19FA041C#74856810FFFFFFFF
(1708107812.609544) can1 18FF1CF3#0000000000000000
(1708107812.610041) can1 19FA041C#75FF30A91A308EA0
(1708107812.610862) can1 19FA041C#760FFFFFFFFFFFFF
(1708107812.613252) can1 0CEF0100#B020000000625400
(1708107812.617850) can1 04EF001C#C7498917388E76B4
(1708107812.618378) can1 0CEF1100#2B9840AA471A5B28
(1708107812.623259) can1 18FFDC00#8014010000507B19
(1708107812.627963) can1 04EF001C#634C0002635C0046
(1708107812.628579) can1 0CF00300#CF004FFF00FFFFFF
(1708107812.629116) can1 0CF00400#FF7D7D000000FFFF
(1708107812.629702) can1 18FFDC00#8118000000A4FFA3
(1708107812.630885) can1 18FF1080#000000FFFFFFFD00
(1708107812.631880) can1 18FF1180#0300FCFDFFFF0200
(1708107812.632890) can1 18FF1380#000000003FC0C006
(1708107812.633484) can1 09F20000#000000FFFFFFFFFF
(1708107812.634075) can1 0CEF0100#B020000000625400
(1708107812.634670) can1 18FFDC00#82FFFF6E921B00FF
(1708107812.638091) can1 04EF001C#224F5B0922BF5BAD
(1708107812.648190) can1 04EF001C#0752973C06429678
(1708107812.648834) can1 0CF00400#FF7D7D000000FFFF
(1708107812.653244) can1 18FEEF00#FFFFFF00FFFFFFFF
(1708107812.653862) can1 0CEF0100#B020000000625400
(1708107812.658264) can1 18FEF200#0000FFFFFFFF37FF
(1708107812.658790) can1 04EF001C#395498CA3884994E
(1708107812.668254) can1 0CF00400#FF7D7D000000FFFF
(1708107812.668789) can1 04EF001C#FA564DD0FBE64C34
(1708107812.669337) can1 0CEF1100#6C9C7353955F647B
(1708107812.669890) can1 0CEF0017#812B8813CD0AFFFF
(1708107812.673239) can1 18FFDC00#A014010000507B19
(1708107812.673845) can1 0CEF0100#B020000000625400
(1708107812.678240) can1 18FFDC00#A118000000A4FFA3
(1708107812.678771) can1 04EF001C#B85975CFBA0977CB
(1708107812.679338) can1 0CF00300#CF004FFF00FFFFFF
(1708107812.679919) can1 18E8FF00#02FFFFFFFF00EF00
(1708107812.683234) can1 18FFDC00#A2FFFF6E921B00FF
(1708107812.683833) can1 0CEF1700#01AB8813CD0AFFFF
(1708107812.688255) can1 0CF00400#FF7D7D000000FFFF
(1708107812.688785) can1 04EF001C#7A5C99DA780C9BDE
(1708107812.689538) can1 18FF1CF3#0000000000000000
(1708107812.693278) can1 0CEF0100#B020000000625400
(1708107812.693823) can1 18FEF600#FFFF3C2AFFFFFFFF
(1708107812.698229) can1 18FEF100#FF2700F5FF11DFFF
(1708107812.698788) can1 04EF001C#385FC1C939EFC02D
(1708107812.708247) can1 0CF00400#FF7D7D000000FFFF
(1708107812.708927) can1 04EF001C#FA41F5C7FBD1F403
(1708107812.713255) can1 0CEF0100#B020000000625400
(1708107812.718223) can1 0CEF1100#A38E56EFC7B69D28
(1708107812.718958) can1 04EF001C#B8449DD2B9B49C76
(1708107812.723248) can1 18FFDC00#C014010000507B19
(1708107812.728228) can1 18FFDC00#C118000000A4FFA3
(1708107812.728868) can1 0CF00300#CF004FFF00FFFFFF
(1708107812.729358) can1 04EF001C#794742D97857439D
(1708107812.729931) can1 0CF00400#FF7D7D000000FFFF
(1708107812.730885) can1 18FF1080#000000FFFFFFFD00
(1708107812.731877) can1 18FF1180#0300FCFDFFFF02FF
(1708107812.733224) can1 18FFDC00#C2FFFF6E921B00FF
(1708107812.733833) can1 09F20000#000000FFFFFFFFFF
(1708107812.734441) can1 0CEF0100#B020000000625400
(1708107812.739184) can1 04EF001C#394A68D439DA6810
(1708107812.748252) can1 0CF00400#FF7D7D000000FFFF
(1708107812.749296) can1 04EF001C#FA4C9DCAFA3C9DEE
(1708107812.753259) can1 0CEF0100#B020000000625400
(1708107812.758262) can1 18FEF200#0000FFFFFFFF37FF
(1708107812.759410) can1 04EF001C#B84FC5D947783ABA
(1708107812.768251) can1 0CF00400#FF7D7D000000FFFF
(1708107812.768770) can1 0CEF1100#E8822674B0F0BC51
(1708107812.769569) can1 04EF001C#9E520AF460E5F417
(1708107812.773248) can1 18FFDC00#E014010000507B19
(1708107812.773870) can1 0CEF0100#B020000000625400
(1708107812.778226) can1 18FFDC00#E118000000A4FFA3
(1708107812.778791) can1 0CF00300#CF004FFF00FFFFFF
(1708107812.779666) can1 04EF001C#5D55F7EBA3820968
(1708107812.783233) can1 18FFDC00#E2FFFF6E921B00FF
(1708107812.788243) can1 0CF00400#FF7D7D000000FFFF
(1708107812.789483) can1 0CEF0017#812B8813CD0AFFFF
(1708107812.790055) can1 04EF001C#2058E10EDE2F1F2D
(1708107812.793254) can1 0CEF0100#B020000000625400
(1708107812.798044) can1 18FF1C17#0001000000000000
(1708107812.798610) can1 18E8FF00#02FFFFFFFF00EF00
(1708107812.799186) can1 18FEF100#FF2700F5FF11DFFF
(1708107812.799921) can1 04EF001C#6E5BB57D900C4B7E
(1708107812.808256) can1 0CF00400#FF7D7D000000FFFF
(1708107812.809510) can1 18FF1CF3#0000000000000000
(1708107812.810069) can1 04EF001C#605E93089DE96EEB
(1708107812.813255) can1 0CEF0100#B020000000625400
(1708107812.818226) can1 0CEF1100#1BBC6D22BE65A8EA
(1708107812.820064) can1 04EF001C#DA40DCC627D72105
(1708107812.823254) can1 18FFDC00#0014010000507B19
(1708107812.828242) can1 18FFDC00#0118000000A4FFA3
(1708107812.828880) can1 0CF00300#CF004FFF00FFFFFF
(1708107812.829392) can1 0CF00400#FF7D7D000000FFFF
(1708107812.829945) can1 0CEF0017#812B8813CD0AFFFF
(1708107812.830499) can1 04EF001C#E743F82D1AD405EE
(1708107812.831887) can1 18FF1080#000000FFFFFFFD00
(1708107812.832935) can1 18FF1180#0300FCFDFFFF02FF
(1708107812.833494) can1 09F20000#000000FFFFFFFFFF
(1708107812.834096) can1 0CEF0100#B020000000625400
(1708107812.834696) can1 18FF1380#000000003FC0C006
(1708107812.835207) can1 18FFDC00#02FFFF6E921B00FF
(1708107812.838266) can1 18E8FF00#02FFFFFFFF00EF00
(1708107812.840305) can1 04EF001C#7E464DE083B1B043
(1708107812.848247) can1 0CF00400#FF7D7D000000FFFF
(1708107812.848893) can1 18FECA00#40FF00000000FFFF
(1708107812.850401) can1 04EF001C#9F49D3F7628E2E74
(1708107812.853253) can1 0CEF0100#B020000000625400
(1708107812.858264) can1 18FEF200#0000FFFFFFFF37FF
(1708107812.860528) can1 04EF001C#FE4BA1FD034C5CBE
(1708107812.868241) can1 0CF00400#FF7D7D000000FFFF
(1708107812.868773) can1 0CEF1100#54B01C99C23118CB
(1708107812.869510) can1 0CEA1C00#00EE000000000000
(1708107812.870635) can1 04EF001C#674E14309A09E933
(1708107812.871659) can1 18EEFF1C#0204450E00000042
(1708107812.873249) can1 18FFDC00#2014010000507B19
(1708107812.873882) can1 0CEF0100#B020000000625400
(1708107812.878252) can1 18FFDC00#2118000000A4FFA3
(1708107812.878855) can1 0CF00300#CF004FFF00FFFFFF
(1708107812.880732) can1 04EF001C#2551AC3FD9B6509C
(1708107812.881348) can1 15FD069B#2CC173FFFFFFFFFF
(1708107812.883217) can1 18FFDC00#22FFFF6E921B00FF
(1708107812.888257) can1 0CF00400#FF7D7D000000FFFF
(1708107812.889512) can1 18FF1CF3#0000000000000000
(1708107812.890851) can1 04EF001C#7A53E1C586D41D06
(1708107812.893254) can1 0CEF0100#B020000000625400
(1708107812.898225) can1 18FEF100#FF2700F5FF11DFFF
(1708107812.900962) can1 04EF001C#385689D0C53174F3
(1708107812.908252) can1 0CF00400#FF7D7D000000FFFF
(1708107812.909494) can1 0CEF0017#812B8813CD0AFFFF
(1708107812.911072) can1 04EF001C#F9583ED604BFC375
(1708107812.913257) can1 0CEF0100#B020000000625400
(1708107812.918222) can1 0CEF1100#87A61EC49EE616E8
(1708107812.918823) can1 18E8FF00#02FFFFFFFF00EF00
(1708107812.921191) can1 04EF001C#EC5B337D121CCD7E
(1708107812.923234) can1 18FFDC00#4014010000507B19
(1708107812.928237) can1 18FFDC00#4118000000A4FFA3
(1708107812.928856) can1 0CF00300#CF004FFF00FFFFFF
(1708107812.929371) can1 0CF00400#FF7D7D000000FFFF
(1708107812.931280) can1 04EF001C#E65E11281899EFAB
(1708107812.931890) can1 18FF1080#000000FFFFFFFD00
(1708107812.932934) can1 18FF1180#0300FCFDFFFF02FF
(1708107812.933498) can1 09F20000#000000FFFFFFFFFF
(1708107812.934086) can1 0CEF0100#B020000000625400
(1708107812.934624) can1 18FFDC00#42FFFF6E921B00FF
(1708107812.941418) can1 04EF001C#384131C7C706CEC4
(1708107812.948250) can1 0CF00400#FF7D7D000000FFFF
(1708107812.951514) can1 04EF001C#F943E6BD061419DE
(1708107812.953255) can1 0CEF0100#B020000000625400
(1708107812.958257) can1 18FEF200#0000FFFFFFFF37FF
(1708107812.961626) can1 04EF001C#B8468DB047B17273
(1708107812.968273) can1 0CF00400#FF7D7D000000FFFF
(1708107812.968904) can1 0CEF1100#F8A602FC4BDCDF81
(1708107812.971720) can1 04EF001C#794932B779593293
(1708107812.973240) can1 18FFDC00#6014010000507B19
(1708107812.973836) can1 0CEF0100#B020000000625400
(1708107812.978241) can1 18FFDC00#6117000000A4FFA3
(1708107812.978793) can1 0CF00300#CF004FFF00FFFFFF
(1708107812.981851) can1 04EF001C#384C59BA381C59DE
(1708107812.983220) can1 18FFDC00#62FFFF6E921B00FF
(1708107812.988251) can1 0CF00400#FF7D7D000000FFFF
(1708107812.991977) can1 04EF001C#884FF43988FFF4BD
(1708107812.993251) can1 0CEF0100#B020000000625400
(1708107812.998227) can1 18FEF100#FF2600F5FF11DFFF
(1708107813.002089) can1 04EF001C#2252B37422A2B3B0
(1708107813.008247) can1 0CF00400#FF7D7D000000FFFF
(1708107813.012187) can1 04EF001C#E354440AE254454E
(1708107813.013258) can1 0CEF0100#B020000000625400
(1708107813.018201) can1 0CEF1100#CAD68FF33B28709A
(1708107813.022306) can1 04EF001C#C7577929C69778AD
(1708107813.023243) can1 18FFDC00#8014010000507B19
(1708107813.027766) can1 18FF1C17#0001000000000000
(1708107813.028386) can1 0CF00300#CF004FFF00FFFFFF
(1708107813.028895) can1 0CF00400#FF7D7D000000FFFF
(1708107813.029468) can1 18FFDC00#8117000000A4FFA3
(1708107813.030021) can1 0CEF0017#812B8813CD0AFFFF
(1708107813.032405) can1 04EF001C#625AB10C63BAB0A8
(1708107813.033025) can1 18FF1080#000000FFFFFFFD00
(1708107813.033588) can1 09F20000#000000FFFFFFFFFF
(1708107813.034168) can1 0CEF0100#B020000000625400
(1708107813.034838) can1 18FF1180#0300FCFDFFFF02FF
(1708107813.035356) can1 18FFDC00#82FFFF6E921B00FF
(1708107813.035915) can1 18FF1380#000000003FC0C006
(1708107813.038271) can1 18E8FF00#02FFFFFFFF00EF00
(1708107813.042532) can1 04EF001C#225DCB0B23DDCACF
(1708107813.048249) can1 0CF00400#FF7D7D000000FFFF
(1708107813.049525) can1 18FF1CF3#0000000000000000
(1708107813.052658) can1 04EF001C#0840084609C00982
(1708107813.053338) can1 0CEF0100#B020000000625400
(1708107813.058249) can1 18FEF200#0000FFFFFFFF37FF
(1708107813.062746) can1 04EF001C#384229C439E22820
(1708107813.068247) can1 0CF00400#FF7D7D000000FFFF
(1708107813.068777) can1 0CEF1100#88D16562DAFC0715
(1708107813.069547) can1 0CEF0017#812B8813CD0AFFFF
(1708107813.072928) can1 04EF001C#F944DECAFB44DC8E
(1708107813.073484) can1 0CEF0100#B020000000625400
(1708107813.074000) can1 18FFDC00#A014010000507B19
(1708107813.078244) can1 18FFDC00#A116000000A4FFA3
(1708107813.078844) can1 0CF00300#CF004FFF00FFFFFF
(1708107813.079375) can1 18E8FF00#02FFFFFFFF00EF00
(1708107813.082972) can1 04EF001C#B84785C1BA878745
(1708107813.083557) can1 18FFDC00#A2FFFF6E921B00FF
(1708107813.084092) can1 09F8021C#EEFC87070700FFFF
(1708107813.085026) can1 09F8011C#206E26186C6B5BC1
(1708107813.086009) can1 19FA031C#EED25700A0006500
(1708107813.087008) can1 0DF0101C#EEF0A34DA0139E2B
(1708107813.088033) can1 18FEE81C#860500002164427E
(1708107813.088640) can1 0CF00400#FF7D7D000000FFFF
(1708107813.089200) can1 19FA041C#809FEEFF0D017512
(1708107813.089770) can1 18FF1CF3#0000000000000000
(1708107813.090353) can1 19FA041C#8158CACC10FFFFFF
(1708107813.091128) can1 19FA041C#82FFFF055528D020
(1708107813.092134) can1 19FA041C#833C0FFFFFFFFFFF
(1708107813.093080) can1 04EF001C#1F4B47F51DCB4531
(1708107813.093668) can1 0CEF0100#B020000000625400
(1708107813.094242) can1 19FA041C#840CBC020C7BC409
(1708107813.095191) can1 19FA041C#85FFFFFFFFFF0DD3
(1708107813.096170) can1 19FA041C#86137648100EFFFF
(1708107813.097187) can1 19FA041C#87FFFFFF0F3E172C
(1708107813.098200) can1 19FA041C#88659411FFFFFFFF
(1708107813.098764) can1 18FEF100#FF2500F5FF11DFFF
(1708107813.099360) can1 19FA041C#89FF100000F4E200
(1708107813.100244) can1 19FA041C#8A00FFFFFFFFFF12
(1708107813.101244) can1 19FA041C#8B071CE0C43011FF
(1708107813.102238) can1 19FA041C#8CFFFFFFFF148214
(1708107813.103193) can1 04EF001C#E24D8D1BE10D8E1F
(1708107813.104265) can1 19FA041C#8D2E22540BFFFFFF
(1708107813.105281) can1 19FA041C#8EFFFF19FD0C748B
(1708107813.106293) can1 19FA041C#8FB80BFFFFFFFFFF
(1708107813.107286) can1 19FA041C#901AFD0C72CE740E
(1708107813.108238) can1 0CF00400#FF7D7D000000FFFF
(1708107813.108824) can1 19FA041C#91FFFFFFFFFF1D28
(1708107813.110325) can1 19FA041C#923C34B70410FFFF
(1708107813.111343) can1 19FA041C#93FFFFFF2CB61CFC
(1708107813.112398) can1 19FA041C#94856810FFFFFFFF
(1708107813.113259) can1 0CEF0100#B020000000625400
(1708107813.113810) can1 04EF001C#A550203EA670235A
(1708107813.115384) can1 19FA041C#95FF30A91A308EA0
(1708107813.116406) can1 19FA041C#960FFFFFFFFFFFFF
(1708107813.118227) can1 0CEF1100#57C1D45E08B15E43
(1708107813.123247) can1 18FFDC00#C014010000507B19
(1708107813.123867) can1 04EF001C#B9522CDCBAD22F18
(1708107813.128237) can1 18FFDC00#C116000000A4FFA3
(1708107813.128848) can1 0CF00300#CF004FFF00FFFFFF
(1708107813.129366) can1 0CF00400#FF7D7D000000FFFF
(1708107813.132892) can1 18FF1080#000000FFFFFFFD00
(1708107813.133508) can1 09F20000#000000FFFFFFFFFF
(1708107813.134036) can1 04EF001C#7A55D1C379F5D227
(1708107813.134694) can1 0CEF0100#B020000000625400
(1708107813.135208) can1 18FF1180#0300FCFDFFFF02FF
(1708107813.135851) can1 18FFDC00#C2FFFF6E921B00FF
(1708107813.138261) can1 09F20100#E016000200FFFFC3
(1708107813.143221) can1 09F20100#E172C90400006E92
(1708107813.143817) can1 04EF001C#3A58FBCE39F8F82A
(1708107813.148245) can1 0CF00400#FF7D7D000000FFFF
(1708107813.148882) can1 09F20100#E21B00FFFFFFFF00
(1708107813.149424) can1 18FEEE00#3CFFFFFFFFFF42FF
(1708107813.149950) can1 0CEF0017#812B8813CD0AFFFF
(1708107813.153242) can1 09F20100#E30100FFFFFFFFFF
(1708107813.153798) can1 04EF001C#FC5A2BFCFF9A2878
(1708107813.154486) can1 0CEF0100#B020000000625400
(1708107813.154993) can1 18FEEF00#FFFFFF00FFFFFFFF
(1708107813.158263) can1 18FEF200#0000FFFFFFFF37FF
(1708107813.158873) can1 18E8FF00#02FFFFFFFF00EF00
(1708107813.163270) can1 18FEF700#FFFF1A01F500F600
(1708107813.163915) can1 04EF001C#B95D54D3BA3D57F7
(1708107813.168247) can1 0CF00400#FF7D7D000000FFFF
(1708107813.168885) can1 0CEF1100#16C5E617E578016C
(1708107813.173246) can1 18FFDC00#E014010000507B19
(1708107813.173877) can1 0CEF0100#B020000000625400
(1708107813.174418) can1 04EF001C#7B4078DE79E07A3A
(1708107813.178242) can1 18FFDC00#E116000000A4FFA3
(1708107813.178825) can1 0CF00300#CF004FFF00FFFFFF
(1708107813.183236) can1 18FFDC00#E2FFFF6E921B00FF
(1708107813.183815) can1 0CEF1700#01AB8813CD0AFFFF
(1708107813.184381) can1 04EF001C#394320CD3B6322A9
(1708107813.188237) can1 0CF00400#FF7D7D000000FFFF
(1708107813.188913) can1 18FEFC00#FFA3FFFFFFFFFFFF
(1708107813.189603) can1 18FF1CF3#0000000000000000
(1708107813.193255) can1 0CEF0100#B020000000625400
(1708107813.193849) can1 18FEF600#FFFF3C2AFFFFFFFF
(1708107813.194412) can1 04EF001C#8846BC408A26BE64
(1708107813.198235) can1 18FEF100#FF2500F5FF11DFFF
(1708107813.204328) can1 04EF001C#24496D2F26096F2B
(1708107813.208236) can1 0CF00400#FF7D7D000000FFFF
(1708107813.213278) can1 0CEF0100#B020000000625400
(1708107813.214443) can1 04EF001C#714C1292731C1096
(1708107813.218230) can1 0CEF1100#E6F6859A726879D8
(1708107813.223250) can1 18FFDC00#0014010000507B19
(1708107813.224553) can1 04EF001C#EF4E9860EEDE99A4
(1708107813.228226) can1 18FFDC00#0116000000A4FFA3
(1708107813.228867) can1 0CF00300#CF004FFF00FFFFFF
(1708107813.229393) can1 0CF00400#FF7D7D000000FFFF
(1708107813.233228) can1 18FFDC00#02FFFF6E921B00FF
(1708107813.233826) can1 09F20000#000000FFFFFFFFFF
(1708107813.234428) can1 0CEF0100#B020000000625400
(1708107813.235013) can1 04EF001C#8C5100678DA101C3
(1708107813.235584) can1 18FF1080#000000FFFFFFFD00
(1708107813.236883) can1 18FF1180#0300FCFDFFFF02FF
(1708107813.237883) can1 18FF1380#000000003FC0C006
(1708107813.244763) can1 04EF001C#24548522258484A6
(1708107813.248239) can1 0CF00400#FF7D7D000000FFFF
(1708107813.253253) can1 0CEF0100#B020000000625400
(1708107813.254875) can1 04EF001C#6757DC3966A7DD9D
(1708107813.258260) can1 18FEF200#0000FFFFFFFF37FF
(1708107813.264991) can1 04EF001C#3959F0C738E9F123
(1708107813.268236) can1 0CF00400#FF7D7D000000FFFF
(1708107813.268878) can1 0CEF1100#B8F548EA29982C87
(1708107813.269520) can1 0CEF0017#812B8813CD0AFFFF
(1708107813.273254) can1 18FFDC00#2014010000507B19
(1708107813.273872) can1 0CEF0100#B020000000625400
(1708107813.275107) can1 04EF001C#565CB4BA540CB6BE
(1708107813.278244) can1 18FFDC00#2116000000A4FFA3
(1708107813.278797) can1 0CF00300#CF004FFF00FFFFFF
(1708107813.279372) can1 18E8FF00#02FFFFFFFF00EF00
(1708107813.281019) can1 0DF50B9B#17FFFFFFFF0000FF
(1708107813.283218) can1 18FFDC00#22FFFF6E921B00FF
(1708107813.285207) can1 04EF001C#ED5E1A60EF8E18E4
(1708107813.288237) can1 0CF00400#FF7D7D000000FFFF
(1708107813.289552) can1 18FF1CF3#0000000000000000
(1708107813.293255) can1 0CEF0100#B020000000625400
(1708107813.295299) can1 04EF001C#AE41A367ACD1A1A3
(1708107813.298231) can1 18FEF100#FF2500F5FF11DFFF
(1708107813.305424) can1 04EF001C#394418DA3BF41A3E
(1708107813.308239) can1 0CF00400#FF7D7D000000FFFF
(1708107813.309514) can1 0CEF0017#812B8813CD0AFFFF
(1708107813.313258) can1 0CEF0100#B020000000625400
(1708107813.315526) can1 04EF001C#2F4716692DF7148D
(1708107813.318230) can1 0CEF1100#119B97FA053B9FB9
(1708107813.318843) can1 18E8FF00#02FFFFFFFF00EF00
(1708107813.323248) can1 18FFDC00#4014010000507B19
(1708107813.325642) can1 04EF001C#EE49A16FECD9A3AB
(1708107813.328221) can1 18FFDC00#4116000000A4FFA3
(1708107813.328861) can1 0CF00300#CF004FFF00FFFFFF
(1708107813.329372) can1 0CF00400#FF7D7D000000FFFF
(1708107813.333218) can1 18FFDC00#42FFFF6E921B00FF
(1708107813.333836) can1 09F20000#000000FFFFFFFFFF
(1708107813.334426) can1 0CEF0100#B020000000625400
(1708107813.334987) can1 18FF1080#000000FFFFFFFD00
(1708107813.335767) can1 04EF001C#D74CB1A2D5FCB346
(1708107813.336344) can1 18FF1180#0300FCFDFFFF02FF
(1708107813.345862) can1 04EF001C#3A4F43F9388F415D
(1708107813.347817) can1 18FF1C17#0001000000000000
(1708107813.348403) can1 0CF00400#FF7D7D000000FFFF
(1708107813.353253) can1 0CEF0100#B020000000625400
(1708107813.355972) can1 04EF001C#FB5174EFF951768B
(1708107813.358260) can1 18FEF200#0000FFFFFFFF37FF
(1708107813.366106) can1 04EF001C#B9541CFABB141EDE
(1708107813.368241) can1 0CF00400#FF7D7D000000FFFF
(1708107813.368773) can1 0CEF1100#5C9B86D2E8F3CB97
(1708107813.373241) can1 18FFDC00#6014010000507B19
(1708107813.373873) can1 0CEF0100#B020000000625400
(1708107813.376187) can1 04EF001C#AE571341AC371145
(1708107813.378226) can1 18FFDC00#6116000000A4FFA3
(1708107813.378823) can1 0CF00300#CF004FFF00FFFFFF
(1708107813.379384) can1 15FD069B#2DC273FFFFFFFFFF
(1708107813.383211) can1 18FFDC00#62FFFF6E921B00FF
(1708107813.386323) can1 04EF001C#395AE8F43B1AEAD0
(1708107813.388237) can1 0CF00400#FF7D7D000000FFFF
(1708107813.389521) can1 0CEF0017#812B8813CD0AFFFF
(1708107813.393252) can1 0CEF0100#B020000000625400
(1708107813.396433) can1 04EF001C#645D8F1B665D8D7F
(1708107813.398228) can1 18FEF100#FF2600F5FF11DFFF
(1708107813.398830) can1 18E8FF00#02FFFFFFFF00EF00
(1708107813.406566) can1 04EF001C#2340223E2140205A
(1708107813.408242) can1 0CF00400#FF7D7D000000FFFF
(1708107813.409552) can1 18FF1CF3#0000000000000000
(1708107813.413254) can1 0CEF0100#B020000000625400
(1708107813.416655) can1 04EF001C#084310650AA312E1
(1708107813.418220) can1 0CEF1100#8E8A7CC63BA71989
(1708107813.423250) can1 18FFDC00#8014010000507B19
(1708107813.426777) can1 04EF001C#A4458903A6858BA7
(1708107813.428218) can1 18FFDC00#8117000000A4FFA3
(1708107813.428856) can1 0CF00300#CF004FFF00FFFFFF
(1708107813.429373) can1 0CF00400#FF7D7D000000FFFF
(1708107813.433226) can1 18FFDC00#82FFFF6E921B00FF
(1708107813.433849) can1 09F20000#000000FFFFFFFFFF
(1708107813.434427) can1 0CEF0100#B020000000625400
(1708107813.434997) can1 18FF1080#000000FFFFFFFD00
(1708107813.435891) can1 18FF1180#0300FCFDFFFF02FF
(1708107813.436899) can1 18FF1380#000000003FC0C006
(1708107813.437425) can1 04EF001C#C1488726C3A885A2
(1708107813.446997) can1 04EF001C#484B127D4A5B1019
(1708107813.448238) can1 0CF00400#FF7D7D000000FFFF
(1708107813.453255) can1 0CEF0100#B020000000625400
(1708107813.457093) can1 04EF001C#E54D8A13E75D8877
(1708107813.458246) can1 18FEF200#0000FFFFFFFF37FF
(1708107813.467213) can1 04EF001C#3A50BBF63840B992
(1708107813.468243) can1 0CF00400#FF7D7D000000FFFF
(1708107813.468869) can1 0CEF1100#C889B776D860F717
(1708107813.473262) can1 18FFDC00#A014010000507B19
(1708107813.473827) can1 0CEF0100#B020000000625400
(1708107813.477336) can1 04EF001C#FA526DF4F8626FB0
(1708107813.478226) can1 18FFDC00#A117000000A4FFA3
(1708107813.478809) can1 0CF00300#CF004FFF00FFFFFF
(1708107813.483237) can1 18FFDC00#A2FFFF6E921B00FF
(1708107813.487426) can1 04EF001C#B95514EBBB6516AF
(1708107813.488246) can1 0CF00400#FF7D7D000000FFFF
(1708107813.493263) can1 0CEF0100#B020000000625400
(1708107813.497531) can1 04EF001C#7A58B9FE7808BBDA
(1708107813.498243) can1 18FEF100#FF2700F5FF11DFFF
(1708107813.507678) can1 04EF001C#3B5BE2F5390BE0D1
(1708107813.508253) can1 0CF00400#FF7D7D000000FFFF
(1708107813.509538) can1 0CEF0017#812B8813CD0AFFFF
(1708107813.513267) can1 0CEF0100#B020000000625400
(1708107813.517780) can1 04EF001C#FA5D15FBF80D17DF
(1708107813.518309) can1 0CEF1100#C1BF85727BBD9844
(1708107813.518879) can1 18E8FF00#02FFFFFFFF00EF00
(1708107813.523249) can1 18FFDC00#C014010000507B19
(1708107813.527880) can1 04EF001C#B940BCFEBB50BE9A
(1708107813.528460) can1 0CF00300#CF004FFF00FFFFFF
(1708107813.529012) can1 0CF00400#FF7D7D000000FFFF
(1708107813.529592) can1 18FF1CF3#0000000000000000
(1708107813.530158) can1 18FFDC00#C118000000A4FFA3
(1708107813.533236) can1 18FFDC00#C2FFFF6E921B00FF
(1708107813.533844) can1 09F20000#000000FFFFFFFFFF
(1708107813.534438) can1 0CEF0100#B020000000625400
(1708107813.535026) can1 18FF1080#000000FFFFFFFD00
(1708107813.535889) can1 18FF1180#0300FCFDFFFF02FF
(1708107813.537995) can1 04EF001C#7B4360ED791362C9
(1708107813.548111) can1 04EF001C#3A460BE0387609A4
(1708107813.548704) can1 0CF00400#FF7D7D000000FFFF
(1708107813.549534) can1 0CEF0017#812B8813CD0AFFFF
(1708107813.553272) can1 0CEF0100#B020000000625400
(1708107813.558219) can1 04EF001C#FB48BCE6F958BE82
(1708107813.558820) can1 18E8FF00#02FFFFFFFF00EF00
(1708107813.559402) can1 18FEF200#0000FFFFFFFF37FF
(1708107813.568253) can1 0CF00400#FF7D7D000000FFFF
(1708107813.568880) can1 04EF001C#B94BE405BB4BE681
(1708107813.569344) can1 0CEF1100#09B299311B473940
(1708107813.573258) can1 18FFDC00#E014010000507B19
(1708107813.573873) can1 0CEF0100#B020000000625400
(1708107813.577599) can1 18FF1C17#0001000000000000
(1708107813.578233) can1 18FFDC00#E118000000A4FFA3
(1708107813.578789) can1 04EF001C#7A4E091878AE0B7C
(1708107813.579355) can1 0CF00300#CF004FFF00FFFFFF
(1708107813.583230) can1 18FFDC00#E2FFFF6E921B00FF
(1708107813.588250) can1 0CF00400#FF7D7D000000FFFF
(1708107813.588895) can1 04EF001C#3951B01F3BB1B27B
(1708107813.589560) can1 18FF1CF3#0000000000000000
(1708107813.590157) can1 09F8021C#EFFC87070000FFFF
(1708107813.591589) can1 09F8011C#1E6E26186A6B5BC1
(1708107813.592616) can1 19FA031C#EFD25700A0006500
(1708107813.593273) can1 0CEF0100#B020000000625400
(1708107813.593806) can1 0DF0101C#EFF0A34DA0139E2B
(1708107813.594666) can1 18FEE81C#860500002164417E
(1708107813.598242) can1 18FEF100#FF2900F5FF11DFFF
(1708107813.598815) can1 04EF001C#9054345292F43676
(1708107813.608246) can1 0CF00400#FF7D7D000000FFFF
(1708107813.608886) can1 04EF001C#34578D7136D78F75
(1708107813.613282) can1 0CEF0100#B020000000625400
(1708107813.618232) can1 0CEF1100#54ACFC9EF72DF964
(1708107813.618930) can1 04EF001C#EC5923BFEDB922DB
(1708107813.623260) can1 18FFDC00#0014010000507B19
(1708107813.628231) can1 18FFDC00#0119000000A4FFA3
(1708107813.628893) can1 0CF00300#CF004FFF00FFFFFF
(1708107813.629368) can1 04EF001C#D15C3752D13C37B6
(1708107813.629896) can1 0CEF0017#812B8813CD0AFFFF
(1708107813.630524) can1 0CF00400#FF7D7D000000FFFF
(1708107813.633244) can1 18FFDC00#02FFFF6E921B00FF
(1708107813.633855) can1 09F20000#000000FFFFFFFFFF
(1708107813.634427) can1 0CEF0100#B020000000625400
(1708107813.635011) can1 19FA041C#A09FEFFF0D017512
(1708107813.635906) can1 18FF1080#000000FFFFFFFD00
(1708107813.636483) can1 19FA041C#A158CA0410FFFFFF
(1708107813.637046) can1 18FF1180#0300FCFDFFFF02FF
(1708107813.637621) can1 19FA041C#A2FFFF055528D020
(1708107813.638191) can1 18FF1380#000000003FC0C006
(1708107813.638773) can1 18E8FF00#02FFFFFFFF00EF00
(1708107813.639350) can1 04EF001C#5F5FA5215F9FA565
(1708107813.640254) can1 19FA041C#A33C0FFFFFFFFFFF
(1708107813.641201) can1 19FA041C#A40CBC020C7BFC08
(1708107813.642211) can1 19FA041C#A5FFFFFFFFFF0DD3
(1708107813.643214) can1 19FA041C#A6137648E40CFFFF
(1708107813.644236) can1 19FA041C#A7FFFFFF0F3E172C
(1708107813.645269) can1 19FA041C#A865F811FFFFFFFF
(1708107813.646359) can1 19FA041C#A9FF100000F4E200
(1708107813.647277) can1 19FA041C#AA00FFFFFFFFFF12
(1708107813.648239) can1 0CF00400#FF7D7D000000FFFF
(1708107813.648998) can1 19FA041C#AB071CE0C43011FF
(1708107813.650250) can1 04EF001C#03431BDDFC24E43E
(1708107813.651331) can1 19FA041C#AB071CE0C43011FF
(1708107813.652322) can1 19FA041C#ACFFFFFFFF148214
(1708107813.653249) can1 18FEEF00#FFFFFF00FFFFFFFF
(1708107813.653832) can1 0CEF0100#B020000000625400
(1708107813.654445) can1 19FA041C#AD2E22F00AFFFFFF
(1708107813.655371) can1 19FA041C#AEFFFF19FD0C748B
(1708107813.656380) can1 19FA041C#AF1C0CFFFFFFFFFF
(1708107813.657352) can1 19FA041C#B01AFD0C72CE740E
(1708107813.658253) can1 18FEF200#0000FFFFFFFF37FF
(1708107813.658830) can1 19FA041C#B1FFFFFFFFFF1D28
(1708107813.660336) can1 04EF001C#20450933DF52F650
(1708107813.661419) can1 19FA041C#B1FFFFFFFFFF1D28
(1708107813.662418) can1 19FA041C#B23C34B70410FFFF
(1708107813.663432) can1 19FA041C#B3FFFFFF2CB61CFC
(1708107813.664445) can1 19FA041C#B4856810FFFFFFFF
(1708107813.665437) can1 19FA041C#B5FF30A91A308E04
(1708107813.666471) can1 19FA041C#B610FFFFFFFFFFFF
(1708107813.668236) can1 0CF00400#FF7D7D000000FFFF
(1708107813.668861) can1 0CEF1100#94A1E29D21DF1FD0
(1708107813.669549) can1 04EF001C#A3479E295DD060CA
(1708107813.673258) can1 18FFDC00#2014010000507B19
(1708107813.673843) can1 0CEF0100#B020000000625400
(1708107813.678243) can1 18FFDC00#211A000000A4FFA3
(1708107813.678843) can1 0CF00300#CF004FFF00FFFFFF
(1708107813.679596) can1 04EF001C#214A7034DF7D8E77
(1708107813.683228) can1 18FFDC00#22FFFF6E921B00FF
(1708107813.683823) can1 0CEF1700#01AB8813CD0AFFFF
(1708107813.688256) can1 0CF00400#FF7D7D000000FFFF
(1708107813.689675) can1 04EF001C#DF4CB9C2211B47E1
(1708107813.693265) can1 0CEF0100#B020000000625400
(1708107813.693877) can1 18FEF600#FFFF3C2AFFFFFFFF
(1708107813.698243) can1 18FEF100#FF2B00F5FF11DFFF
(1708107813.699795) can1 04EF001C#A04FDD395E18231A
(1708107813.708237) can1 0CF00400#FF7D7D000000FFFF
(1708107813.709881) can1 04EF001C#965202946825FC97
(1708107813.713262) can1 0CEF0100#B020000000625400
(1708107813.718225) can1 0CEF1100#20D2922237463A78
(1708107813.719990) can1 04EF001C#2F55865BD2C27BB8
(1708107813.723246) can1 18FFDC00#4014010000507B19
(1708107813.728233) can1 18FFDC00#411A000000A4FFA3
(1708107813.728859) can1 0CF00300#CF004FFF00FFFFFF
(1708107813.729368) can1 0CF00400#FF7D7D000000FFFF
(1708107813.729962) can1 18FF1CF3#0000000000000000
(1708107813.730511) can1 04EF001C#1658D69EEBCF2B7D
(1708107813.733234) can1 18FFDC00#42FFFF6E921B00FF
(1708107813.733836) can1 09F20000#000000FFFFFFFFFF
(1708107813.734406) can1 0CEF0100#B020000000625400
(1708107813.735900) can1 18FF1080#000000FFFFFFFD00
(1708107813.736891) can1 18FF1180#0300FCFDFFFF02FF
(1708107813.740212) can1 04EF001C#7A5AA9FC87ED543F
(1708107813.748240) can1 0CF00400#FF7D7D000000FFFF
(1708107813.749547) can1 0CEF0017#812B8813CD0AFFFF
(1708107813.750321) can1 04EF001C#6D5D864390EA7B80
(1708107813.753266) can1 0CEF0100#B020000000625400
(1708107813.758258) can1 18FEF200#0000FFFFFFFF37FF
(1708107813.758850) can1 18E8FF00#02FFFFFFFF00EF00
(1708107813.760433) can1 04EF001C#8E408A4673F77785
(1708107813.768248) can1 0CF00400#FF7D7D000000FFFF
(1708107813.768839) can1 0CEF1100#F9D682ABFD99F26F
(1708107813.770553) can1 04EF001C#27433E0DD934C00E
(1708107813.773264) can1 18FFDC00#6014010000507B19
(1708107813.773857) can1 0CEF0100#B020000000625400
(1708107813.778240) can1 18FFDC00#611B000000A4FFA3
(1708107813.778787) can1 0CF00300#CF004FFF00FFFFFF
(1708107813.780659) can1 04EF001C#E645C9031BD234E0
(1708107813.783212) can1 18FFDC00#62FFFF6E921B00FF
(1708107813.788251) can1 0CF00400#FF7D7D000000FFFF
(1708107813.789545) can1 0CEF0017#812B8813CD0AFFFF
(1708107813.790802) can1 04EF001C#FE48B9CE003F47CD
(1708107813.793267) can1 0CEF0100#B020000000625400
(1708107813.798251) can1 18FEF100#FF2C00F5FF11DFFF
(1708107813.798843) can1 18E8FF00#02FFFFFFFF00EF00
(1708107813.800910) can1 04EF001C#BB4BE6E545BC1866
(1708107813.808249) can1 0CF00400#FF7D7D000000FFFF
(1708107813.809577) can1 18FF1CF3#0000000000000000
(1708107813.811010) can1 04EF001C#234E5220DDF9ACE3
(1708107813.813269) can1 0CEF0100#B020000000625400
(1708107813.818219) can1 0CEF1100#ACC0A54601E3B0C9
(1708107813.821137) can1 04EF001C#08518067F7067F44
(1708107813.823240) can1 18FFDC00#8014010000507B19
(1708107813.828237) can1 18FFDC00#811B000000A4FFA3
(1708107813.828784) can1 0CF00300#CF004FFF00FFFFFF
(1708107813.829367) can1 0CF00400#FF7D7D000000FFFF
(1708107813.831226) can1 04EF001C#3554949ACA936B39
(1708107813.833244) can1 18FFDC00#82FFFF6E921B00FF
(1708107813.833843) can1 09F20000#000000FFFFFFFFFF
(1708107813.834426) can1 0CEF0100#B020000000625400
(1708107813.836900) can1 18FF1080#000000FFFFFFFD00
(1708107813.837884) can1 18FF1180#0300FCFDFFFF02FF
(1708107813.838891) can1 18FF1380#000000003FC0C006
(1708107813.841361) can1 04EF001C#6556D6186516D63C
(1708107813.848250) can1 0CF00400#FF7D7D000000FFFF
(1708107813.848889) can1 18FECA00#40FF00000000FFFF
(1708107813.851443) can1 04EF001C#47598D0747598D63
(1708107813.853264) can1 0CEF0100#B020000000625400
(1708107813.858257) can1 18FEF200#0000FFFFFFFF37FF
(1708107813.861555) can1 04EF001C#7A5BA1ED7AFBA129
(1708107813.868274) can1 0CF00400#FF7D7D000000FFFF
(1708107813.868786) can1 0CEF1100#6DC4B30F730BC31F
(1708107813.869557) can1 0CEF0017#812B8813CD0AFFFF
(1708107813.871671) can1 04EF001C#3B5ECAE03A3ECBE4
(1708107813.873251) can1 18FFDC00#A014010000507B19
(1708107813.873858) can1 0CEF0100#B020000000625400
(1708107813.878230) can1 18FFDC00#A11B000000A4FFA3
(1708107813.878819) can1 0CF00300#CF004FFF00FFFFFF
(1708107813.879366) can1 18E8FF00#02FFFFFFFF00EF00
(1708107813.881787) can1 04EF001C#2E4127572F612613
(1708107813.883221) can1 18FFDC00#A2FFFF6E921B00FF
(1708107813.883914) can1 15FD069B#2EC273FFFFFFFFFF
(1708107813.888247) can1 0CF00400#FF7D7D000000FFFF
(1708107813.889576) can1 0CEA1C00#00EE000000000000
(1708107813.890924) can1 18EEFF1C#0204450E00000042
(1708107813.891910) can1 04EF001C#3E441FD23FA41E56
(1708107813.893264) can1 0CEF0100#B020000000625400
(1708107813.898237) can1 18FEF100#FF2D00F5FF11DFFF
(1708107813.902005) can1 04EF001C#7A4649F07B864854
(1708107813.906781) can1 18FF1C17#0001000000000000
(1708107813.907349) can1 18FF2117#06FFFFFF00FFFFFF
(1708107813.908244) can1 0CF00400#FF7D7D000000FFFF
(1708107813.909585) can1 18FF1CF3#0000000000000000
(1708107813.912112) can1 04EF001C#3A4973FF3B89725B
(1708107813.913255) can1 0CEF0100#B020000000625400
(1708107813.918225) can1 0CEF1100#12F42F3AC026B14A
(1708107813.922240) can1 04EF001C#FA4BA5FDF82BA7F9
(1708107813.923243) can1 18FFDC00#C014010000507B19
(1708107813.928232) can1 18FFDC00#C11B000000A4FFA3
(1708107813.928864) can1 0CF00300#CF004FFF00FFFFFF
(1708107813.929375) can1 0CF00400#FF7D7D000000FFFF
(1708107813.932339) can1 04EF001C#BA4ECFF8B82ECDFC
(1708107813.933330) can1 18FFDC00#C2FFFF6E921B00FF
(1708107813.933854) can1 09F20000#000000FFFFFFFFFF
(1708107813.934450) can1 0CEF0100#B020000000625400
(1708107813.936902) can1 18FF1080#000000FFFFFFFD00
(1708107813.937878) can1 18FF1180#0300FCFDFFFF02FF
(1708107813.942456) can1 04EF001C#7B51F0EF7AD1F10B
(1708107813.948246) can1 0CF00400#FF7D7D000000FFFF
(1708107813.952545) can1 04EF001C#3B549AEA393498EE
(1708107813.953261) can1 0CEF0100#B020000000625400
(1708107813.958260) can1 18FEF200#0000FFFFFFFF37FF
(1708107813.962681) can1 04EF001C#FA564DE0FBD64C04
(1708107813.968252) can1 0CF00400#FF7D7D000000FFFF
(1708107813.968875) can1 0CEF1100#D6F5501A0CDE062D
(1708107813.969565) can1 0CEF0017#812B8813CD0AFFFF
(1708107813.972782) can1 04EF001C#BA5977EFBBD9760B
(1708107813.973398) can1 0CEF0100#B020000000625400
(1708107813.973944) can1 18FFDC00#E014010000507B19
(1708107813.978240) can1 18FFDC00#E11B000000A4FFA3
(1708107813.978789) can1 0CF00300#CF004FFF00FFFFFF
(1708107813.979359) can1 18E8FF00#02FFFFFFFF00EF00
(1708107813.982898) can1 04EF001C#7A5C99EA7BFC982E
(1708107813.983490) can1 18FFDC00#E2FFFF6E921B00FF
(1708107813.988250) can1 0CF00400#FF7D7D000000FFFF
(1708107813.989588) can1 18FF1CF3#0000000000000000
(1708107813.993027) can1 04EF001C#C75F3901C6FF38C5
(1708107813.993641) can1 0CEF0100#B020000000625400
(1708107813.998239) can1 18FEF100#FF2D00F5FF11DFFF
(1708107814.003142) can1 04EF001C#6442770465C276E0
(1708107814.008241) can1 0CF00400#FF7D7D000000FFFF
(1708107814.013264) can1 0CEF0100#B020000000625400
(1708107814.013822) can1 04EF001C#23450A3B2125083F
(1708107814.018230) can1 0CEF1100#86E61E9EFAAE559A
(1708107814.023260) can1 18FFDC00#0014010000507B19
(1708107814.023795) can1 04EF001C#0848486E0A284A6A
(1708107814.028237) can1 18FFDC00#011B000000A4FFA3
(1708107814.028848) can1 0CF00300#CF004FFF00FFFFFF
(1708107814.029370) can1 0CF00400#FF7D7D000000FFFF
(1708107814.029930) can1 0CEF0017#812B8813CD0AFFFF
(1708107814.033242) can1 18FFDC00#02FFFF6E921B00FF
(1708107814.033766) can1 04EF001C#A44AF10CA5CAF0E8
(1708107814.034424) can1 09F20000#000000FFFFFFFFFF
(1708107814.034954) can1 0CEF0100#B020000000625400
(1708107814.037908) can1 18FF1080#000000FFFFFFFD00
(1708107814.038459) can1 18E8FF00#02FFFFFFFF00EF00
(1708107814.039036) can1 18FF1180#0300FCFDFFFF02FF
(1708107814.039880) can1 18FF1380#000000003FC0C006
(1708107814.043586) can1 04EF001C#634D083362CD09D7
(1708107814.048246) can1 0CF00400#FF7D7D000000FFFF
(1708107814.053265) can1 0CEF0100#B020000000625400
(1708107814.053791) can1 04EF001C#4750C50E46F0C4CA
(1708107814.058265) can1 18FEF200#0000FFFFFFFF37FF
(1708107814.063788) can1 04EF001C#7A52E9E47BB2E860
(1708107814.068251) can1 0CF00400#FF7D7D000000FFFF
(1708107814.068780) can1 0CEF1100#78E5FEEE3637647E
(1708107814.073261) can1 18FFDC00#2014010000507B19
(1708107814.073874) can1 0CEF0100#B020000000625400
(1708107814.074381) can1 04EF001C#3A5593E33B559287
(1708107814.078239) can1 18FFDC00#211B000000A4FFA3
(1708107814.078838) can1 0CF00300#CF004FFF00FFFFFF
(1708107814.083223) can1 18FFDC00#22FFFF6E921B00FF
(1708107814.084028) can1 04EF001C#FA5745E1FB1744C5
(1708107814.088250) can1 0CF00400#FF7D7D000000FFFF
(1708107814.089592) can1 18FF1CF3#0000000000000000
(1708107814.093266) can1 0CEF0100#B020000000625400
(1708107814.094134) can1 04EF001C#B95A6CF4B9DA6C10
(1708107814.098227) can1 18FEF100#FF2D00F5FF11DFFF
(1708107814.102249) can1 09F8021C#F0FC87070000FFFF
(1708107814.103217) can1 09F8011C#1E6E2618686B5BC1
(1708107814.104235) can1 04EF001C#B75D5A83B79D5A27
(1708107814.105254) can1 19FA031C#F0D25700A0006500
(1708107814.106252) can1 0DF0101C#F0F0A34DB03A9E2B
(1708107814.107284) can1 18FEE81C#860500002164407E
(1708107814.108243) can1 0CF00400#FF7D7D000000FFFF
(1708107814.108867) can1 19FA041C#C09FF0FF0D017512
(1708107814.109606) can1 0CEF0017#812B8813CD0AFFFF
(1708107814.110425) can1 19FA041C#C158CA6810FFFFFF
(1708107814.111381) can1 19FA041C#C2FFFF055528D020
(1708107814.112399) can1 19FA041C#C33C0FFFFFFFFFFF
(1708107814.113286) can1 0CEF0100#B020000000625400
(1708107814.113875) can1 19FA041C#C40CBC020C7BFC08
(1708107814.115360) can1 04EF001C#1D4115CF1D61158B
(1708107814.116432) can1 19FA041C#C40CBC020C7BFC08
(1708107814.117447) can1 19FA041C#C5FFFFFFFFFF0DD3
(1708107814.118279) can1 0CEF1100#5288DD263DB206B9
(1708107814.118816) can1 18E8FF00#02FFFFFFFF00EF00
(1708107814.119355) can1 19FA041C#C6137648E40CFFFF
(1708107814.120475) can1 19FA041C#C7FFFFFF0F3E172C
(1708107814.121488) can1 19FA041C#C865F811FFFFFFFF
(1708107814.122505) can1 19FA041C#C9FF100000F4E200
(1708107814.123293) can1 18FFDC00#4014010000507B19
(1708107814.123813) can1 19FA041C#CA00FFFFFFFFFF12
(1708107814.124553) can1 04EF001C#C643D815C603D831
(1708107814.125541) can1 19FA041C#CB071CE0C43011FF
(1708107814.126542) can1 19FA041C#CCFFFFFFFF148214
(1708107814.127553) can1 19FA041C#CD2E22F00AFFFFFF
(1708107814.128306) can1 18FFDC00#411B000000A4FFA3
(1708107814.128784) can1 0CF00300#CF004FFF00FFFFFF
(1708107814.129379) can1 0CF00400#FF7D7D000000FFFF
(1708107814.129942) can1 19FA041C#CEFFFF19FD0C748B
(1708107814.130641) can1 19FA041C#CFB80BFFFFFFFFFF
(1708107814.131587) can1 19FA041C#D01AFD0C72CE740E
(1708107814.132606) can1 19FA041C#D1FFFFFFFFFF1D28
(1708107814.133231) can1 18FFDC00#42FFFF6E921B00FF
(1708107814.133858) can1 09F20000#000000FFFFFFFFFF
(1708107814.134399) can1 0CEF0100#B020000000625400
(1708107814.135591) can1 04EF001C#9646A2909626A294
(1708107814.136660) can1 19FA041C#D23C34B70410FFFF
(1708107814.137658) can1 19FA041C#D3FFFFFF2CB61CFC
(1708107814.138250) can1 18FF1080#000000FFFFFFFD00
(1708107814.138824) can1 09F20100#0016000100FFFFC3
(1708107814.139399) can1 18FF1180#0300FCFDFFFF02FF
(1708107814.139978) can1 19FA041C#D4856810FFFFFFFF
(1708107814.140866) can1 19FA041C#D5FF30A91A308E68
(1708107814.141714) can1 19FA041C#D610FFFFFFFFFFFF
(1708107814.143222) can1 09F20100#0172C90400006E92
(1708107814.143795) can1 18FEE500#36270000FFFFFFFF
(1708107814.144703) can1 04EF001C#7A4839FE85CFC61D
(1708107814.148236) can1 0CF00400#FF7D7D000000FFFF
(1708107814.148891) can1 09F20100#021B00FFFFFFFF00
(1708107814.149400) can1 18FEEE00#3CFFFFFFFFFF42FF
(1708107814.153267) can1 09F20100#030100FFFFFFFFFF
(1708107814.153869) can1 0CEF0100#B020000000625400
(1708107814.154438) can1 18FEEF00#FFFFFF00FFFFFFFF
(1708107814.154955) can1 04EF001C#3B4B62F5C4CC9D16
(1708107814.158270) can1 18FEF200#0000FFFFFFFF37FF
(1708107814.163236) can1 18FEF700#FFFF1A01F500F600
(1708107814.164906) can1 04EF001C#574E2590A889DA33
(1708107814.167539) can1 18FF1C17#0000000000000000
(1708107814.168242) can1 0CF00400#FF7D7D000000FFFF
(1708107814.168858) can1 0CEF1100#9E89A0464742F66E
(1708107814.173253) can1 18FFDC00#6014010000507B19
(1708107814.173861) can1 0CEF0100#B020000000625400
(1708107814.175038) can1 04EF001C#17519F8FE896602C
(1708107814.178231) can1 18FFDC00#611B000000A4FFA3
(1708107814.178825) can1 0CF00300#CF004FFF00FFFFFF
(1708107814.183221) can1 18FFDC00#62FFFF6E921B00FF
(1708107814.183772) can1 0CEF1700#01AB8813CD0AFFFF
(1708107814.185144) can1 04EF001C#D65348852994B726
(1708107814.188238) can1 0CF00400#FF7D7D000000FFFF
(1708107814.188865) can1 18FEFC00#FFA3FFFFFFFFFFFF
(1708107814.193271) can1 0CEF0100#B020000000625400
(1708107814.193864) can1 18FEF600#FFFF3C2AFFFFFFFF
(1708107814.195282) can1 04EF001C#26579F01D99060A2
(1708107814.198237) can1 18FEF100#FF2D00F5FF11DFFF
(1708107814.205367) can1 04EF001C#8859447F779EBBDC
(1708107814.208236) can1 0CF00400#FF7D7D000000FFFF
(1708107814.209576) can1 0CEF0017#812B8813CD0AFFFF
(1708107814.213261) can1 0CEF0100#B020000000625400
(1708107814.215463) can1 04EF001C#5A5CB8EAA59B4749
(1708107814.218221) can1 0CEF1100#EDB93F13F7745F23
(1708107814.218811) can1 18E8FF00#02FFFFFFFF00EF00
(1708107814.223245) can1 18FFDC00#8014010000507B19
(1708107814.225615) can1 04EF001C#3F5FC6C1C0F83902
(1708107814.228220) can1 18FFDC00#811C000000A4FFA3
(1708107814.228845) can1 0CF00300#CF004FFF00FFFFFF
(1708107814.229398) can1 0CF00400#FF7D7D000000FFFF
(1708107814.229971) can1 18FF1CF3#0000000000000000
(1708107814.233237) can1 18FFDC00#82FFFF6E921B00FF
(1708107814.233851) can1 09F20000#000000FFFFFFFFFF
(1708107814.234422) can1 0CEF0100#B020000000625400
(1708107814.235740) can1 04EF001C#2642371426223710
(1708107814.238911) can1 18FF1080#000000FFFFFFFD00
(1708107814.239894) can1 18FF1180#0300FCFDFFFF02FF
(1708107814.240908) can1 18FF1380#000000003FC0C006
(1708107814.245808) can1 04EF001C#6544460A6544466E
(1708107814.248234) can1 0CF00400#FF7D7D000000FFFF
(1708107814.253259) can1 0CEF0100#B020000000625400
(1708107814.255909) can1 04EF001C#23471A3923871A9D
(1708107814.258262) can1 18FEF200#0000FFFFFFFF37FF
(1708107814.266011) can1 04EF001C#7A4931FF7AE9313B
(1708107814.268242) can1 0CF00400#FF7D7D000000FFFF
(1708107814.268856) can1 0CEF1100#28B9087B398EB814
(1708107814.269581) can1 0CEF0017#812B8813CD0AFFFF
(1708107814.273273) can1 18FFDC00#A014010000507B19
(1708107814.273855) can1 0CEF0100#B020000000625400
(1708107814.276120) can1 04EF001C#6E4C0D5A6F2C0C5E
(1708107814.278246) can1 18FFDC00#A11C000000A4FFA3
(1708107814.278847) can1 0CF00300#CF004FFF00FFFFFF
(1708107814.279427) can1 18E8FF00#02FFFFFFFF00EF00
(1708107814.283230) can1 18FFDC00#A2FFFF6E921B00FF
(1708107814.283839) can1 0DF50B9B#18FFFFFFFF0000FF
(1708107814.286247) can1 04EF001C#FB4E8CF0FA0E8DD4
(1708107814.288237) can1 0CF00400#FF7D7D000000FFFF
(1708107814.289608) can1 18FF1CF3#0000000000000000
(1708107814.293294) can1 0CEF0100#B020000000625400
(1708107814.296343) can1 04EF001C#BA5137E7BB7136A3
(1708107814.298233) can1 18FEF100#FF2E00F5FF11DFFF
(1708107814.306456) can1 04EF001C#7B54D8EA7A54D98E
(1708107814.308238) can1 0CF00400#FF7D7D000000FFFF
(1708107814.313256) can1 0CEF0100#B020000000625400
(1708107814.316584) can1 04EF001C#395780F938B7817D
(1708107814.318207) can1 0CEF1100#66A8D18FCCC5B43A
(1708107814.323254) can1 18FFDC00#C014010000507B19
(1708107814.326689) can1 04EF001C#FA5935EFFB59348B
(1708107814.328224) can1 18FFDC00#C11C000000A4FFA3
(1708107814.328853) can1 0CF00300#CF004FFF00FFFFFF
(1708107814.329368) can1 0CF00400#FF7D7D000000FFFF
(1708107814.333233) can1 18FFDC00#C2FFFF6E921B00FF
(1708107814.333844) can1 09F20000#000000FFFFFFFFFF
(1708107814.334428) can1 0CEF0100#B020000000625400
(1708107814.336796) can1 04EF001C#EE5C094AEF5C082E
(1708107814.338905) can1 18FF1080#000000FFFFFFFD00
(1708107814.339898) can1 18FF1180#0300FCFDFFFF02FF
(1708107814.346923) can1 04EF001C#7B5F80E17A5F8185
(1708107814.348241) can1 0CF00400#FF7D7D000000FFFF
(1708107814.349585) can1 0CEF0017#812B8813CD0AFFFF
(1708107814.353268) can1 0CEF0100#B020000000625400
(1708107814.357020) can1 04EF001C#394228EC38422988
(1708107814.358251) can1 18FEF200#0000FFFFFFFF37FF
(1708107814.358833) can1 18E8FF00#02FFFFFFFF00EF00
(1708107814.367149) can1 04EF001C#FA44DDF2FB64DCB6
(1708107814.367805) can1 18FF1C17#0000000000000000
(1708107814.368354) can1 0CEF1100#A7ACC7C6002CCA1C
(1708107814.369048) can1 0CF00400#FF7D7D000000FFFF
(1708107814.373244) can1 18FFDC00#E014010000507B19
(1708107814.373823) can1 0CEF0100#B020000000625400
(1708107814.377246) can1 04EF001C#B94784E9B80785CD
(1708107814.378239) can1 18FFDC00#E11C000000A4FFA3
(1708107814.378809) can1 0CF00300#CF004FFF00FFFFFF
(1708107814.381910) can1 15FD069B#2FC273FFFFFFFFFF
(1708107814.383221) can1 18FFDC00#E2FFFF6E921B00FF
(1708107814.387353) can1 04EF001C#7B4A28F47A6A29B0
(1708107814.388247) can1 0CF00400#FF7D7D000000FFFF
(1708107814.393259) can1 0CEF0100#B020000000625400
(1708107814.397476) can1 04EF001C#C74DA913C66DA857
(1708107814.398268) can1 18FEF100#FF2E00F5FF11DFFF
(1708107814.407588) can1 04EF001C#6450E7166550E672
(1708107814.408245) can1 0CF00400#FF7D7D000000FFFF
(1708107814.413265) can1 0CEF0100#B020000000625400
(1708107814.417708) can1 04EF001C#4853D27549B3D3F1
(1708107814.418305) can1 0CEF1100#17DEFE5955FCE4AE
(1708107814.423243) can1 18FFDC00#0014010000507B19
(1708107814.427824) can1 04EF001C#0856B87009F6B9B4
(1708107814.428412) can1 0CF00300#CF004FFF00FFFFFF
(1708107814.428956) can1 0CF00400#FF7D7D000000FFFF
(1708107814.429527) can1 18FFDC00#011C000000A4FFA3
(1708107814.430175) can1 18FF1CF3#0000000000000000
(1708107814.433238) can1 18FFDC00#02FFFF6E921B00FF
(1708107814.433827) can1 09F20000#000000FFFFFFFFFF
(1708107814.434409) can1 0CEF0100#B020000000625400
(1708107814.437934) can1 04EF001C#A3586626A2D867C2
(1708107814.439901) can1 18FF1080#000000FFFFFFFD00
(1708107814.440905) can1 18FF1180#0300FCFDFFFF02FF
(1708107814.441904) can1 18FF1380#000000003FC0C006
(1708107814.448039) can1 04EF001C#895B55758B3B5771
(1708107814.448607) can1 0CF00400#FF7D7D000000FFFF
(1708107814.449593) can1 0CEF0017#812B8813CD0AFFFF
(1708107814.453262) can1 0CEF0100#B020000000625400
(1708107814.458153) can1 04EF001C#BA5D57EBB83D55EF
(1708107814.458726) can1 18E8FF00#02FFFFFFFF00EF00
(1708107814.459309) can1 18FEF200#0000FFFFFFFF37FF
(1708107814.468249) can1 0CF00400#FF7D7D000000FFFF
(1708107814.468878) can1 04EF001C#7A4079F678207BF2
(1708107814.469375) can1 0CEF1100#D6D03812B19603CE
(1708107814.473265) can1 18FFDC00#2014010000507B19
(1708107814.473881) can1 0CEF0100#B020000000625400
(1708107814.478244) can1 18FFDC00#211C000000A4FFA3
(1708107814.478775) can1 04EF001C#394320ED3B2322E9
(1708107814.479342) can1 0CF00300#CF004FFF00FFFFFF
(1708107814.483226) can1 18FFDC00#22FFFF6E921B00FF
(1708107814.488245) can1 0CF00400#FF7D7D000000FFFF
(1708107814.488885) can1 04EF001C#FA45D5F3F825D7F7
(1708107814.489638) can1 18FF1CF3#0000000000000000
(1708107814.493265) can1 0CEF0100#B020000000625400
(1708107814.498232) can1 18FEF100#FF2E00F5FF11DFFF
(1708107814.498790) can1 04EF001C#BA48FFFEB828FDFA
(1708107814.508256) can1 0CF00400#FF7D7D000000FFFF
(1708107814.508783) can1 04EF001C#7A4B21FD780B23D9
(1708107814.509601) can1 0CEF0017#812B8813CD0AFFFF
(1708107814.513267) can1 0CEF0100#B020000000625400
(1708107814.518220) can1 0CEF1100#85C61E4FCC612CE4
(1708107814.518799) can1 18E8FF00#02FFFFFFFF00EF00
(1708107814.519340) can1 04EF001C#394E48E03B2E4AE4
(1708107814.523253) can1 18FFDC00#4014010000507B19
(1708107814.528232) can1 18FFDC00#411C000000A4FFA3
(1708107814.528786) can1 0CF00300#CF004FFF00FFFFFF
(1708107814.529361) can1 04EF001C#FA507DE6FBD07C02
(1708107814.530011) can1 0CF00400#FF7D7D000000FFFF
(1708107814.533232) can1 18FFDC00#42FFFF6E921B00FF
(1708107814.533854) can1 09F20000#000000FFFFFFFFFF
(1708107814.534459) can1 0CEF0100#B020000000625400
(1708107814.539021) can1 04EF001C#BA5327E5BB932641
(1708107814.539894) can1 18FF1080#000000FFFFFFFD00
(1708107814.540901) can1 18FF1180#0300FCFDFFFF02FF
(1708107814.548246) can1 0CF00400#FF7D7D000000FFFF
(1708107814.549157) can1 04EF001C#7A56C9E07B56C884
(1708107814.553263) can1 0CEF0100#B020000000625400
(1708107814.558248) can1 18FEF200#0000FFFFFFFF37FF
(1708107814.559281) can1 04EF001C#3959F0F73879F1B3
(1708107814.568253) can1 0CF00400#FF7D7D000000FFFF
(1708107814.568872) can1 0CEF1100#46C628978316A65F
(1708107814.569421) can1 04EF001C#FA5B25EDFADB2509
(1708107814.573253) can1 18FFDC00#6014010000507B19
(1708107814.573862) can1 0CEF0100#B020000000625400
(1708107814.578227) can1 18FFDC00#611C000000A4FFA3
(1708107814.578841) can1 0CF00300#CF004FFF00FFFFFF
(1708107814.579630) can1 04EF001C#DE5E28C8DEBE284C
(1708107814.583229) can1 18FFDC00#62FFFF6E921B00FF
(1708107814.588246) can1 0CF00400#FF7D7D000000FFFF
(1708107814.589605) can1 0CEF0017#812B8813CD0AFFFF
(1708107814.590197) can1 04EF001C#A041AD27A061AD63
(1708107814.593272) can1 0CEF0100#B020000000625400
(1708107814.598229) can1 18FEF100#FF2E00F5FF11DFFF
(1708107814.598816) can1 18E8FF00#02FFFFFFFF00EF00
(1708107814.599751) can1 04EF001C#CB44ED7ACB04ED5E
(1708107814.608242) can1 0CF00400#FF7D7D000000FFFF
(1708107814.609630) can1 18FF1CF3#0000000000000000
(1708107814.610169) can1 04EF001C#B1478CA9B1678CED
(1708107814.611869) can1 09F8021C#F1FC87070200FFFF
(1708107814.612883) can1 09F8011C#206E2618686B5BC1
(1708107814.613459) can1 0CEF0100#B020000000625400
(1708107814.614016) can1 19FA031C#F1D25700A0006500
(1708107814.614914) can1 0DF0101C#F1F0A34DB03A9E2B
(1708107814.615912) can1 18FEE81C#8605000021643F7E
(1708107814.618229) can1 0CEF1100#4DF01A03A04FED88
(1708107814.619937) can1 04EF001C#A74AF214A70AF230
(1708107814.623257) can1 18FFDC00#8014010000507B19
(1708107814.626090) can1 19FA041C#E09FF1FF0D017512
(1708107814.627082) can1 19FA041C#E158CA6810FFFFFF
(1708107814.627824) can1 18FF1C17#0000000000000000
(1708107814.628373) can1 0CF00300#CF004FFF00FFFFFF
(1708107814.628927) can1 0CF00400#FF7D7D000000FFFF
(1708107814.629567) can1 18FFDC00#811C000000A4FFA3
(1708107814.630061) can1 19FA041C#E2FFFF055528D020
(1708107814.631104) can1 04EF001C#854DE903852DE907
(1708107814.632155) can1 19FA041C#E2FFFF055528D020
(1708107814.633172) can1 19FA041C#E33C0FFFFFFFFFFF
(1708107814.633757) can1 09F20000#000000FFFFFFFFFF
(1708107814.634354) can1 0CEF0100#B020000000625400
(1708107814.634907) can1 18FFDC00#82FFFF6E921B00FF
(1708107814.635462) can1 19FA041C#E40CBC020C7BFC08
(1708107814.636204) can1 19FA041C#E5FFFFFFFFFF0DD3
(1708107814.637194) can1 19FA041C#E6137648480DFFFF
(1708107814.638216) can1 19FA041C#E7FFFFFF0F3E172C
(1708107814.639215) can1 19FA041C#E865F811FFFFFFFF
(1708107814.639972) can1 18FF1080#000000FFFFFFFD00
(1708107814.640464) can1 04EF001C#7450F7968BF70855
(1708107814.641051) can1 18FF1180#0300FCFDFFFF02FF
(1708107814.641632) can1 19FA041C#E9FF100000F4E200
(1708107814.642194) can1 18FF1380#000000003FC0C006
(1708107814.643274) can1 19FA041C#EA00FFFFFFFFFF12
(1708107814.644274) can1 19FA041C#EB071CE0C49411FF
(1708107814.645288) can1 19FA041C#ECFFFFFFFF148214
(1708107814.646293) can1 19FA041C#ED2E22540BFFFFFF
(1708107814.647294) can1 19FA041C#EEFFFF19FD0C748B
(1708107814.648237) can1 0CF00400#FF7D7D000000FFFF
(1708107814.648831) can1 19FA041C#EFB80BFFFFFFFFFF
(1708107814.650268) can1 04EF001C#AA523F6455B5C0E7
(1708107814.651358) can1 19FA041C#F01AFD0C72CE740E
(1708107814.652354) can1 19FA041C#F1FFFFFFFFFF1D28
(1708107814.653251) can1 18FEEF00#FFFFFF00FFFFFFFF
(1708107814.653829) can1 0CEF0100#B020000000625400
(1708107814.654438) can1 19FA041C#F23C34B7A00FFFFF
(1708107814.655432) can1 19FA041C#F3FFFFFF2CB61CFC
(1708107814.656418) can1 19FA041C#F4856810FFFFFFFF
(1708107814.657389) can1 19FA041C#F5FF30A91A308E04
(1708107814.658247) can1 18FEF200#0000FFFFFFFF37FF
(1708107814.658826) can1 19FA041C#F610FFFFFFFFFFFF
(1708107814.660365) can1 04EF001C#E25445221D93BA81
(1708107814.668247) can1 0CF00400#FF7D7D000000FFFF
(1708107814.668887) can1 0CEF1100#0EF428DACD029623
(1708107814.669609) can1 0CEF0017#812B8813CD0AFFFF
(1708107814.670470) can1 04EF001C#0F58CF46F0FF3085
(1708107814.673258) can1 18FFDC00#A014010000507B19
(1708107814.673842) can1 0CEF0100#B020000000625400
(1708107814.678229) can1 18FFDC00#A11C000000A4FFA3
(1708107814.678825) can1 0CF00300#CF004FFF00FFFFFF
(1708107814.679399) can1 18E8FF00#02FFFFFFFF00EF00
(1708107814.680596) can1 04EF001C#CD5A1B5432DDE4B7
(1708107814.683226) can1 18FFDC00#A2FFFF6E921B00FF
(1708107814.683794) can1 0CEF1700#01AB8813CD0AFFFF
(1708107814.688258) can1 0CF00400#FF7D7D000000FFFF
(1708107814.689631) can1 18FF1CF3#0000000000000000
(1708107814.690695) can1 04EF001C#2E5DC74BD1DA38A8
(1708107814.693267) can1 0CEF0100#B020000000625400
(1708107814.693856) can1 18FEF600#FFFF3C2AFFFFFFFF
(1708107814.698231) can1 18FEF100#FF2E00F5FF11DFFF
(1708107814.700851) can1 04EF001C#ED5F125112D8EDB2
(1708107814.708244) can1 0CF00400#FF7D7D000000FFFF
(1708107814.710916) can1 04EF001C#7A4269F47A6269B0
(1708107814.713263) can1 0CEF0100#B020000000625400
(1708107814.718208) can1 0CEF1100#D1E609E69BCF4B51
(1708107814.721043) can1 04EF001C#3B4512FB3B45129F
(1708107814.723240) can1 18FFDC00#C014010000507B19
(1708107814.728233) can1 18FFDC00#C11D000000A4FFA3
(1708107814.728855) can1 0CF00300#CF004FFF00FFFFFF
(1708107814.729361) can1 0CF00400#FF7D7D000000FFFF
(1708107814.731153) can1 04EF001C#6748241667482472
(1708107814.733238) can1 18FFDC00#C2FFFF6E921B00FF
(1708107814.733849) can1 09F20000#000000FFFFFFFFFF
(1708107814.734421) can1 0CEF0100#B020000000625400
(1708107814.740906) can1 18FF1080#000000FFFFFFFD00
(1708107814.741452) can1 04EF001C#B94AECE4B9AAEC60
(1708107814.742051) can1 18FF1180#0300FCFDFFFF02FF
(1708107814.748254) can1 0CF00400#FF7D7D000000FFFF
(1708107814.749609) can1 0CEF0017#812B8813CD0AFFFF
(1708107814.751357) can1 04EF001C#7A4D11CB7A9D114F
(1708107814.753266) can1 0CEF0100#B020000000625400
(1708107814.758252) can1 18FEF200#0000FFFFFFFF37FF
(1708107814.758869) can1 18E8FF00#02FFFFFFFF00EF00
(1708107814.761490) can1 04EF001C#3950B8CE3980B84A
(1708107814.768253) can1 0CF00400#FF7D7D000000FFFF
(1708107814.768950) can1 0CEF1100#EE9AE7C2B97AED9B
(1708107814.771591) can1 04EF001C#FA526DD4FAA26D70
(1708107814.773243) can1 18FFDC00#E014010000507B19
(1708107814.774136) can1 0CEF0100#B020000000625400
(1708107814.778235) can1 18FFDC00#E11C000000A4FFA3
(1708107814.778809) can1 0CF00300#CF004FFF00FFFFFF
(1708107814.781712) can1 04EF001C#B95514CBB9A5146F
(1708107814.783219) can1 18FFDC00#E2FFFF6E921B00FF
(1708107814.788254) can1 0CF00400#FF7D7D000000FFFF
(1708107814.789643) can1 18FF1CF3#0000000000000000
(1708107814.791806) can1 04EF001C#7A58B9DE7AC8B91A
(1708107814.793268) can1 0CEF0100#B020000000625400
(1708107814.798233) can1 18FEF100#FF2E00F5FF11DFFF
(1708107814.801926) can1 04EF001C#C85B164DC8AB16E9
(1708107814.808251) can1 0CF00400#FF7D7D000000FFFF
(1708107814.812046) can1 04EF001C#885E7C4888AE7CEC
(1708107814.813268) can1 0CEF0100#B020000000625400
(1708107814.818211) can1 0CEF1100#25942359D59D643F
(1708107814.822179) can1 04EF001C#23412A0F23D12ACB
(1708107814.823247) can1 18FFDC00#0014010000507B19
(1708107814.828022) can1 18FF1C17#0002000000000000
(1708107814.828587) can1 0CF00300#CF004FFF00FFFFFF
(1708107814.829152) can1 0CF00400#FF7D7D000000FFFF
(1708107814.829721) can1 0CEF0017#812B8813CD0AFFFF
(1708107814.830280) can1 18FFDC00#011C000000A4FFA3
(1708107814.832270) can1 04EF001C#4044621240D462D6
(1708107814.833230) can1 18FFDC00#02FFFF6E921B00FF
(1708107814.833830) can1 09F20000#000000FFFFFFFFFF
(1708107814.834446) can1 0CEF0100#B020000000625400
(1708107814.838248) can1 18E8FF00#02FFFFFFFF00EF00
(1708107814.840928) can1 18FF1080#000000FFFFFFFD00
(1708107814.841932) can1 18FF1180#0300FBFDFFFF02FF
(1708107814.842478) can1 04EF001C#C746F128C7F6F1CC
(1708107814.843083) can1 18FF1380#000000003FC0C006
(1708107814.848258) can1 0CF00400#FF7D7D000000FFFF
(1708107814.848871) can1 18FECA00#40FF00000000FFFF
(1708107814.852497) can1 04EF001C#6349280763F928E3
(1708107814.853262) can1 0CEF0100#B020000000625400
(1708107814.858250) can1 18FEF200#0000FFFFFFFF37FF
(1708107814.862606) can1 04EF001C#BB4BE6C5BBDBE601
(1708107814.868247) can1 0CF00400#FF7D7D000000FFFF
(1708107814.868888) can1 0CEF1100#678999CE86CFA622
(1708107814.872716) can1 04EF001C#7A4E09C87AFE092C
(1708107814.873329) can1 0CEF0100#B020000000625400
(1708107814.873910) can1 18FFDC00#2014010000507B19
(1708107814.878228) can1 18FFDC00#211C000000A4FFA3
(1708107814.878846) can1 0CF00300#CF004FFF00FFFFFF
(1708107814.879979) can1 15FD069B#30C273FFFFFFFFFF
(1708107814.882817) can1 04EF001C#3A51B3D73AC1B313
(1708107814.883435) can1 18FFDC00#22FFFF6E921B00FF
(1708107814.888253) can1 0CF00400#FF7D7D000000FFFF
(1708107814.892934) can1 04EF001C#FA5365D5FAA36571
(1708107814.893550) can1 0CEF0100#B020000000625400
(1708107814.898230) can1 18FEF100#FF2E00F5FF11DFFF
(1708107814.903038) can1 04EF001C#B9560CC8B9860C4C
(1708107814.908247) can1 0CF00400#FF7D7D000000FFFF
(1708107814.909647) can1 0CEA1C00#00EE000000000000
(1708107814.911181) can1 18EEFF1C#0204450E00000042
(1708107814.913169) can1 04EF001C#7A59B1DF7A49B19B
(1708107814.913753) can1 0CEF0100#B020000000625400
(1708107814.918217) can1 0CEF1100#AF84858DEC2EDF76
(1708107814.923246) can1 18FFDC00#4014010000507B19
