(1708107705.888290) can1 0CF00400#FF7D7D000000FFFF
(1708107705.893324) can1 0CEF0100#B020000000625400
(1708107705.897395) can1 04EF001C#184C788A198C794E
(1708107705.898297) can1 18FEF100#FF0000F5FF11DFFF
(1708107705.907527) can1 04EF001C#D64EA0F8D78EA13C
(1708107705.908315) can1 0CF00400#FF7D7D000000FFFF
(1708107705.913304) can1 0CEF0100#B020000000625400
(1708107705.917633) can1 04EF001C#97511BEF96911A2B
(1708107705.918272) can1 0CEF1100#0AE089FFEB152E16
(1708107705.920063) can1 18FF1080#000000FFFFFFFD00
(1708107705.921055) can1 18FF1180#0300FCFDFFFF02FF
(1708107705.922117) can1 18FF1380#000000003FC0C006
(1708107705.922667) can1 0CEF0017#812B8813CD0AFFFF
(1708107705.923288) can1 18FFDC00#C014010000507B19
(1708107705.927723) can1 04EF001C#5654F4E25794F526
(1708107705.928299) can1 0CF00300#CF004FFF00FFFFFF
(1708107705.928913) can1 0CF00400#FF7D7D000000FFFF
(1708107705.929493) can1 18E8FF00#02FFFFFFFF00EF00
(1708107705.930019) can1 18FFDC00#C100000000A4FFA3
(1708107705.933271) can1 18FFDC00#C2FFFF6E921B00FF
(1708107705.933887) can1 09F20000#000000FFFFFFFFFF
(1708107705.934504) can1 0CEF0100#B020000000625400
(1708107705.937854) can1 04EF001C#1857A0911997A155
(1708107705.947968) can1 04EF001C#D4591AFFD5F91B5B
(1708107705.948563) can1 0CF00400#FF7D7D000000FFFF
(1708107705.953297) can1 0CEF0100#B020000000625400
(1708107705.958082) can1 04EF001C#955C71F2943C7096
(1708107705.958682) can1 18FEF200#0000FFFFFFFF37FF
(1708107705.968205) can1 04EF001C#555FAFF1541FAEB5
(1708107705.968748) can1 0CEF1100#BD9AF19AD3096208
(1708107705.969325) can1 0CF00400#FF7D7D000000FFFF
(1708107705.973296) can1 18FFDC00#E014010000507B19
(1708107705.973860) can1 0CEF0100#B020000000625400
(1708107705.978279) can1 18FFDC00#E100000000A4FFA3
(1708107705.978822) can1 04EF001C#154205EC144204E8
(1708107705.979394) can1 0CF00300#CF004FFF00FFFFFF
(1708107705.982526) can1 18FF1CF3#0000000000000000
(1708107705.983311) can1 18FFDC00#E2FFFF6E921B00FF
(1708107705.988293) can1 0CF00400#FF7D7D000000FFFF
(1708107705.988870) can1 04EF001C#41456B4B40456A4F
(1708107705.993304) can1 0CEF0100#B020000000625400
(1708107705.998274) can1 18FEF100#FF0000F5FF11DFFF
(1708107705.998822) can1 04EF001C#2448656E2548646A
(1708107706.002496) can1 0CEF0017#812B8813CD0AFFFF
(1708107706.008282) can1 0CF00400#FF7D7D000000FFFF
(1708107706.008901) can1 04EF001C#BE4AEBBCBF4AEAB8
(1708107706.009403) can1 18E8FF00#02FFFFFFFF00EF00
(1708107706.013301) can1 0CEF0100#B020000000625400
(1708107706.018254) can1 0CEF1100#F09410B11F43A729
(1708107706.018802) can1 04EF001C#814DED43800DEC07
(1708107706.021078) can1 18FF1080#000000FFFFFFFD00
(1708107706.022061) can1 18FF1180#0300FCFDFFFF02FF
(1708107706.023285) can1 18FFDC00#0014010000507B19
(1708107706.028281) can1 18FFDC00#0100000000A4FFA3
(1708107706.028869) can1 0CF00300#CF004FFF00FFFFFF
(1708107706.029431) can1 04EF001C#6550E67E6430E71A
(1708107706.029971) can1 0CF00400#FF7D7D000000FFFF
(1708107706.033274) can1 18FFDC00#02FFFF6E921B00FF
(1708107706.033875) can1 09F20000#000000FFFFFFFFFF
(1708107706.034459) can1 0CEF0100#B020000000625400
(1708107706.038992) can1 04EF001C#0153995D00339839
(1708107706.048286) can1 0CF00400#FF7D7D000000FFFF
(1708107706.049098) can1 04EF001C#5655FCE357D5FD67
(1708107706.053301) can1 0CEF0100#B020000000625400
(1708107706.058299) can1 18FEF200#0000FFFFFFFF37FF
(1708107706.059202) can1 04EF001C#1958D9961898D852
(1708107706.062532) can1 18FF1CF3#0000000000000000
(1708107706.068282) can1 0CF00400#FF7D7D000000FFFF
(1708107706.068869) can1 0CEF1100#28898876E1980ED8
(1708107706.069424) can1 04EF001C#D55A03F4D49A0230
(1708107706.072169) can1 18FF1C17#0001100000000000
(1708107706.073288) can1 18FFDC00#2014010000507B19
(1708107706.073876) can1 0CEF0100#B020000000625400
(1708107706.078278) can1 18FFDC00#2100000000A4FFA3
(1708107706.078849) can1 0CF00300#CF004FFF00FFFFFF
(1708107706.079464) can1 04EF001C#985D749B99BD757F
(1708107706.082497) can1 0CEF0017#812B8813CD0AFFFF
(1708107706.083259) can1 18FFDC00#22FFFF6E921B00FF
(1708107706.088286) can1 0CF00400#FF7D7D000000FFFF
(1708107706.088907) can1 18E8FF00#02FFFFFFFF00EF00
(1708107706.089575) can1 04EF001C#7A4079967BA07872
(1708107706.093307) can1 0CEF0100#B020000000625400
(1708107706.098292) can1 18FEF100#FF0000F5FF11DFFF
(1708107706.099652) can1 04EF001C#3D4324AD3CA32549
(1708107706.108291) can1 0CF00400#FF7D7D000000FFFF
(1708107706.109772) can1 04EF001C#FE45D1B3FFA5D057
(1708107706.113306) can1 0CEF0100#B020000000625400
(1708107706.118259) can1 0CEF1100#64BAC11B58DFE01E
(1708107706.119852) can1 04EF001C#F648B1FEF448B3FA
(1708107706.121078) can1 18FF1080#000000FFFFFFFD00
(1708107706.122059) can1 18FF1180#0300FCFDFFFF02FF
(1708107706.123047) can1 18FF1380#000000003FC0C006
(1708107706.123617) can1 18FFDC00#4014010000507B19
(1708107706.128279) can1 18FFDC00#4100000000A4FFA3
(1708107706.128876) can1 0CF00300#CF004FFF00FFFFFF
(1708107706.129428) can1 0CF00400#FF7D7D000000FFFF
(1708107706.130008) can1 04EF001C#DD4B83A5DF4B81A1
(1708107706.133268) can1 18FFDC00#42FFFF6E921B00FF
(1708107706.133862) can1 09F20000#000000FFFFFFFFFF
(1708107706.134444) can1 0CEF0100#B020000000625400
(1708107706.138305) can1 09F20100#8016000100FFFFBF
(1708107706.140076) can1 04EF001C#164E66F8146E64DC
(1708107706.143276) can1 09F20100#8172C90400006E92
(1708107706.143839) can1 18FEE500#36270000FFFFFFFF
(1708107706.148282) can1 0CF00400#FF7D7D000000FFFF
(1708107706.148955) can1 09F20100#821B00FFFFFFFF00
(1708107706.149441) can1 18FEEE00#3CFFFFFFFFFF42FF
(1708107706.150223) can1 04EF001C#0C5184370E518633
(1708107706.153285) can1 09F20100#830100FFFFFFFFFF
(1708107706.153891) can1 0CEF0100#B020000000625400
(1708107706.154445) can1 18FEEF00#FFFFFF00FFFFFFFF
(1708107706.158295) can1 18FEF200#0000FFFFFFFF37FF
(1708107706.160295) can1 04EF001C#CA535405CB9355C1
(1708107706.163264) can1 18FEF700#FFFF1A01F500F600
(1708107706.168286) can1 0CF00400#FF7D7D000000FFFF
(1708107706.168858) can1 0CEF1100#A7BC47C22E333368
(1708107706.170404) can1 04EF001C#ED565A38ECF65B9C
(1708107706.173289) can1 18FFDC00#6014010000507B19
(1708107706.173892) can1 0CEF0100#B020000000625400
(1708107706.178280) can1 18FFDC00#6100000000A4FFA3
(1708107706.178873) can1 0CF00300#CF004FFF00FFFFFF
(1708107706.180519) can1 04EF001C#AC59613FADF9609B
(1708107706.183254) can1 18FFDC00#62FFFF6E921B00FF
(1708107706.183852) can1 0CEF1700#01AB8813CD0AFFFF
(1708107706.188278) can1 0CF00400#FF7D7D000000FFFF
(1708107706.188876) can1 18FEFC00#FFA3FFFFFFFFFFFF
(1708107706.190637) can1 04EF001C#B15C54D2B0FC5576
(1708107706.193298) can1 0CEF0100#B020000000625400
(1708107706.193898) can1 18FEF600#FFFF3C2AFFFFFFFF
(1708107706.198284) can1 18FEF100#FF0000F5FF11DFFF
(1708107706.200759) can1 04EF001C#5E5FA4A95FFFA50D
(1708107706.202498) can1 0CEF0017#812B8813CD0AFFFF
(1708107706.208287) can1 0CF00400#FF7D7D000000FFFF
(1708107706.209002) can1 18E8FF00#02FFFFFFFF00EF00
(1708107706.210866) can1 04EF001C#544246E455824720
(1708107706.213304) can1 0CEF0100#B020000000625400
(1708107706.218254) can1 0CEF1100#F0A8F0BFD64DD16E
(1708107706.220971) can1 04EF001C#8344A75A8284A69E
(1708107706.222067) can1 18FF1080#000000FFFFFFFD00
(1708107706.222651) can1 18FF1CF3#0000000000000000
(1708107706.223261) can1 18FF1180#0300FCFDFFFF02FF
(1708107706.223820) can1 18FFDC00#8014010000507B19
(1708107706.228280) can1 18FFDC00#8100000000A4FFA3
(1708107706.229001) can1 0CF00300#CF004FFF00FFFFFF
(1708107706.229411) can1 0CF00400#FF7D7D000000FFFF
(1708107706.231109) can1 04EF001C#FD47C2A9FC87C36D
(1708107706.233279) can1 18FFDC00#82FFFF6E921B00FF
(1708107706.233894) can1 09F20000#000000FFFFFFFFFF
(1708107706.234509) can1 0CEF0100#B020000000625400
(1708107706.237207) can1 09F8021C#1BFCBAEF0000FFFF
(1708107706.238179) can1 09F8011C#B86E2618126C5BC1
(1708107706.239206) can1 19FA031C#1BD25F00A5006700
(1708107706.240199) can1 0DF0101C#1BF0A34D305C8E2B
(1708107706.241228) can1 04EF001C#694A3A0468AA3BE0
(1708107706.242230) can1 18FEE81C#D4AF00002164607E
(1708107706.242799) can1 0CEF0017#812B8813CD0AFFFF
(1708107706.243358) can1 19FA041C#C0931BFF0C01C611
(1708107706.244301) can1 19FA041C#C158CA3011FFFFFF
(1708107706.245304) can1 19FA041C#C2FFFF050429D020
(1708107706.246319) can1 19FA041C#C3CC10FFFFFFFFFF
(1708107706.247318) can1 19FA041C#C40C6B030C7B0000
(1708107706.248290) can1 0CF00400#FF7D7D000000FFFF
(1708107706.248961) can1 19FA041C#C5FFFFFFFFFF0DD3
(1708107706.250359) can1 19FA041C#C613D4498C0AFFFF
(1708107706.251304) can1 04EF001C#0D4D65230CCD64A7
(1708107706.252387) can1 19FA041C#C7FFFFFF0F8F168A
(1708107706.253296) can1 0CEF0100#B020000000625400
(1708107706.253868) can1 18E8FF00#02FFFFFFFF00EF00
(1708107706.254483) can1 19FA041C#C866F811FFFFFFFF
(1708107706.255444) can1 19FA041C#C9FF100000F4E200
(1708107706.256427) can1 19FA041C#CA00FFFFFFFFFF12
(1708107706.257442) can1 19FA041C#CB581BE0C49411FF
(1708107706.258283) can1 18FEF200#0000FFFFFFFF37FF
(1708107706.258850) can1 19FA041C#CCFFFFFFFF143115
(1708107706.260465) can1 19FA041C#CD2E22540BFFFFFF
(1708107706.261422) can1 04EF001C#C94FB701C8CFB685
(1708107706.262493) can1 19FA041C#CEFFFF19FD0C748B
(1708107706.263103) can1 18FF1CF3#0000000000000000
(1708107706.263654) can1 19FA041C#CF740EFFFFFFFFFF
(1708107706.264503) can1 19FA041C#D01AFD0C72CED80E
(1708107706.265526) can1 19FA041C#D1FFFFFFFFFF1D79
(1708107706.266539) can1 19FA041C#D23B82C3A00FFFFF
(1708107706.267541) can1 19FA041C#D3FFFFFF30A91A30
(1708107706.268275) can1 0CF00400#FF7D7D000000FFFF
(1708107706.268973) can1 0CEF1100#38ADACFE10AFB558
(1708107706.269407) can1 19FA041C#D48ECC10FFFFFFFF
(1708107706.270564) can1 19FA041C#D5FFFFFFFFFFFFFF
(1708107706.271541) can1 04EF001C#3D52ACBC3C12ADF8
(1708107706.273287) can1 18FFDC00#A014010000507B19
(1708107706.273864) can1 0CEF0100#B020000000625400
(1708107706.278281) can1 18FFDC00#A100000000A4FFA3
(1708107706.278838) can1 0CF00300#CF004FFF00FFFFFF
(1708107706.281649) can1 04EF001C#9A543E829B543F86
(1708107706.282465) can1 0DF50B9B#A7FFFFFFFF0000FF
(1708107706.283317) can1 18FFDC00#A2FFFF6E921B00FF
(1708107706.288285) can1 0CF00400#FF7D7D000000FFFF
(1708107706.291750) can1 04EF001C#5857E2915957E395
(1708107706.293306) can1 0CEF0100#B020000000625400
(1708107706.298280) can1 18FEF100#FF0000F5FF11DFFF
(1708107706.301873) can1 04EF001C#185AC89C189AC858
(1708107706.308270) can1 0CF00400#FF7D7D000000FFFF
(1708107706.311966) can1 04EF001C#D55C33F2D5FC3356
(1708107706.313289) can1 0CEF0100#B020000000625400
(1708107706.318262) can1 0CEF1100#8DDEDC09467482B2
(1708107706.322071) can1 18FF1080#000000FFFFFFFD00
(1708107706.322616) can1 04EF001C#985F649998DF641D
(1708107706.323187) can1 0CEF0017#812B8813CD0AFFFF
(1708107706.323781) can1 18FF1180#0300FCFDFFFF02FF
(1708107706.324329) can1 18FFDC00#C014010000507B19
(1708107706.325060) can1 18FF1380#000000003FC0C006
(1708107706.328266) can1 18FFDC00#C100000000A4FFA3
(1708107706.328958) can1 0CF00300#CF004FFF00FFFFFF
(1708107706.329415) can1 0CF00400#FF7D7D000000FFFF
(1708107706.332192) can1 04EF001C#58424A8458E24A20
(1708107706.333304) can1 18FFDC00#C2FFFF6E921B00FF
(1708107706.333904) can1 09F20000#000000FFFFFFFFFF
(1708107706.334502) can1 0CEF0100#B020000000625400
(1708107706.335071) can1 18E8FF00#02FFFFFFFF00EF00
(1708107706.342323) can1 04EF001C#1845308318E53027
(1708107706.348287) can1 0CF00400#FF7D7D000000FFFF
(1708107706.352416) can1 04EF001C#D547EBE9D5C7EB6D
(1708107706.353301) can1 0CEF0100#B020000000625400
(1708107706.358293) can1 18FEF200#0000FFFFFFFF37FF
(1708107706.362549) can1 18FF1CF3#0000000000000000
(1708107706.363120) can1 04EF001C#984ACC8C98CACC08
(1708107706.368283) can1 0CF00400#FF7D7D000000FFFF
(1708107706.368921) can1 0CEF1100#4DDD3209051E20A9
(1708107706.372654) can1 04EF001C#574D3DF357ED3D57
(1708107706.373281) can1 18FFDC00#E014010000507B19
(1708107706.373862) can1 0CEF0100#B020000000625400
(1708107706.378280) can1 18FFDC00#E100000000A4FFA3
(1708107706.378877) can1 0CF00300#CF004FFF00FFFFFF
(1708107706.380840) can1 15FD069B#529E73FFFFFFFFFF
(1708107706.382762) can1 04EF001C#A750226EA7B0228A
(1708107706.383346) can1 18FFDC00#E2FFFF6E921B00FF
(1708107706.388290) can1 0CF00400#FF7D7D000000FFFF
(1708107706.392885) can1 04EF001C#5453CEF55513CFB1
(1708107706.393454) can1 0CEF0100#B020000000625400
(1708107706.398287) can1 18FEF100#FF0000F5FF11DFFF
(1708107706.400963) can1 18FF1C17#0001100000000000
(1708107706.402512) can1 0CEF0017#812B8813CD0AFFFF
(1708107706.403075) can1 04EF001C#0356B3480296B28C
(1708107706.408291) can1 0CF00400#FF7D7D000000FFFF
(1708107706.408980) can1 18E8FF00#02FFFFFFFF00EF00
(1708107706.413100) can1 04EF001C#E5582276E7782052
(1708107706.413697) can1 0CEF0100#B020000000625400
(1708107706.418260) can1 0CEF1100#03CE7BFD74D5A8A3
(1708107706.423070) can1 18FF1080#000000FFFFFFFD00
(1708107706.423677) can1 04EF001C#945B48FD96FB4A59
(1708107706.424215) can1 18FF1180#0300FCFDFFFF02FF
(1708107706.424854) can1 18FFDC00#0014010000507B19
(1708107706.428267) can1 18FFDC00#0100000000A4FFA3
(1708107706.428976) can1 0CF00300#CF004FFF00FFFFFF
(1708107706.429413) can1 0CF00400#FF7D7D000000FFFF
(1708107706.433280) can1 18FFDC00#02FFFF6E921B00FF
(1708107706.433834) can1 04EF001C#415EB35043BEB1B4
(1708107706.434418) can1 09F20000#000000FFFFFFFFFF
(1708107706.435035) can1 0CEF0100#B020000000625400
(1708107706.443467) can1 04EF001C#27412E6F24512D6B
(1708107706.448284) can1 0CF00400#FF7D7D000000FFFF
(1708107706.453302) can1 0CEF0100#B020000000625400
(1708107706.453835) can1 04EF001C#584342955B7341B1
(1708107706.458304) can1 18FEF200#0000FFFFFFFF37FF
(1708107706.462558) can1 18FF1CF3#0000000000000000
(1708107706.463646) can1 04EF001C#184628901B562B94
(1708107706.468286) can1 0CF00400#FF7D7D000000FFFF
(1708107706.468931) can1 0CEF1100#C8C22F6696A97D73
(1708107706.473297) can1 18FFDC00#2014010000507B19
(1708107706.473837) can1 04EF001C#D74891E6D45892E2
(1708107706.474430) can1 0CEF0100#B020000000625400
(1708107706.478286) can1 18FFDC00#2100000000A4FFA3
(1708107706.478878) can1 0CF00300#CF004FFF00FFFFFF
(1708107706.482530) can1 0CEF0017#812B8813CD0AFFFF
(1708107706.483331) can1 18FFDC00#22FFFF6E921B00FF
(1708107706.483941) can1 04EF001C#984BC49D9ABBC679
(1708107706.488286) can1 0CF00400#FF7D7D000000FFFF
(1708107706.488942) can1 18E8FF00#02FFFFFFFF00EF00
(1708107706.493301) can1 0CEF0100#B020000000625400
(1708107706.494014) can1 04EF001C#574E25E0559E2724
(1708107706.498283) can1 18FEF100#FF0100F5FF11DFFF
(1708107706.504097) can1 04EF001C#1A51929718C19013
(1708107706.508276) can1 0CF00400#FF7D7D000000FFFF
(1708107706.513293) can1 0CEF0100#B020000000625400
(1708107706.514215) can1 04EF001C#D953478DDB0345C9
(1708107706.518267) can1 0CEF1100#BBFC4030B91C48C1
(1708107706.523070) can1 18FF1080#000000FFFFFFFD00
(1708107706.523669) can1 18FFDC00#4014010000507B19
(1708107706.524239) can1 18FF1180#0300FCFDFFFF02FF
(1708107706.524760) can1 04EF001C#98562C8099A62D64
(1708107706.525339) can1 18FF1380#000000003FC0C006
(1708107706.528265) can1 18FFDC00#4100000000A4FFA3
(1708107706.528959) can1 0CF00300#CF004FFF00FFFFFF
(1708107706.529460) can1 0CF00400#FF7D7D000000FFFF
(1708107706.533274) can1 18FFDC00#42FFFF6E921B00FF
(1708107706.533848) can1 09F20000#000000FFFFFFFFFF
(1708107706.534439) can1 0CEF0100#B020000000625400
(1708107706.534995) can1 04EF001C#C1590F47C0C90EC3
(1708107706.544552) can1 04EF001C#185CF88A190CF9CE
(1708107706.548276) can1 0CF00400#FF7D7D000000FFFF
(1708107706.553300) can1 0CEF0100#B020000000625400
(1708107706.554677) can1 04EF001C#FC5E0BA8FCAE0B4C
(1708107706.558295) can1 18FEF200#0000FFFFFFFF37FF
(1708107706.562521) can1 0CEF0017#812B8813CD0AFFFF
(1708107706.564766) can1 04EF001C#9941959F99F1953B
(1708107706.568275) can1 0CF00400#FF7D7D000000FFFF
(1708107706.568962) can1 0CEF1100#70F434AAE67B40F8
(1708107706.569400) can1 18E8FF00#02FFFFFFFF00EF00
(1708107706.573274) can1 18FFDC00#6014010000507B19
(1708107706.573913) can1 0CEF0100#B020000000625400
(1708107706.574888) can1 04EF001C#B44491F2B4349196
(1708107706.578280) can1 18FFDC00#6100000000A4FFA3
(1708107706.578886) can1 0CF00300#CF004FFF00FFFFFF
(1708107706.582558) can1 18FF1CF3#0000000000000000
(1708107706.583255) can1 18FFDC00#62FFFF6E921B00FF
(1708107706.585008) can1 04EF001C#DE47E0A1DE57E0A5
(1708107706.588281) can1 0CF00400#FF7D7D000000FFFF
(1708107706.593300) can1 0CEF0100#B020000000625400
(1708107706.595104) can1 04EF001C#9D4AC9B462FD3617
(1708107706.598282) can1 18FEF100#FF0200F5FF11DFFF
(1708107706.605228) can1 04EF001C#024D6A4BFD3A9528
(1708107706.608272) can1 0CF00400#FF7D7D000000FFFF
(1708107706.613287) can1 0CEF0100#B020000000625400
(1708107706.615434) can1 04EF001C#1D509DAEE267628D
(1708107706.618261) can1 0CEF1100#23E212F79B8C6FD2
(1708107706.622149) can1 18FF1C17#0001100000000000
(1708107706.623284) can1 18FFDC00#8014010000507B19
(1708107706.624094) can1 18FF1080#000000FFFFFFFD00
(1708107706.625069) can1 18FF1180#0300FCFDFFFF02FF
(1708107706.625585) can1 04EF001C#DE5248B42145B7B7
(1708107706.628263) can1 18FFDC00#8101000000A4FFA3
(1708107706.628951) can1 0CF00300#CF004FFF00FFFFFF
(1708107706.629410) can1 0CF00400#FF7D7D000000FFFF
(1708107706.633276) can1 18FFDC00#82FFFF6E921B00FF
(1708107706.633888) can1 09F20000#000000FFFFFFFFFF
(1708107706.634470) can1 0CEF0100#B020000000625400
(1708107706.635591) can1 04EF001C#A0550D435F42F240
(1708107706.645659) can1 04EF001C#995725896640DA8A
(1708107706.648275) can1 0CF00400#FF7D7D000000FFFF
(1708107706.653286) can1 18FEEF00#FFFFFF00FFFFFFFF
(1708107706.653918) can1 0CEF0100#B020000000625400
(1708107706.655750) can1 04EF001C#C45A126C3B4DED6F
(1708107706.658300) can1 18FEF200#0000FFFFFFFF37FF
(1708107706.665894) can1 04EF001C#195DF183E66A0EA0
(1708107706.668275) can1 0CF00400#FF7D7D000000FFFF
(1708107706.668947) can1 0CEF1100#1FE1C417E621CB3F
(1708107706.673293) can1 18FFDC00#A014010000507B19
(1708107706.673905) can1 0CEF0100#B020000000625400
(1708107706.676025) can1 04EF001C#0C400C36F317F375
(1708107706.678281) can1 18FFDC00#A101000000A4FFA3
(1708107706.678890) can1 0CF00300#CF004FFF00FFFFFF
(1708107706.683270) can1 18FFDC00#A2FFFF6E921B00FF
(1708107706.683864) can1 0CEF1700#01AB8813CD0AFFFF
(1708107706.686100) can1 04EF001C#CD42DB3C3215247F
(1708107706.688277) can1 0CF00400#FF7D7D000000FFFF
(1708107706.693299) can1 0CEF0100#B020000000625400
(1708107706.693860) can1 18FEF600#FFFF3C2AFFFFFFFF
(1708107706.696205) can1 04EF001C#8C45A03373325F50
(1708107706.698273) can1 18FEF100#FF0200F5FF11DFFF
(1708107706.702541) can1 0CEF0017#812B8813CD0AFFFF
(1708107706.706329) can1 04EF001C#19485996E6DFA615
(1708107706.708274) can1 0CF00400#FF7D7D000000FFFF
(1708107706.708951) can1 18E8FF00#02FFFFFFFF00EF00
(1708107706.713289) can1 0CEF0100#B020000000625400
(1708107706.716430) can1 04EF001C#D94A8F94269D7057
(1708107706.718244) can1 0CEF1100#AB9024A874386AB3
(1708107706.722574) can1 18FF1CF3#0000000000000000
(1708107706.723348) can1 18FFDC00#C014010000507B19
(1708107706.724060) can1 18FF1080#000000FFFFFFFD00
(1708107706.725064) can1 18FF1180#0300FCFDFFFF02FF
(1708107706.726063) can1 18FF1380#000000003FC0C006
(1708107706.726683) can1 04EF001C#984DF49B67BA0B78
(1708107706.728263) can1 18FFDC00#C101000000A4FFA3
(1708107706.729007) can1 0CF00300#CF004FFF00FFFFFF
(1708107706.729403) can1 0CF00400#FF7D7D000000FFFF
(1708107706.733269) can1 18FFDC00#C2FFFF6E921B00FF
(1708107706.733851) can1 09F20000#000000FFFFFFFFFF
(1708107706.734531) can1 0CEF0100#B020000000625400
(1708107706.736673) can1 04EF001C#8C50082673A7F7C5
(1708107706.742542) can1 0CEF0017#812B8813CD0AFFFF
(1708107706.743765) can1 09F8021C#1CFCBAEF0000FFFF
(1708107706.744744) can1 09F8011C#AE6E2618046C5BC1
(1708107706.745775) can1 19FA031C#1CD25F00A5006700
(1708107706.746776) can1 04EF001C#6853F3056843F301
(1708107706.747788) can1 0DF0101C#1CF0A34D305C8E2B
(1708107706.748452) can1 0CF00400#FF7D7D000000FFFF
(1708107706.748939) can1 18E8FF00#02FFFFFFFF00EF00
(1708107706.749487) can1 18FEE81C#D4AF00002164617E
(1708107706.750884) can1 19FA041C#E0931CFF0C01C611
(1708107706.751885) can1 19FA041C#E158CACC10FFFFFF
(1708107706.752925) can1 19FA041C#E2FFFF050429D020
(1708107706.753557) can1 0CEF0100#B020000000625400
(1708107706.754112) can1 19FA041C#E3CC10FFFFFFFFFF
(1708107706.754946) can1 19FA041C#E40C6B030C7B0000
(1708107706.755969) can1 19FA041C#E5FFFFFFFFFF0DD3
(1708107706.756897) can1 04EF001C#7D56CEA87D46CEAC
(1708107706.757956) can1 19FA041C#E613D449C409FFFF
(1708107706.758557) can1 18FEF200#0000FFFFFFFF37FF
(1708107706.759148) can1 19FA041C#E7FFFFFF0F8F168A
(1708107706.760002) can1 19FA041C#E8663011FFFFFFFF
(1708107706.761014) can1 19FA041C#E9FF100000F4E200
(1708107706.762005) can1 19FA041C#EA00FFFFFFFFFF12
(1708107706.762593) can1 18FF1CF3#0000000000000000
(1708107706.763165) can1 19FA041C#EB581BE0C43011FF
(1708107706.764053) can1 19FA041C#ECFFFFFFFF143115
(1708107706.765049) can1 19FA041C#ED2E22540BFFFFFF
(1708107706.766045) can1 19FA041C#EEFFFF19FD0C748B
(1708107706.766981) can1 04EF001C#4F5985374F698513
(1708107706.768083) can1 19FA041C#EF100EFFFFFFFFFF
(1708107706.768698) can1 0CEF1100#ED955F19A47F05B0
(1708107706.769215) can1 0CF00400#FF7D7D000000FFFF
(1708107706.769771) can1 19FA041C#F01AFD0C72CED80E
(1708107706.771107) can1 19FA041C#F1FFFFFFFFFF1D79
(1708107706.772114) can1 19FA041C#F23B82C33C0FFFFF
(1708107706.773135) can1 19FA041C#F3FFFFFF30A91A30
(1708107706.773706) can1 0CEF0100#B020000000625400
(1708107706.774285) can1 18FFDC00#E014010000507B19
(1708107706.774850) can1 19FA041C#F48EA00FFFFFFFFF
(1708107706.776149) can1 19FA041C#F5FFFFFFFFFFFFFF
(1708107706.777111) can1 04EF001C#BD5B60A5BD0B60E1
(1708107706.778267) can1 18FFDC00#E101000000A4FFA3
(1708107706.778917) can1 0CF00300#CF004FFF00FFFFFF
(1708107706.783266) can1 18FFDC00#E2FFFF6E921B00FF
(1708107706.787235) can1 04EF001C#915E65C0912E65A4
(1708107706.788279) can1 0CF00400#FF7D7D000000FFFF
(1708107706.793298) can1 0CEF0100#B020000000625400
(1708107706.797366) can1 04EF001C#41414B5F41F14BFB
(1708107706.798271) can1 18FEF100#FF0300F5FF11DFFF
(1708107706.802553) can1 0CEF0017#812B8813CD0AFFFF
(1708107706.807465) can1 04EF001C#2744066A27B4068E
(1708107706.808281) can1 0CF00400#FF7D7D000000FFFF
(1708107706.808977) can1 18E8FF00#02FFFFFFFF00EF00
(1708107706.813291) can1 0CEF0100#B020000000625400
(1708107706.817569) can1 04EF001C#D046E6D0D156E7D4
(1708107706.818261) can1 0CEF1100#3386366DF0B08892
(1708107706.823289) can1 18FFDC00#0014010000507B19
(1708107706.825076) can1 18FF1080#000000FFFFFFFD00
(1708107706.826058) can1 18FF1180#0300FCFDFFFF02FF
(1708107706.827677) can1 04EF001C#8249CE4F8359CF4B
(1708107706.828268) can1 18FFDC00#0101000000A4FFA3
(1708107706.828944) can1 0CF00300#CF004FFF00FFFFFF
(1708107706.829415) can1 0CF00400#FF7D7D000000FFFF
(1708107706.833280) can1 18FFDC00#02FFFF6E921B00FF
(1708107706.833856) can1 09F20000#000000FFFFFFFFFF
(1708107706.834446) can1 0CEF0100#B020000000625400
(1708107706.837797) can1 04EF001C#664C056A677C044E
(1708107706.842576) can1 0CEA1C00#00EE000000000000
(1708107706.843900) can1 18EEFF1C#0204450E00000042
(1708107706.847905) can1 04EF001C#984EEC98997EEDBC
(1708107706.848486) can1 0CF00400#FF7D7D000000FFFF
(1708107706.849165) can1 18FECA00#40FF00000000FFFF
(1708107706.851838) can1 18FF1C17#0001100000000000
(1708107706.853306) can1 0CEF0100#B020000000625400
(1708107706.857996) can1 04EF001C#5851D2875961D3A3
(1708107706.858594) can1 18FEF200#0000FFFFFFFF37FF
(1708107706.862579) can1 18FF1CF3#0000000000000000
(1708107706.868113) can1 04EF001C#1854B8821964B9A6
(1708107706.868684) can1 0CEF1100#4BB913A3E1905614
(1708107706.869229) can1 0CF00400#FF7D7D000000FFFF
(1708107706.873294) can1 18FFDC00#2014010000507B19
(1708107706.873915) can1 0CEF0100#B020000000625400
(1708107706.878231) can1 04EF001C#D8566E80D9266FE4
(1708107706.878782) can1 0CF00300#CF004FFF00FFFFFF
(1708107706.879365) can1 15FD069B#539E73FFFFFFFFFF
(1708107706.879918) can1 18FFDC00#2101000000A4FFA3
(1708107706.883304) can1 18FFDC00#22FFFF6E921B00FF
(1708107706.888272) can1 0CF00400#FF7D7D000000FFFF
(1708107706.888952) can1 04EF001C#9A59569F9BC9571B
(1708107706.893299) can1 0CEF0100#B020000000625400
(1708107706.898277) can1 18FEF100#FF0300F5FF11DFFF
(1708107706.898802) can1 04EF001C#585CBA8A59ECBB2E
(1708107706.908284) can1 0CF00400#FF7D7D000000FFFF
(1708107706.908924) can1 04EF001C#185FE089190FE1CD
(1708107706.913293) can1 0CEF0100#B020000000625400
(1708107706.918253) can1 0CEF1100#85AA7E57B17BFF17
(1708107706.918801) can1 04EF001C#D841D697D971D7B3
(1708107706.922556) can1 0CEF0017#812B8813CD0AFFFF
(1708107706.923280) can1 18FFDC00#4014010000507B19
(1708107706.925071) can1 18FF1080#000000FFFFFFFD00
(1708107706.926048) can1 18FF1180#0300FCFDFFFF02FF
(1708107706.927056) can1 18FF1380#000000003FC0C006
(1708107706.928261) can1 18FFDC00#4101000000A4FFA3
(1708107706.928869) can1 04EF001C#9844BCA29884BC46
(1708107706.929507) can1 0CF00300#CF004FFF00FFFFFF
(1708107706.929948) can1 0CF00400#FF7D7D000000FFFF
(1708107706.930522) can1 18E8FF00#02FFFFFFFF00EF00
(1708107706.933256) can1 18FFDC00#42FFFF6E921B00FF
(1708107706.933882) can1 09F20000#000000FFFFFFFFFF
(1708107706.934471) can1 0CEF0100#B020000000625400
(1708107706.938891) can1 04EF001C#57476DD957876D3D
(1708107706.948287) can1 0CF00400#FF7D7D000000FFFF
(1708107706.949042) can1 04EF001C#194A49A419AA4960
(1708107706.953309) can1 0CEF0100#B020000000625400
(1708107706.958291) can1 18FEF200#0000FFFFFFFF37FF
(1708107706.959139) can1 04EF001C#D94CBFA2D98CBF46
(1708107706.962563) can1 0CEF0017#812B8813CD0AFFFF
(1708107706.968286) can1 0CF00400#FF7D7D000000FFFF
(1708107706.968945) can1 0CEF1100#CFA36685C7255E27
(1708107706.969361) can1 04EF001C#9A4FE6B99B4FE79D
(1708107706.969930) can1 18E8FF00#02FFFFFFFF00EF00
(1708107706.973298) can1 18FFDC00#6014010000507B19
(1708107706.973873) can1 0CEF0100#B020000000625400
(1708107706.978278) can1 18FFDC00#6102000000A4FFA3
(1708107706.978889) can1 0CF00300#CF004FFF00FFFFFF
(1708107706.979414) can1 04EF001C#5952CBBC5812CAD8
(1708107706.982585) can1 18FF1CF3#0000000000000000
(1708107706.983257) can1 18FFDC00#62FFFF6E921B00FF
(1708107706.988284) can1 0CF00400#FF7D7D000000FFFF
(1708107706.989471) can1 04EF001C#C8556633C9D56797
(1708107706.993332) can1 0CEF0100#B020000000625400
(1708107706.998286) can1 18FEF100#FF0400F5FF11DFFF
(1708107706.999582) can1 04EF001C#6A58A92E6BB8A8EA
(1708107707.008291) can1 0CF00400#FF7D7D000000FFFF
(1708107707.009703) can1 04EF001C#4E5B940D4FBB95C9
(1708107707.013291) can1 0CEF0100#B020000000625400
(1708107707.018260) can1 0CEF1100#F1D870E86008FC80
(1708107707.019833) can1 04EF001C#075EF740057EF544
(1708107707.023284) can1 18FFDC00#8014010000507B19
(1708107707.025080) can1 18FF1080#000000FFFFFFFD00
(1708107707.026059) can1 18FF1180#0300FCFDFFFF02FF
(1708107707.028271) can1 18FFDC00#8102000000A4FFA3
(1708107707.028944) can1 0CF00300#CF004FFF00FFFFFF
(1708107707.029413) can1 0CF00400#FF7D7D000000FFFF
(1708107707.029992) can1 04EF001C#07410F5F05010D3B
(1708107707.033279) can1 18FFDC00#82FFFF6E921B00FF
(1708107707.033892) can1 09F20000#000000FFFFFFFFFF
(1708107707.034526) can1 0CEF0100#B020000000625400
(1708107707.040030) can1 04EF001C#65437E4D67E37CC9
(1708107707.042557) can1 0CEF0017#812B8813CD0AFFFF
(1708107707.048283) can1 0CF00400#FF7D7D000000FFFF
(1708107707.048931) can1 18E8FF00#02FFFFFFFF00EF00
(1708107707.050133) can1 04EF001C#F545DACBF7C5D86F
(1708107707.053332) can1 0CEF0100#B020000000625400
(1708107707.058293) can1 18FEF200#0000FFFFFFFF37FF
(1708107707.060219) can1 04EF001C#8C48C80E8E88CAEA
(1708107707.062579) can1 18FF1CF3#0000000000000000
(1708107707.068283) can1 0CF00400#FF7D7D000000FFFF
(1708107707.068937) can1 0CEF1100#BBDD0839B354489B
(1708107707.070348) can1 04EF001C#754B2EC5764B2DE1
(1708107707.073290) can1 18FFDC00#A014010000507B19
(1708107707.073886) can1 0CEF0100#B020000000625400
(1708107707.078274) can1 18FFDC00#A103000000A4FFA3
(1708107707.078875) can1 0CF00300#CF004FFF00FFFFFF
(1708107707.080447) can1 04EF001C#6D4E1E006E0E1D64
(1708107707.083261) can1 18FFDC00#A2FFFF6E921B00FF
(1708107707.088273) can1 0CF00400#FF7D7D000000FFFF
(1708107707.090566) can1 04EF001C#CD504B1ECE50483A
(1708107707.093300) can1 0CEF0100#B020000000625400
(1708107707.098285) can1 18FEF100#FF0500F5FF11DFFF
(1708107707.100664) can1 04EF001C#8C5310158E9312F1
(1708107707.108285) can1 0CF00400#FF7D7D000000FFFF
(1708107707.110788) can1 04EF001C#4D56FF184FB6FDDC
(1708107707.113289) can1 0CEF0100#B020000000625400
(1708107707.118248) can1 0CEF1100#6DCE630DE58957A9
(1708107707.120916) can1 04EF001C#D8581EAEDAC81C0A
(1708107707.123272) can1 18FFDC00#C014010000507B19
(1708107707.126077) can1 18FF1080#000000FFFFFFFD00
(1708107707.127058) can1 18FF1180#0300FCFDFFFF02FF
(1708107707.128066) can1 18FF1380#000000003FC0C006
(1708107707.128640) can1 0CF00300#CF004FFF00FFFFFF
(1708107707.129212) can1 0CF00400#FF7D7D000000FFFF
(1708107707.129773) can1 18FFDC00#C103000000A4FFA3
(1708107707.131030) can1 04EF001C#2C5CCD0A2E0CCF6E
(1708107707.133274) can1 18FFDC00#C2FFFF6E921B00FF
(1708107707.133867) can1 09F20000#000000FFFFFFFFFF
(1708107707.134503) can1 0CEF0100#B020000000625400
(1708107707.138300) can1 09F20100#A016000100FFFFBF
(1708107707.141134) can1 04EF001C#575EA5D0554EA7F4
(1708107707.143245) can1 09F20100#A172C80400006E92
(1708107707.148288) can1 0CF00400#FF7D7D000000FFFF
(1708107707.148948) can1 09F20100#A21B00FFFFFFFF00
(1708107707.149467) can1 18FEEE00#3CFFFFFFFFFF42FF
(1708107707.151231) can1 04EF001C#4C4146174D9147F3
(1708107707.153292) can1 09F20100#A30100FFFFFFFFFF
(1708107707.153885) can1 0CEF0100#B020000000625400
(1708107707.154465) can1 18FEEF00#FFFFFF00FFFFFFFF
(1708107707.158282) can1 18FEF200#0000FFFFFFFF37FF
(1708107707.160951) can1 18FF2117#06FFFFFF00FFFFFF
(1708107707.161477) can1 04EF001C#D743C9CDD6F3C849
(1708107707.162671) can1 0CEF0017#812B8813CD0AFFFF
(1708107707.163328) can1 18FEF700#FFFF1A01F500F600
(1708107707.168289) can1 0CF00400#FF7D7D000000FFFF
(1708107707.168891) can1 0CEF1100#25C5EB4F9DC88E69
(1708107707.169389) can1 18E8FF00#02FFFFFFFF00EF00
(1708107707.171447) can1 04EF001C#CC46FA10CD36FB54
(1708107707.173296) can1 18FFDC00#E014010000507B19
(1708107707.173884) can1 0CEF0100#B020000000625400
(1708107707.178282) can1 18FFDC00#E103000000A4FFA3
(1708107707.178860) can1 0CF00300#CF004FFF00FFFFFF
(1708107707.181596) can1 04EF001C#BF49F287BE79F383
(1708107707.182595) can1 18FF1CF3#0000000000000000
(1708107707.183278) can1 18FFDC00#E2FFFF6E921B00FF
(1708107707.183836) can1 0CEF1700#01AB8813CD0AFFFF
(1708107707.188288) can1 0CF00400#FF7D7D000000FFFF
(1708107707.188943) can1 18FEFC00#FFA3FFFFFFFFFFFF
(1708107707.191695) can1 04EF001C#824CE66A837CE76E
(1708107707.193302) can1 0CEF0100#B020000000625400
(1708107707.193858) can1 18FEF600#FFFF3C2AFFFFFFFF
(1708107707.198276) can1 18FEF100#FF0700F5FF11DFFF
(1708107707.201814) can1 04EF001C#674F1C41665F1D65
(1708107707.202564) can1 0CEF0017#812B8813CD0AFFFF
(1708107707.208290) can1 0CF00400#FF7D7D000000FFFF
(1708107707.208961) can1 18E8FF00#02FFFFFFFF00EF00
(1708107707.211876) can1 18FF1C17#0001100000000000
(1708107707.212468) can1 04EF001C#115281EC10028088
(1708107707.213340) can1 0CEF0100#B020000000625400
(1708107707.218255) can1 0CEF1100#EFF2A7938D232463
(1708107707.222035) can1 04EF001C#C154676AC0E466EE
(1708107707.223278) can1 18FFDC00#0014010000507B19
(1708107707.226078) can1 18FF1080#000000FFFFFFFD00
(1708107707.227053) can1 18FF1180#0300FCFDFFFF02FF
(1708107707.228265) can1 18FFDC00#0104000000A4FFA3
(1708107707.228960) can1 0CF00300#CF004FFF00FFFFFF
(1708107707.229408) can1 0CF00400#FF7D7D000000FFFF
(1708107707.232141) can1 04EF001C#A7571A59A6C71BFD
(1708107707.233267) can1 18FFDC00#02FFFF6E921B00FF
(1708107707.233882) can1 09F20000#000000FFFFFFFFFF
(1708107707.234459) can1 0CEF0100#B020000000625400
(1708107707.242259) can1 04EF001C#4F5A9D144EAA9CD0
(1708107707.248279) can1 0CF00400#FF7D7D000000FFFF
(1708107707.249371) can1 09F8021C#1DFCBAEF0000FFFF
(1708107707.250323) can1 09F8011C#A26E2618F86B5BC1
(1708107707.251357) can1 19FA031C#1DD25F00A5006700
(1708107707.252353) can1 04EF001C#E85C0F2AEA6C0D2E
(1708107707.253297) can1 0CEF0100#B020000000625400
(1708107707.253863) can1 0DF0101C#1DF0A34D40838E2B
(1708107707.255398) can1 18FEE81C#D4AF00002164627E
(1708107707.256467) can1 19FA041C#00931DFF0C01C611
(1708107707.257482) can1 19FA041C#0158CA6810FFFFFF
(1708107707.258361) can1 18FEF200#0000FFFFFFFF37FF
(1708107707.258941) can1 19FA041C#02FFFF050429D020
(1708107707.259571) can1 19FA041C#033011FFFFFFFFFF
(1708107707.260512) can1 19FA041C#040C6B030C7B0000
(1708107707.261517) can1 19FA041C#05FFFFFFFFFF0DD3
(1708107707.262485) can1 04EF001C#FD5F0281FF4F00A5
(1708107707.263095) can1 18FF1CF3#0000000000000000
(1708107707.263632) can1 19FA041C#0613D449280AFFFF
(1708107707.264549) can1 19FA041C#07FFFFFF0F8F168A
(1708107707.265571) can1 19FA041C#0866F811FFFFFFFF
(1708107707.266581) can1 19FA041C#09FF100000F4E200
(1708107707.267592) can1 19FA041C#0A00FFFFFFFFFF12
(1708107707.268348) can1 0CF00400#FF7D7D000000FFFF
(1708107707.268944) can1 0CEF1100#ABF16CB3EE60EE79
(1708107707.269425) can1 19FA041C#0B581BE0C4CC10FF
(1708107707.270625) can1 19FA041C#0CFFFFFFFF143115
(1708107707.271626) can1 19FA041C#0D2E221C0CFFFFFF
(1708107707.272569) can1 04EF001C#C942DF3CCB72DD38
(1708107707.273288) can1 18FFDC00#2014010000507B19
(1708107707.273877) can1 0CEF0100#B020000000625400
(1708107707.274427) can1 19FA041C#0EFFFF19FD0C748B
(1708107707.275686) can1 19FA041C#0F740EFFFFFFFFFF
(1708107707.276679) can1 19FA041C#101AFD0C72CED80E
(1708107707.277699) can1 19FA041C#11FFFFFFFFFF1D79
(1708107707.278276) can1 18FFDC00#2104000000A4FFA3
(1708107707.278841) can1 0CF00300#CF004FFF00FFFFFF
(1708107707.279413) can1 0DF50B9B#A8FFFFFFFF0000FF
(1708107707.279974) can1 19FA041C#123B82C33C0FFFFF
(1708107707.280748) can1 19FA041C#13FFFFFF30A91A30
(1708107707.281753) can1 19FA041C#148E0410FFFFFFFF
(1708107707.282566) can1 0CEF0017#812B8813CD0AFFFF
(1708107707.283121) can1 04EF001C#8245AE638055AC47
(1708107707.283687) can1 18FFDC00#22FFFF6E921B00FF
(1708107707.284793) can1 19FA041C#15FFFFFFFFFFFFFF
(1708107707.288273) can1 0CF00400#FF7D7D000000FFFF
(1708107707.288950) can1 18E8FF00#02FFFFFFFF00EF00
(1708107707.292791) can1 04EF001C#9947A5B99B17A7DD
(1708107707.293430) can1 0CEF0100#B020000000625400
(1708107707.298275) can1 18FEF100#FF0900F5FF11DFFF
(1708107707.302907) can1 04EF001C#584A0ABC5ADA0818
(1708107707.308283) can1 0CF00400#FF7D7D000000FFFF
(1708107707.313017) can1 04EF001C#184D70CB1ACD720F
(1708107707.313597) can1 0CEF0100#B020000000625400
(1708107707.318258) can1 0CEF1100#7BECF634A6B30038
(1708107707.323130) can1 04EF001C#D74FA9B1D5EFAB55
(1708107707.323738) can1 18FFDC00#4014010000507B19
(1708107707.327083) can1 18FF1080#000000FFFFFFFD00
(1708107707.328070) can1 18FF1180#0300FCFDFFFF02FF
(1708107707.328641) can1 0CF00300#CF004FFF00FFFFFF
(1708107707.329218) can1 0CF00400#FF7D7D000000FFFF
(1708107707.329793) can1 18FF1380#000000003FC0C006
(1708107707.330427) can1 18FFDC00#4105000000A4FFA3
(1708107707.333255) can1 04EF001C#98520CD49B120FD0
(1708107707.333868) can1 09F20000#000000FFFFFFFFFF
(1708107707.334449) can1 0CEF0100#B020000000625400
(1708107707.334985) can1 18FFDC00#42FFFF6E921B00FF
(1708107707.343364) can1 04EF001C#5755FDAB55F5FF4F
(1708107707.348290) can1 0CF00400#FF7D7D000000FFFF
(1708107707.353300) can1 0CEF0100#B020000000625400
(1708107707.353835) can1 04EF001C#1958D9D61BF8DB32
(1708107707.358294) can1 18FEF200#0000FFFFFFFF37FF
(1708107707.363584) can1 04EF001C#D75A01A4D5BA0300
(1708107707.368284) can1 0CF00400#FF7D7D000000FFFF
(1708107707.368927) can1 0CEF1100#37E35F5762E04D19
(1708107707.373287) can1 18FFDC00#6014010000507B19
(1708107707.373833) can1 04EF001C#985D74DB9A7D76BF
(1708107707.374422) can1 0CEF0100#B020000000625400
(1708107707.378280) can1 18FFDC00#6106000000A4FFA3
(1708107707.378868) can1 0CF00300#CF004FFF00FFFFFF
(1708107707.383263) can1 18FFDC00#62FFFF6E921B00FF
(1708107707.383864) can1 15FD069B#549E73FFFFFFFFFF
(1708107707.384401) can1 04EF001C#E640E136E420E312
(1708107707.388272) can1 0CF00400#FF7D7D000000FFFF
(1708107707.393302) can1 0CEF0100#B020000000625400
(1708107707.393967) can1 04EF001C#8D43916D8F239349
(1708107707.398287) can1 18FEF100#FF0B00F5FF11DFFF
(1708107707.402586) can1 0CEF0017#812B8813CD0AFFFF
(1708107707.404040) can1 04EF001C#4246701040067214
(1708107707.408271) can1 0CF00400#FF7D7D000000FFFF
(1708107707.408973) can1 18E8FF00#02FFFFFFFF00EF00
(1708107707.413290) can1 0CEF0100#B020000000625400
(1708107707.414169) can1 04EF001C#2849614F29C9608B
(1708107707.418267) can1 0CEF1100#8392BFE8F0F9EC95
(1708107707.422618) can1 18FF1CF3#0000000000000000
(1708107707.423277) can1 18FFDC00#8014010000507B19
(1708107707.424286) can1 04EF001C#CE4B907DCF8B91F9
(1708107707.427089) can1 18FF1080#000000FFFFFFFD00
(1708107707.428057) can1 18FF1180#0300FCFDFFFF02FF
(1708107707.428623) can1 0CF00300#CF004FFF00FFFFFF
(1708107707.429201) can1 0CF00400#FF7D7D000000FFFF
(1708107707.429804) can1 18FFDC00#8106000000A4FFA3
(1708107707.433281) can1 18FFDC00#82FFFF6E921B00FF
(1708107707.433904) can1 09F20000#000000FFFFFFFFFF
(1708107707.434411) can1 04EF001C#824EF608833EF72C
(1708107707.435002) can1 0CEF0100#B020000000625400
(1708107707.441889) can1 18FF1C17#0001100000000000
(1708107707.442600) can1 0CEF0017#812B8813CD0AFFFF
(1708107707.444475) can1 04EF001C#1D5195EF1C0194EB
(1708107707.448276) can1 0CF00400#FF7D7D000000FFFF
(1708107707.448947) can1 18E8FF00#02FFFFFFFF00EF00
(1708107707.453301) can1 0CEF0100#B020000000625400
(1708107707.454597) can1 04EF001C#BD5320EDBDE32009
(1708107707.458294) can1 18FEF200#0000FFFFFFFF37FF
(1708107707.462627) can1 18FF1CF3#0000000000000000
(1708107707.464686) can1 04EF001C#5756E5B857C6E57C
(1708107707.468280) can1 0CF00400#FF7D7D000000FFFF
(1708107707.468945) can1 0CEF1100#D8968BF19199F95F
(1708107707.473294) can1 18FFDC00#A014010000507B19
(1708107707.473858) can1 0CEF0100#B020000000625400
(1708107707.474867) can1 04EF001C#3E59F7FF3EE9F71B
(1708107707.478273) can1 18FFDC00#A107000000A4FFA3
(1708107707.478865) can1 0CF00300#CF004FFF00FFFFFF
(1708107707.483269) can1 18FFDC00#A2FFFF6E921B00FF
(1708107707.484913) can1 04EF001C#345CD5AA34CCD56E
(1708107707.488273) can1 0CF00400#FF7D7D000000FFFF
(1708107707.493298) can1 0CEF0100#B020000000625400
(1708107707.495015) can1 04EF001C#CD5E3B60CDCE3BA4
(1708107707.498277) can1 18FEF100#FF0D00F5FF11DFFF
(1708107707.505145) can1 04EF001C#584152D758915253
(1708107707.508276) can1 0CF00400#FF7D7D000000FFFF
(1708107707.513288) can1 0CEF0100#B020000000625400
(1708107707.515252) can1 04EF001C#4D446F7A4D946FFE
(1708107707.518266) can1 0CEF1100#0B8089ACCD4EF77C
(1708107707.522589) can1 0CEF0017#812B8813CD0AFFFF
(1708107707.523279) can1 18FFDC00#C014010000507B19
(1708107707.525362) can1 04EF001C#0C4734710C9734F5
(1708107707.528081) can1 18FF1080#000000FFFFFFFD00
(1708107707.528666) can1 0CF00300#CF004FFF00FFFFFF
(1708107707.529237) can1 0CF00400#FF7D7D000000FFFF
(1708107707.529807) can1 18E8FF00#02FFFFFFFF00EF00
(1708107707.530378) can1 18FF1180#0300FCFDFFFF02FF
(1708107707.530948) can1 18FFDC00#C108000000A4FFA3
(1708107707.531545) can1 18FF1380#000000003FC0C006
(1708107707.533275) can1 18FFDC00#C2FFFF6E921B00FF
(1708107707.533881) can1 09F20000#000000FFFFFFFFFF
(1708107707.534461) can1 0CEF0100#B020000000625400
(1708107707.535494) can1 04EF001C#CC49827FCC9982FB
(1708107707.545595) can1 04EF001C#574C35A257BC3506
(1708107707.548274) can1 0CF00400#FF7D7D000000FFFF
(1708107707.553295) can1 0CEF0100#B020000000625400
(1708107707.555685) can1 04EF001C#4C4F36794CBF36DD
(1708107707.558301) can1 18FEF200#0000FFFFFFFF37FF
(1708107707.562626) can1 18FF1CF3#0000000000000000
(1708107707.565815) can1 04EF001C#D85156C7D8C15603
(1708107707.568275) can1 0CF00400#FF7D7D000000FFFF
(1708107707.568900) can1 0CEF1100#4D85F21DA308958F
(1708107707.573290) can1 18FFDC00#E014010000507B19
(1708107707.573887) can1 0CEF0100#B020000000625400
(1708107707.575905) can1 04EF001C#CD546B6ACC046A6E
(1708107707.578280) can1 18FFDC00#E109000000A4FFA3
(1708107707.578844) can1 0CF00300#CF004FFF00FFFFFF
(1708107707.583269) can1 18FFDC00#E2FFFF6E921B00FF
(1708107707.586059) can1 04EF001C#C1577F09C0077E0D
(1708107707.588277) can1 0CF00400#FF7D7D000000FFFF
(1708107707.593292) can1 0CEF0100#B020000000625400
(1708107707.596188) can1 04EF001C#835A5714820A5610
(1708107707.598267) can1 18FEF100#FF1000F5FF11DFFF
(1708107707.606268) can1 04EF001C#675D8C33662D8D17
(1708107707.608271) can1 0CF00400#FF7D7D000000FFFF
(1708107707.613295) can1 0CEF0100#B020000000625400
(1708107707.616391) can1 04EF001C#0240020603300322
(1708107707.618253) can1 0CEF1100#B3B69260B78712A7
(1708107707.622616) can1 0CEF0017#812B8813CD0AFFFF
(1708107707.623283) can1 18FFDC00#0014010000507B19
(1708107707.626501) can1 04EF001C#C242D404C332D520
(1708107707.628071) can1 18FF1080#000000FFFFFFFD00
(1708107707.628669) can1 0CF00300#CF004FFF00FFFFFF
(1708107707.629216) can1 0CF00400#FF7D7D000000FFFF
(1708107707.629787) can1 18E8FF00#02FFFFFFFF00EF00
(1708107707.630413) can1 18FF1180#0300FCFDFFFF02FF
(1708107707.630934) can1 18FFDC00#0109000000A4FFA3
(1708107707.633282) can1 18FFDC00#02FFFF6E921B00FF
(1708107707.633855) can1 09F20000#000000FFFFFFFFFF
(1708107707.634444) can1 0CEF0100#B020000000625400
(1708107707.636603) can1 04EF001C#DD45F3FBDC55F2BF
(1708107707.646722) can1 04EF001C#F947C6D9F837C7FD
(1708107707.648290) can1 0CF00400#FF7D7D000000FFFF
(1708107707.653283) can1 18FEEF00#FFFFFF00FFFFFFFF
(1708107707.653866) can1 0CEF0100#B020000000625400
(1708107707.656801) can1 04EF001C#984ACCDC993ACDF8
(1708107707.658287) can1 18FEF200#0000FFFFFFFF37FF
(1708107707.662631) can1 18FF1CF3#0000000000000000
(1708107707.666918) can1 04EF001C#574D3DA3561D3CA7
(1708107707.668274) can1 0CF00400#FF7D7D000000FFFF
(1708107707.668889) can1 0CEF1100#E8AA667F54FBE37B
(1708107707.673280) can1 18FFDC00#2014010000507B19
(1708107707.673889) can1 0CEF0100#B020000000625400
(1708107707.677042) can1 04EF001C#185098C618E09822
(1708107707.678267) can1 18FFDC00#210A000000A4FFA3
(1708107707.678837) can1 0CF00300#CF004FFF00FFFFFF
(1708107707.682608) can1 0CEF0017#812B8813CD0AFFFF
(1708107707.683303) can1 18FFDC00#22FFFF6E921B00FF
(1708107707.683880) can1 0CEF1700#01AB8813CD0AFFFF
(1708107707.687162) can1 04EF001C#D75241BCD7C24178
(1708107707.688281) can1 0CF00400#FF7D7D000000FFFF
(1708107707.688897) can1 18E8FF00#02FFFFFFFF00EF00
(1708107707.693306) can1 0CEF0100#B020000000625400
(1708107707.693893) can1 18FEF600#FFFF3C2AFFFFFFFF
(1708107707.697258) can1 04EF001C#9A5536D39AC53617
(1708107707.698270) can1 18FEF100#FF1200F5FF11DFFF
(1708107707.707375) can1 04EF001C#58589ACE58889A4A
(1708107707.708275) can1 0CF00400#FF7D7D000000FFFF
(1708107707.713299) can1 0CEF0100#B020000000625400
(1708107707.717490) can1 04EF001C#185BC0CD186BC0A9
(1708107707.718257) can1 0CEF1100#DBA49B2407D22521
(1708107707.723282) can1 18FFDC00#4014010000507B19
(1708107707.727587) can1 04EF001C#D85D36CBD86D36AF
(1708107707.728304) can1 18FFDC00#410B000000A4FFA3
(1708107707.728933) can1 0CF00300#CF004FFF00FFFFFF
(1708107707.729434) can1 0CF00400#FF7D7D000000FFFF
(1708107707.730018) can1 18FF1080#000000FFFFFFFD00
(1708107707.731061) can1 18FF1180#0300FCFDFFFF02FF
(1708107707.732078) can1 18FF1380#000000003FC0C006
(1708107707.733267) can1 18FFDC00#42FFFF6E921B00FF
(1708107707.733855) can1 09F20000#000000FFFFFFFFFF
(1708107707.734436) can1 0CEF0100#B020000000625400
(1708107707.737711) can1 04EF001C#99409DDE99509D9A
(1708107707.747811) can1 04EF001C#57434DAD57334D89
(1708107707.748401) can1 0CF00400#FF7D7D000000FFFF
(1708107707.753296) can1 0CEF0100#B020000000625400
(1708107707.757928) can1 04EF001C#184628D0183628F4
(1708107707.758561) can1 18FEF200#0000FFFFFFFF37FF
(1708107707.759081) can1 09F8021C#1EFCBAEF0100FFFF
(1708107707.759965) can1 09F8011C#9A6E2618EA6B5BC1
(1708107707.760980) can1 19FA031C#1ED25F00A5006700
(1708107707.761972) can1 0DF0101C#1EF0A34D40838E2B
(1708107707.762692) can1 0CEF0017#812B8813CD0AFFFF
(1708107707.763259) can1 18FEE81C#D4AF00002164647E
(1708107707.764071) can1 19FA041C#20931EFF0C01C611
(1708107707.765082) can1 19FA041C#2158CA3011FFFFFF
(1708107707.766094) can1 19FA041C#22FFFF050429D020
(1708107707.767112) can1 19FA041C#239411FFFFFFFFFF
(1708107707.768044) can1 04EF001C#7F4934E77F1934E3
(1708107707.768610) can1 0CEF1100#EED3EFD2C729367B
(1708107707.769168) can1 0CF00400#FF7D7D000000FFFF
(1708107707.769728) can1 18E8FF00#02FFFFFFFF00EF00
(1708107707.770297) can1 19FA041C#240C6B030C7B0000
(1708107707.770995) can1 18FF1C17#0001100000000000
(1708107707.771556) can1 19FA041C#25FFFFFFFFFF0DD3
(1708107707.773173) can1 19FA041C#2613D449280AFFFF
(1708107707.773746) can1 0CEF0100#B020000000625400
(1708107707.774315) can1 18FFDC00#6014010000507B19
(1708107707.774879) can1 19FA041C#27FFFFFF0F8F168A
(1708107707.776198) can1 19FA041C#2866F811FFFFFFFF
(1708107707.777209) can1 19FA041C#29FF100000F4E200
(1708107707.778140) can1 04EF001C#524C308A521C308E
(1708107707.778709) can1 0CF00300#CF004FFF00FFFFFF
(1708107707.779275) can1 18FFDC00#610C000000A4FFA3
(1708107707.779856) can1 19FA041C#2A00FFFFFFFFFF12
(1708107707.781263) can1 19FA041C#2B581BE0C4F811FF
(1708107707.782262) can1 19FA041C#2CFFFFFFFF143115
(1708107707.782842) can1 18FF1CF3#0000000000000000
(1708107707.783400) can1 18FFDC00#62FFFF6E921B00FF
(1708107707.783972) can1 19FA041C#2D2E22B80BFFFFFF
(1708107707.785331) can1 19FA041C#2EFFFF19FD0C748B
(1708107707.786340) can1 19FA041C#2F740EFFFFFFFFFF
(1708107707.787327) can1 19FA041C#301AFD0C72CE0410
(1708107707.788275) can1 0CF00400#FF7D7D000000FFFF
(1708107707.788897) can1 04EF001C#A44FD939A41FD93D
(1708107707.790375) can1 19FA041C#31FFFFFFFFFF1D79
(1708107707.791397) can1 19FA041C#323B82C30410FFFF
(1708107707.792401) can1 19FA041C#33FFFFFF30A91A30
(1708107707.793297) can1 0CEF0100#B020000000625400
(1708107707.793888) can1 19FA041C#348E6810FFFFFFFF
(1708107707.795414) can1 19FA041C#35FFFFFFFFFFFFFF
(1708107707.798288) can1 18FEF100#FF1400F5FF11DFFF
(1708107707.798816) can1 04EF001C#A6512B27A6112B23
(1708107707.808287) can1 0CF00400#FF7D7D000000FFFF
(1708107707.808906) can1 04EF001C#4154E31A4134E33E
(1708107707.813335) can1 0CEF0100#B020000000625400
(1708107707.818262) can1 0CEF1100#B2C8E2342040AE46
(1708107707.818795) can1 04EF001C#26579F2126579F65
(1708107707.823290) can1 18FFDC00#8014010000507B19
(1708107707.828269) can1 18FFDC00#810C000000A4FFA3
(1708107707.828857) can1 04EF001C#E659293FE68929BB
(1708107707.829439) can1 0CF00300#CF004FFF00FFFFFF
(1708107707.829968) can1 0CF00400#FF7D7D000000FFFF
(1708107707.830557) can1 18FF1080#000000FFFFFFFD00
(1708107707.832071) can1 18FF1180#0300FCFDFFFF02FF
(1708107707.833272) can1 18FFDC00#82FFFF6E921B00FF
(1708107707.833856) can1 09F20000#000000FFFFFFFFFF
(1708107707.834444) can1 0CEF0100#B020000000625400
(1708107707.838843) can1 04EF001C#825C661A82EC66FE
(1708107707.848282) can1 0CF00400#FF7D7D000000FFFF
(1708107707.848866) can1 18FECA00#40FF00000000FFFF
(1708107707.849427) can1 04EF001C#D75E21B0D62E2094
(1708107707.853288) can1 0CEF0100#B020000000625400
(1708107707.858293) can1 18FEF200#0000FFFFFFFF37FF
(1708107707.859061) can1 04EF001C#984194D7997195B3
(1708107707.862620) can1 0CEF0017#812B8813CD0AFFFF
(1708107707.868285) can1 0CF00400#FF7D7D000000FFFF
(1708107707.868904) can1 0CEF1100#76C1DD16F4A1D1E3
(1708107707.869366) can1 04EF001C#58447AD259747BB6
(1708107707.869981) can1 18E8FF00#02FFFFFFFF00EF00
(1708107707.873296) can1 18FFDC00#A014010000507B19
(1708107707.873901) can1 0CEF0100#B020000000625400
(1708107707.878273) can1 18FFDC00#A10D000000A4FFA3
(1708107707.878866) can1 0CF00300#CF004FFF00FFFFFF
(1708107707.879425) can1 04EF001C#1A4722C11B972345
(1708107707.881482) can1 15FD069B#559E73FFFFFFFFFF
(1708107707.882632) can1 0CEA1C00#00EE000000000000
(1708107707.883260) can1 18FFDC00#A2FFFF6E921B00FF
(1708107707.883856) can1 18EEFF1C#0204450E00000042
(1708107707.888286) can1 0CF00400#FF7D7D000000FFFF
(1708107707.889411) can1 04EF001C#D74999A7D6F99843
(1708107707.893301) can1 0CEF0100#B020000000625400
(1708107707.898279) can1 18FEF100#FF1600F5FF11DFFF
(1708107707.899498) can1 04EF001C#BD4CD8F2BF5CDAB6
(1708107707.902649) can1 18FF1CF3#0000000000000000
(1708107707.908284) can1 0CF00400#FF7D7D000000FFFF
(1708107707.909639) can1 04EF001C#7C4F07F97E5F05BD
(1708107707.913303) can1 0CEF0100#B020000000625400
(1708107707.918274) can1 0CEF1100#0AFEF9F85A894B9D
(1708107707.919741) can1 04EF001C#3D52ACEC3F82AE68
(1708107707.922626) can1 0CEF0017#812B8813CD0AFFFF
(1708107707.923278) can1 18FFDC00#C014010000507B19
(1708107707.928272) can1 18FFDC00#C10D000000A4FFA3
(1708107707.928892) can1 0CF00300#CF004FFF00FFFFFF
(1708107707.929436) can1 0CF00400#FF7D7D000000FFFF
(1708107707.929967) can1 04EF001C#FC545BE2FEC45926
(1708107707.930530) can1 18E8FF00#02FFFFFFFF00EF00
(1708107707.931165) can1 18FF1080#000000FFFFFFFD00
(1708107707.932072) can1 18FF1180#0300FCFDFFFF02FF
(1708107707.933078) can1 18FF1380#000000003FC0C006
(1708107707.933671) can1 09F20000#000000FFFFFFFFFF
(1708107707.934249) can1 0CEF0100#B020000000625400
(1708107707.934842) can1 18FFDC00#C2FFFF6E921B00FF
(1708107707.939931) can1 04EF001C#985724C19B0727C5
(1708107707.948288) can1 0CF00400#FF7D7D000000FFFF
(1708107707.950034) can1 04EF001C#8D5A59648E2A5A40
(1708107707.953307) can1 0CEF0100#B020000000625400
(1708107707.958291) can1 18FEF200#0000FFFFFFFF37FF
(1708107707.960154) can1 04EF001C#4E5DA47B4D4DA73F
(1708107707.962639) can1 18FF1CF3#0000000000000000
(1708107707.968289) can1 0CF00400#FF7D7D000000FFFF
(1708107707.968865) can1 0CEF1100#C2F3E5BB3A73EA99
(1708107707.970294) can1 04EF001C#344035B6375036F2
(1708107707.973330) can1 18FFDC00#E014010000507B19
(1708107707.973918) can1 0CEF0100#B020000000625400
(1708107707.978280) can1 18FFDC00#E10E000000A4FFA3
(1708107707.978832) can1 0CF00300#CF004FFF00FFFFFF
(1708107707.980387) can1 04EF001C#F542E2BCF632E198
(1708107707.983260) can1 18FFDC00#E2FFFF6E921B00FF
(1708107707.988286) can1 0CF00400#FF7D7D000000FFFF
(1708107707.990510) can1 04EF001C#F945D6DBFA55D59F
(1708107707.992173) can1 18FF1C17#0001100000000000
(1708107707.993308) can1 0CEF0100#B020000000625400
(1708107707.998272) can1 18FEF100#FF1700F5FF11DFFF
(1708107708.000610) can1 04EF001C#DD489BF6DE5898B2
(1708107708.002616) can1 0CEF0017#812B8813CD0AFFFF
(1708107708.008286) can1 0CF00400#FF7D7D000000FFFF
(1708107708.008875) can1 18E8FF00#02FFFFFFFF00EF00
(1708107708.010720) can1 04EF001C#D54B8BB5D67B88D1
(1708107708.013285) can1 0CEF0100#B020000000625400
(1708107708.018254) can1 0CEF1100#82ECCFBCD32485D4
(1708107708.020845) can1 04EF001C#3A4E4BC8397E48AC
(1708107708.023281) can1 18FFDC00#0014010000507B19
(1708107708.028273) can1 18FFDC00#010E000000A4FFA3
(1708107708.028866) can1 0CF00300#CF004FFF00FFFFFF
(1708107708.029428) can1 0CF00400#FF7D7D000000FFFF
(1708107708.030117) can1 18FF1080#000000FFFFFFFD00
(1708107708.030960) can1 04EF001C#4551CF2F4661CC4B
(1708107708.031545) can1 18FF1180#0300FCFDFFFF02FF
(1708107708.033268) can1 18FFDC00#02FFFF6E921B00FF
(1708107708.033895) can1 09F20000#000000FFFFFFFFFF
(1708107708.034471) can1 0CEF0100#B020000000625400
(1708107708.041070) can1 04EF001C#A6533B35A58338B1
(1708107708.048279) can1 0CF00400#FF7D7D000000FFFF
(1708107708.051155) can1 04EF001C#D85576C3DB857547
(1708107708.053301) can1 0CEF0100#B020000000625400
(1708107708.058295) can1 18FEF200#0000FFFFFFFF37FF
(1708107708.061265) can1 04EF001C#98585CCE9B885F4A
(1708107708.068288) can1 0CF00400#FF7D7D000000FFFF
(1708107708.068859) can1 0CEF1100#4BE09BB705C6A120
(1708107708.071374) can1 04EF001C#8D5B51658E8B52E1
(1708107708.073295) can1 18FFDC00#2014010000507B19
(1708107708.073889) can1 0CEF0100#B020000000625400
(1708107708.078277) can1 18FFDC00#210F000000A4FFA3
(1708107708.078859) can1 0CF00300#CF004FFF00FFFFFF
(1708107708.081507) can1 04EF001C#195EE9F01A7EEAB4
(1708107708.083251) can1 18FFDC00#22FFFF6E921B00FF
(1708107708.088270) can1 0CF00400#FF7D7D000000FFFF
(1708107708.091604) can1 04EF001C#D740D19ED420D29A
(1708107708.093300) can1 0CEF0100#B020000000625400
(1708107708.098278) can1 18FEF100#FF1900F5FF11DFFF
(1708107708.101717) can1 04EF001C#9A4386F598E38431
(1708107708.102656) can1 18FF1CF3#0000000000000000
(1708107708.108282) can1 0CF00400#FF7D7D000000FFFF
(1708107708.111825) can1 04EF001C#58466AE05A6668A4
(1708107708.113298) can1 0CEF0100#B020000000625400
(1708107708.118252) can1 0CEF1100#7A9286603174BCD9
(1708107708.121959) can1 04EF001C#1A4952FF1BC9531B
(1708107708.122686) can1 0CEF0017#812B8813CD0AFFFF
(1708107708.123306) can1 18FFDC00#4014010000507B19
(1708107708.128275) can1 18FFDC00#4110000000A4FFA3
(1708107708.128869) can1 0CF00300#CF004FFF00FFFFFF
(1708107708.129414) can1 0CF00400#FF7D7D000000FFFF
(1708107708.130034) can1 18E8FF00#02FFFFFFFF00EF00
(1708107708.131091) can1 18FF1080#000000FFFFFFFD00
(1708107708.132055) can1 18FF1180#0300FCFDFFFF02FF
(1708107708.132628) can1 04EF001C#0C4C6C4A0DEC6D8E
(1708107708.133187) can1 18FF1380#000000003FC0C006
(1708107708.133783) can1 09F20000#000000FFFFFFFFFF
(1708107708.134376) can1 0CEF0100#B020000000625400
(1708107708.134960) can1 18FFDC00#42FFFF6E921B00FF
(1708107708.138297) can1 09F20100#C016000100FFFFBF
(1708107708.142166) can1 04EF001C#984EECE899AEED6C
(1708107708.143252) can1 09F20100#C172C90400006E92
(1708107708.143833) can1 18FEE500#36270000FFFFFFFF
(1708107708.148287) can1 0CF00400#FF7D7D000000FFFF
(1708107708.148870) can1 09F20100#C21B00FFFFFFFF00
(1708107708.149455) can1 18FEEE00#3CFFFFFFFFFF42FF
(1708107708.152265) can1 04EF001C#5751DD8F5671DCCB
(1708107708.153279) can1 09F20100#C30100FFFFFFFFFF
(1708107708.153891) can1 0CEF0100#B020000000625400
(1708107708.154465) can1 18FEEF00#FFFFFF00FFFFFFFF
(1708107708.158303) can1 18FEF200#0000FFFFFFFF37FF
(1708107708.162399) can1 04EF001C#1954B9FA19D4B91E
(1708107708.162963) can1 0CEF0017#812B8813CD0AFFFF
(1708107708.163508) can1 18FEF700#FFFF1A01F500F600
(1708107708.168275) can1 0CF00400#FF7D7D000000FFFF
(1708107708.168864) can1 0CEF1100#B0954AB1F989A01F
(1708107708.172497) can1 04EF001C#D7566188D7B6610C
(1708107708.173282) can1 18FFDC00#6014010000507B19
(1708107708.173868) can1 0CEF0100#B020000000625400
(1708107708.174497) can1 18E8FF00#02FFFFFFFF00EF00
(1708107708.178280) can1 18FFDC00#6110000000A4FFA3
(1708107708.178883) can1 0CF00300#CF004FFF00FFFFFF
(1708107708.182622) can1 04EF001C#985954FF987954BB
(1708107708.183201) can1 18FF1CF3#0000000000000000
(1708107708.183760) can1 0CEF1700#01AB8813CD0AFFFF
(1708107708.184340) can1 18FFDC00#62FFFF6E921B00FF
(1708107708.188282) can1 0CF00400#FF7D7D000000FFFF
(1708107708.188912) can1 18FEFC00#FFA3FFFFFFFFFFFF
(1708107708.192742) can1 04EF001C#E75C0032E72C0016
(1708107708.193329) can1 0CEF0100#B020000000625400
(1708107708.193901) can1 18FEF600#FFFF3C2AFFFFFFFF
(1708107708.198278) can1 18FEF100#FF1B00F5FF11DFFF
(1708107708.202863) can1 04EF001C#A65F5B39A60F5B3D
(1708107708.208280) can1 0CF00400#FF7D7D000000FFFF
(1708107708.212943) can1 04EF001C#4342510C43125108
(1708107708.213551) can1 0CEF0100#B020000000625400
(1708107708.218282) can1 0CEF1100#E082243406F8FBE1
(1708107708.221898) can1 18FF1C17#0001100000000000
(1708107708.223077) can1 04EF001C#2845015328150157
(1708107708.223652) can1 18FFDC00#8014010000507B19
(1708107708.228267) can1 18FFDC00#8111000000A4FFA3
(1708107708.228887) can1 0CF00300#CF004FFF00FFFFFF
(1708107708.229439) can1 0CF00400#FF7D7D000000FFFF
(1708107708.231079) can1 18FF1080#000000FFFFFFFD00
(1708107708.232076) can1 18FF1180#0300FCFDFFFF02FF
(1708107708.233188) can1 04EF001C#E547DA39E517DA3D
(1708107708.233777) can1 09F20000#000000FFFFFFFFFF
(1708107708.234359) can1 0CEF0100#B020000000625400
(1708107708.234953) can1 18FFDC00#82FFFF6E921B00FF
(1708107708.242650) can1 0CEF0017#812B8813CD0AFFFF
(1708107708.243291) can1 04EF001C#834AD7047CFD28E7
(1708107708.248285) can1 0CF00400#FF7D7D000000FFFF
(1708107708.248869) can1 18E8FF00#02FFFFFFFF00EF00
(1708107708.253297) can1 0CEF0100#B020000000625400
(1708107708.253836) can1 04EF001C#D94CBFD2D91CBFD6
(1708107708.258297) can1 18FEF200#0000FFFFFFFF37FF
(1708107708.262680) can1 18FF1CF3#0000000000000000
(1708107708.263501) can1 04EF001C#9A4FE6C99A3FE6ED
(1708107708.268289) can1 0CF00400#FF7D7D000000FFFF
(1708107708.268874) can1 09F8021C#1FFCBAEF0000FFFF
(1708107708.269388) can1 0CEF1100#19863DBD7A6E7644
(1708107708.269925) can1 09F8011C#926E2618E06B5BC1
(1708107708.270629) can1 19FA031C#1FD25F00A5006700
(1708107708.271597) can1 0DF0101C#1FF0A34D50AA8E2B
(1708107708.272616) can1 18FEE81C#D4AF00002164657E
(1708107708.273332) can1 18FFDC00#A014010000507B19
(1708107708.273840) can1 04EF001C#A8523D44A8223D60
(1708107708.274416) can1 0CEF0100#B020000000625400
(1708107708.275044) can1 19FA041C#40931FFF0C01C611
(1708107708.275729) can1 19FA041C#4158CACC10FFFFFF
(1708107708.276725) can1 19FA041C#42FFFF050429D020
(1708107708.277732) can1 19FA041C#436810FFFFFFFFFF
(1708107708.278314) can1 0CF00300#CF004FFF00FFFFFF
(1708107708.278945) can1 18FFDC00#A111000000A4FFA3
(1708107708.279432) can1 19FA041C#440C6B030C7BC409
(1708107708.280766) can1 19FA041C#45FFFFFFFFFF0DD3
(1708107708.281368) can1 0DF50B9B#A9FFFFFFFF0000FF
(1708107708.281901) can1 19FA041C#4613D449280AFFFF
(1708107708.282777) can1 19FA041C#47FFFFFF0F8F168A
(1708107708.283346) can1 18FFDC00#A2FFFF6E921B00FF
(1708107708.283918) can1 04EF001C#C955674BC905674F
(1708107708.284844) can1 19FA041C#48663011FFFFFFFF
(1708107708.285821) can1 19FA041C#49FF100000F4E200
(1708107708.286827) can1 19FA041C#4A00FFFFFFFFFF12
(1708107708.287838) can1 19FA041C#4B581BE0C4CC10FF
(1708107708.288411) can1 0CF00400#FF7D7D000000FFFF
(1708107708.288979) can1 19FA041C#4CFFFFFFFF143115
(1708107708.289876) can1 19FA041C#4D2E22B80BFFFFFF
(1708107708.290862) can1 19FA041C#4EFFFF19FD0C748B
(1708107708.291884) can1 19FA041C#4F100EFFFFFFFFFF
(1708107708.292894) can1 19FA041C#501AFD0C72CE740E
(1708107708.293474) can1 0CEF0100#B020000000625400
(1708107708.294007) can1 04EF001C#9358579693085792
(1708107708.294952) can1 19FA041C#51FFFFFFFFFF1D79
(1708107708.295924) can1 19FA041C#523B82C3AC0DFFFF
(1708107708.296946) can1 19FA041C#53FFFFFF30A91A30
(1708107708.297954) can1 19FA041C#548EA00FFFFFFFFF
(1708107708.298515) can1 18FEF100#FF1D00F5FF11DFFF
(1708107708.299128) can1 19FA041C#55FFFFFFFFFFFFFF
(1708107708.303961) can1 04EF001C#995A4DC4990A4DC0
(1708107708.308285) can1 0CF00400#FF7D7D000000FFFF
(1708107708.313306) can1 0CEF0100#B020000000625400
(1708107708.314072) can1 04EF001C#585DB2CB584DB28F
(1708107708.318263) can1 0CEF1100#6CB01359C6543EE8
(1708107708.322648) can1 0CEF0017#812B8813CD0AFFFF
(1708107708.323280) can1 18FFDC00#C014010000507B19
(1708107708.324190) can1 04EF001C#184018D618901852
(1708107708.328271) can1 18FFDC00#C112000000A4FFA3
(1708107708.328960) can1 0CF00300#CF004FFF00FFFFFF
(1708107708.329404) can1 0CF00400#FF7D7D000000FFFF
(1708107708.329981) can1 18E8FF00#02FFFFFFFF00EF00
(1708107708.332080) can1 18FF1080#000000FFFFFFFD00
(1708107708.333070) can1 18FF1180#0300FCFDFFFF02FF
(1708107708.333677) can1 09F20000#000000FFFFFFFFFF
(1708107708.334252) can1 0CEF0100#B020000000625400
(1708107708.334840) can1 04EF001C#D742C1ACD7D2C168
(1708107708.335397) can1 18FF1380#000000003FC0C006
(1708107708.335952) can1 18FFDC00#C2FFFF6E921B00FF
(1708107708.344382) can1 04EF001C#9845B4D39915B5D7
(1708107708.348276) can1 0CF00400#FF7D7D000000FFFF
(1708107708.353295) can1 0CEF0100#B020000000625400
(1708107708.354523) can1 04EF001C#C3488506C2588442
(1708107708.358293) can1 18FEF200#0000FFFFFFFF37FF
(1708107708.362678) can1 18FF1CF3#0000000000000000
(1708107708.364617) can1 04EF001C#184B40DD199B4159
(1708107708.368281) can1 0CF00400#FF7D7D000000FFFF
(1708107708.368866) can1 0CEF1100#ACB54D5802A4C8CE
(1708107708.373292) can1 18FFDC00#E014010000507B19
(1708107708.373880) can1 0CEF0100#B020000000625400
(1708107708.374775) can1 04EF001C#FD4D92F3FCDD9337
(1708107708.378274) can1 18FFDC00#E112000000A4FFA3
(1708107708.378869) can1 0CF00300#CF004FFF00FFFFFF
(1708107708.379453) can1 15FD069B#569F73FFFFFFFFFF
(1708107708.383267) can1 18FFDC00#E2FFFF6E921B00FF
(1708107708.384861) can1 04EF001C#87510B0F8531090B
(1708107708.388278) can1 0CF00400#FF7D7D000000FFFF
(1708107708.393295) can1 0CEF0100#B020000000625400
(1708107708.394959) can1 04EF001C#4554E71A4774E55E
(1708107708.398272) can1 18FEF100#FF1E00F5FF11DFFF
(1708107708.402651) can1 0CEF0017#812B8813CD0AFFFF
(1708107708.405075) can1 04EF001C#A3561628A196148C
(1708107708.408277) can1 0CF00400#FF7D7D000000FFFF
(1708107708.408894) can1 18E8FF00#02FFFFFFFF00EF00
(1708107708.413301) can1 0CEF0100#B020000000625400
(1708107708.415184) can1 04EF001C#7859B3FF7B19B0DB
(1708107708.418253) can1 0CEF1100#F0A600BCF7CF4061
(1708107708.423290) can1 18FFDC00#0014010000507B19
(1708107708.425303) can1 04EF001C#5E5CBCCA5DBCBF4E
(1708107708.428262) can1 18FFDC00#0112000000A4FFA3
(1708107708.428897) can1 0CF00300#CF004FFF00FFFFFF
(1708107708.429405) can1 0CF00400#FF7D7D000000FFFF
(1708107708.432091) can1 18FF1080#000000FFFFFFFD00
(1708107708.433067) can1 18FF1180#0300FCFDFFFF02FF
(1708107708.433667) can1 09F20000#000000FFFFFFFFFF
(1708107708.434256) can1 0CEF0100#B020000000625400
(1708107708.434847) can1 18FFDC00#02FFFF6E921B00FF
(1708107708.435495) can1 04EF001C#0D5FF551093FF155
(1708107708.445533) can1 04EF001C#83418F3F87418B5B
(1708107708.448274) can1 0CF00400#FF7D7D000000FFFF
(1708107708.453296) can1 0CEF0100#B020000000625400
(1708107708.455620) can1 04EF001C#0C442C4208E42886
(1708107708.458298) can1 18FEF200#0000FFFFFFFF37FF
(1708107708.462692) can1 18FF1CF3#0000000000000000
(1708107708.465742) can1 04EF001C#9846ACE09D26A9E4
(1708107708.468272) can1 0CF00400#FF7D7D000000FFFF
(1708107708.468871) can1 0CEF1100#C9DAEF28EAF686D7
(1708107708.473293) can1 18FFDC00#2014010000507B19
(1708107708.473917) can1 0CEF0100#B020000000625400
(1708107708.475874) can1 04EF001C#C4498A0FC1698F4B
(1708107708.478287) can1 18FFDC00#2113000000A4FFA3
(1708107708.478833) can1 0CF00300#CF004FFF00FFFFFF
(1708107708.482668) can1 0CEF0017#812B8813CD0AFFFF
(1708107708.483258) can1 18FFDC00#22FFFF6E921B00FF
(1708107708.485972) can1 04EF001C#184C78EA1D4C7D8E
(1708107708.488272) can1 0CF00400#FF7D7D000000FFFF
(1708107708.488884) can1 18E8FF00#02FFFFFFFF00EF00
(1708107708.493296) can1 0CEF0100#B020000000625400
(1708107708.496058) can1 04EF001C#D74EA190D26EA4D4
(1708107708.498268) can1 18FEF100#FF1F00F5FF11DFFF
(1708107708.506194) can1 04EF001C#995115FF9C1110DB
(1708107708.508271) can1 0CF00400#FF7D7D000000FFFF
(1708107708.513291) can1 0CEF0100#B020000000625400
(1708107708.516281) can1 04EF001C#5754F58A53F4F14E
(1708107708.518257) can1 0CEF1100#84D40E0326BC43F6
(1708107708.523280) can1 18FFDC00#4014010000507B19
(1708107708.526406) can1 04EF001C#1957A1F91D17A5DD
(1708107708.528255) can1 18FFDC00#4113000000A4FFA3
(1708107708.528916) can1 0CF00300#CF004FFF00FFFFFF
(1708107708.529402) can1 0CF00400#FF7D7D000000FFFF
(1708107708.533080) can1 18FF1080#000000FFFFFFFD00
(1708107708.533697) can1 09F20000#000000FFFFFFFFFF
(1708107708.534379) can1 0CEF0100#B020000000625400
(1708107708.534871) can1 18FF1180#0300FCFDFFFF02FF
(1708107708.535396) can1 18FFDC00#42FFFF6E921B00FF
(1708107708.536143) can1 18FF1380#000000003FC0C006
(1708107708.536728) can1 04EF001C#0C5ADC5C0FBADFD8
(1708107708.541912) can1 18FF1C17#0001100000000000
(1708107708.546646) can1 04EF001C#985C7CFA9B3C7FFE
(1708107708.548274) can1 0CF00400#FF7D7D000000FFFF
(1708107708.553290) can1 0CEF0100#B020000000625400
(1708107708.556737) can1 04EF001C#585FA2F95A9FA05D
(1708107708.558285) can1 18FEF200#0000FFFFFFFF37FF
(1708107708.562662) can1 0CEF0017#812B8813CD0AFFFF
(1708107708.566869) can1 04EF001C#184208F41A120AD0
(1708107708.568271) can1 0CF00400#FF7D7D000000FFFF
(1708107708.568913) can1 0CEF1100#41CCF96D6A5A40D7
(1708107708.569402) can1 18E8FF00#02FFFFFFFF00EF00
(1708107708.573276) can1 18FFDC00#6014010000507B19
(1708107708.573881) can1 0CEF0100#B020000000625400
(1708107708.576971) can1 04EF001C#D844FEF2DA34FCF6
(1708107708.578259) can1 18FFDC00#6114000000A4FFA3
(1708107708.578842) can1 0CF00300#CF004FFF00FFFFFF
(1708107708.582691) can1 18FF1CF3#0000000000000000
(1708107708.583306) can1 18FFDC00#62FFFF6E921B00FF
(1708107708.587102) can1 04EF001C#0248422E0038402A
(1708107708.588275) can1 0CF00400#FF7D7D000000FFFF
(1708107708.593288) can1 0CEF0100#B020000000625400
(1708107708.597199) can1 04EF001C#E64AB10CE7DAB0E8
(1708107708.598266) can1 18FEF100#FF2100F5FF11DFFF
(1708107708.607318) can1 04EF001C#874DEB0386FDEAC7
(1708107708.608274) can1 0CF00400#FF7D7D000000FFFF
(1708107708.613292) can1 0CEF0100#B020000000625400
(1708107708.617415) can1 04EF001C#4350C12E4290C08A
(1708107708.618260) can1 0CEF1100#30FAD6A9D7694173
(1708107708.623286) can1 18FFDC00#8014010000507B19
(1708107708.627554) can1 04EF001C#2853B1752953B011
(1708107708.628262) can1 18FFDC00#8115000000A4FFA3
(1708107708.628900) can1 0CF00300#CF004FFF00FFFFFF
(1708107708.629492) can1 0CF00400#FF7D7D000000FFFF
(1708107708.633084) can1 18FF1080#000000FFFFFFFD00
(1708107708.633674) can1 09F20000#000000FFFFFFFFFF
(1708107708.634270) can1 0CEF0100#B020000000625400
(1708107708.634846) can1 18FF1180#0300FCFDFFFF02FF
(1708107708.635406) can1 18FFDC00#82FFFF6E921B00FF
(1708107708.637651) can1 04EF001C#FC5553D3FD3552D7
(1708107708.642671) can1 0CEF0017#812B8813CD0AFFFF
(1708107708.647746) can1 04EF001C#1858D8FE18B8D87A
(1708107708.648352) can1 0CF00400#FF7D7D000000FFFF
(1708107708.648927) can1 18E8FF00#02FFFFFFFF00EF00
(1708107708.653280) can1 18FEEF00#FFFFFF00FFFFFFFF
(1708107708.653902) can1 0CEF0100#B020000000625400
(1708107708.657879) can1 04EF001C#D85A0EFC27DDF11F
(1708107708.658500) can1 18FEF200#0000FFFFFFFF37FF
(1708107708.662700) can1 18FF1CF3#0000000000000000
(1708107708.667966) can1 04EF001C#995D75F3669A8A50
(1708107708.668565) can1 0CEF1100#FAFD1A78158F85E5
(1708107708.669112) can1 0CF00400#FF7D7D000000FFFF
(1708107708.673278) can1 18FFDC00#A014010000507B19
(1708107708.673898) can1 0CEF0100#B020000000625400
(1708107708.678081) can1 04EF001C#5740559EA887AA3D
(1708107708.678682) can1 0CF00300#CF004FFF00FFFFFF
(1708107708.679236) can1 18FFDC00#A115000000A4FFA3
(1708107708.683276) can1 18FFDC00#A2FFFF6E921B00FF
(1708107708.683864) can1 0CEF1700#01AB8813CD0AFFFF
(1708107708.688203) can1 04EF001C#184300E5E744FF86
(1708107708.688764) can1 0CF00400#FF7D7D000000FFFF
(1708107708.693292) can1 0CEF0100#B020000000625400
(1708107708.693860) can1 18FEF600#FFFF3C2AFFFFFFFF
(1708107708.698278) can1 18FEF100#FF2300F5FF11DFFF
(1708107708.698811) can1 04EF001C#D745F99B28A20618
(1708107708.708273) can1 0CF00400#FF7D7D000000FFFF
(1708107708.708860) can1 04EF001C#9948DDE6668F2245
(1708107708.713289) can1 0CEF0100#B020000000625400
(1708107708.718255) can1 0CEF1100#AAEE54FCE3FFD652
(1708107708.718804) can1 04EF001C#584B02EDA7ECFD2E
(1708107708.722671) can1 0CEF0017#812B8813CD0AFFFF
(1708107708.723290) can1 18FFDC00#C014010000507B19
(1708107708.728273) can1 18FFDC00#C115000000A4FFA3
(1708107708.728925) can1 04EF001C#194E69E0E6C99603
(1708107708.729377) can1 0CF00300#CF004FFF00FFFFFF
(1708107708.729946) can1 0CF00400#FF7D7D000000FFFF
(1708107708.730519) can1 18E8FF00#02FFFFFFFF00EF00
(1708107708.733256) can1 18FFDC00#C2FFFF6E921B00FF
(1708107708.733881) can1 09F20000#000000FFFFFFFFFF
(1708107708.734441) can1 0CEF0100#B020000000625400
(1708107708.735033) can1 18FF1080#000000FFFFFFFD00
(1708107708.736069) can1 18FF1180#0300FCFDFFFF02FF
(1708107708.737100) can1 18FF1380#000000003FC0C006
(1708107708.738743) can1 04EF001C#D750518ED730518A
(1708107708.748288) can1 0CF00400#FF7D7D000000FFFF
(1708107708.748953) can1 04EF001C#985304F5987304B1
(1708107708.753291) can1 0CEF0100#B020000000625400
(1708107708.758297) can1 18FEF200#0000FFFFFFFF37FF
(1708107708.759001) can1 04EF001C#5756E58857B6E50C
(1708107708.768269) can1 0CF00400#FF7D7D000000FFFF
(1708107708.768868) can1 0CEF1100#63E200F73F062AF6
(1708107708.769417) can1 04EF001C#1859D0FF18D9D01B
(1708107708.771718) can1 18FF1C17#0001100000000000
(1708107708.772297) can1 09F8021C#20FCBAEF0400FFFF
(1708107708.773153) can1 09F8011C#8A6E2618D46B5BC1
(1708107708.773740) can1 0CEF0100#B020000000625400
(1708107708.774325) can1 18FFDC00#E014010000507B19
(1708107708.774843) can1 19FA031C#20D26700AD007000
(1708107708.776174) can1 0DF0101C#20F0A34D50AA8E2B
(1708107708.777185) can1 18FEE81C#D4AF00002164667E
(1708107708.778264) can1 18FFDC00#E116000000A4FFA3
(1708107708.778838) can1 0CF00300#CF004FFF00FFFFFF
(1708107708.780235) can1 04EF001C#C15C2732C01C2616
(1708107708.781308) can1 19FA041C#409320FF0C01C611
(1708107708.782343) can1 19FA041C#4158CACC10FFFFFF
(1708107708.783259) can1 18FFDC00#E2FFFF6E921B00FF
(1708107708.783863) can1 19FA041C#42FFFF050429D020
(1708107708.785365) can1 19FA041C#430410FFFFFFFFFF
(1708107708.786345) can1 19FA041C#440C6B030C7B6009
(1708107708.787371) can1 19FA041C#45FFFFFFFFFF0DD3
(1708107708.788277) can1 0CF00400#FF7D7D000000FFFF
(1708107708.788906) can1 19FA041C#4613D4496009FFFF
(1708107708.790351) can1 04EF001C#BF5F42C1BEBF4345
(1708107708.791402) can1 19FA041C#4613D4496009FFFF
(1708107708.792417) can1 19FA041C#47FFFFFF0F8F168A
(1708107708.793374) can1 0CEF0100#B020000000625400
(1708107708.793885) can1 19FA041C#4866F811FFFFFFFF
(1708107708.795468) can1 19FA041C#49FF100000F4E200
(1708107708.796473) can1 19FA041C#4A00FFFFFFFFFF12
(1708107708.797484) can1 19FA041C#4B581BE0C4F811FF
(1708107708.798279) can1 18FEF100#FF2400F5FF11DFFF
(1708107708.798862) can1 19FA041C#4CFFFFFFFF143115
(1708107708.799451) can1 04EF001C#BA42AFF4BBC2AE10
(1708107708.800517) can1 19FA041C#4D2E22E40CFFFFFF
(1708107708.801527) can1 19FA041C#4EFFFF19FD0C748B
(1708107708.802532) can1 19FA041C#4F480DFFFFFFFFFF
(1708107708.803117) can1 18FF1CF3#0000000000000000
(1708107708.803673) can1 19FA041C#501AFD0C72CE3C0F
(1708107708.804560) can1 19FA041C#51FFFFFFFFFF1D79
(1708107708.805560) can1 19FA041C#523B82C33C0FFFFF
(1708107708.806577) can1 19FA041C#53FFFFFF30A91A30
(1708107708.807604) can1 19FA041C#548EA00FFFFFFFFF
(1708107708.808276) can1 0CF00400#FF7D7D000000FFFF
(1708107708.808869) can1 19FA041C#55FFFFFFFFFFFFFF
(1708107708.809571) can1 04EF001C#37451E9B36C51F7F
(1708107708.813291) can1 0CEF0100#B020000000625400
(1708107708.818248) can1 0CEF1100#229C62A30C4BD333
(1708107708.819682) can1 04EF001C#6D4756496F67540D
(1708107708.822687) can1 0CEF0017#812B8813CD0AFFFF
(1708107708.823311) can1 18FFDC00#0014010000507B19
(1708107708.828275) can1 18FFDC00#0116000000A4FFA3
(1708107708.828872) can1 0CF00300#CF004FFF00FFFFFF
(1708107708.829429) can1 0CF00400#FF7D7D000000FFFF
(1708107708.830016) can1 04EF001C#2A4A7B7C284A7918
(1708107708.830531) can1 18E8FF00#02FFFFFFFF00EF00
(1708107708.833262) can1 18FFDC00#02FFFF6E921B00FF
(1708107708.833895) can1 09F20000#000000FFFFFFFFFF
(1708107708.834444) can1 0CEF0100#B020000000625400
(1708107708.835034) can1 18FF1080#000000FFFFFFFD00
(1708107708.836072) can1 18FF1180#0300FCFDFFFF02FF
(1708107708.839892) can1 04EF001C#E64C811AE48C83BE
(1708107708.842702) can1 0CEA1C00#00EE000000000000
(1708107708.843960) can1 18EEFF1C#0204450E00000042
(1708107708.848273) can1 0CF00400#FF7D7D000000FFFF
(1708107708.848916) can1 18FECA00#40FF00000000FFFF
(1708107708.849993) can1 04EF001C#754F0E91763F0D95
(1708107708.853291) can1 0CEF0100#B020000000625400
(1708107708.858295) can1 18FEF200#0000FFFFFFFF37FF
(1708107708.860087) can1 04EF001C#0C529C440F429F20
(1708107708.862697) can1 18FF1CF3#0000000000000000
(1708107708.868285) can1 0CF00400#FF7D7D000000FFFF
(1708107708.868865) can1 0CEF1100#6A915AE04D91533E
(1708107708.870214) can1 04EF001C#F554528AF684512E
(1708107708.873286) can1 18FFDC00#2014010000507B19
(1708107708.873904) can1 0CEF0100#B020000000625400
(1708107708.878274) can1 18FFDC00#2116000000A4FFA3
(1708107708.878879) can1 0CF00300#CF004FFF00FFFFFF
(1708107708.880317) can1 04EF001C#B5570889B1270C8D
(1708107708.882675) can1 0CEF0017#812B8813CD0AFFFF
(1708107708.883292) can1 18FFDC00#22FFFF6E921B00FF
(1708107708.884095) can1 15FD069B#579F73FFFFFFFFFF
(1708107708.888273) can1 0CF00400#FF7D7D000000FFFF
(1708107708.888869) can1 18E8FF00#02FFFFFFFF00EF00
(1708107708.890423) can1 04EF001C#AD5A7844A94A7C20
(1708107708.893290) can1 0CEF0100#B020000000625400
(1708107708.898277) can1 18FEF100#FF2600F5FF11DFFF
(1708107708.900529) can1 04EF001C#0C5DE44B088DE0EF
(1708107708.908282) can1 0CF00400#FF7D7D000000FFFF
(1708107708.910544) can1 18FF2117#06FFFFFF00FFFFFF
(1708107708.911119) can1 04EF001C#CC5F3249C88F36ED
(1708107708.913289) can1 0CEF0100#B020000000625400
(1708107708.918253) can1 0CEF1100#BA8230649AC12180
(1708107708.920746) can1 04EF001C#8F429B4C8BB29FC8
(1708107708.923269) can1 18FFDC00#4014010000507B19
(1708107708.928270) can1 18FFDC00#4117000000A4FFA3
(1708107708.928893) can1 0CF00300#CF004FFF00FFFFFF
(1708107708.929402) can1 0CF00400#FF7D7D000000FFFF
(1708107708.930878) can1 04EF001C#75455E9B71755ADF
(1708107708.933257) can1 18FFDC00#42FFFF6E921B00FF
(1708107708.933854) can1 09F20000#000000FFFFFFFFFF
(1708107708.934470) can1 0CEF0100#B020000000625400
(1708107708.935099) can1 18FF1080#000000FFFFFFFD00
(1708107708.936073) can1 18FF1180#0300FCFDFFFF02FF
(1708107708.937089) can1 18FF1380#000000003FC0C006
(1708107708.941021) can1 04EF001C#D947E7F9DD37E3FD
(1708107708.948284) can1 0CF00400#FF7D7D000000FFFF
(1708107708.951084) can1 04EF001C#9A4ACEEC999ACD48
(1708107708.953290) can1 0CEF0100#B020000000625400
(1708107708.958299) can1 18FEF200#0000FFFFFFFF37FF
(1708107708.961212) can1 04EF001C#574D3D83545D3EE7
(1708107708.962681) can1 0CEF0017#812B8813CD0AFFFF
(1708107708.968284) can1 0CF00400#FF7D7D000000FFFF
(1708107708.968919) can1 0CEF1100#CEBBA6CB057BA873
(1708107708.969411) can1 18E8FF00#02FFFFFFFF00EF00
(1708107708.971318) can1 04EF001C#8650021685200112
(1708107708.973277) can1 18FFDC00#6014010000507B19
(1708107708.973902) can1 0CEF0100#B020000000625400
(1708107708.978275) can1 18FFDC00#6118000000A4FFA3
(1708107708.978826) can1 0CF00300#CF004FFF00FFFFFF
(1708107708.981435) can1 04EF001C#D752419CD5A24318
(1708107708.982712) can1 18FF1CF3#0000000000000000
(1708107708.983283) can1 18FFDC00#62FFFF6E921B00FF
(1708107708.988289) can1 0CF00400#FF7D7D000000FFFF
(1708107708.991551) can1 04EF001C#0456B4000666B644
(1708107708.993289) can1 0CEF0100#B020000000625400
(1708107708.998278) can1 18FEF100#FF2700F5FF11DFFF
(1708107709.001679) can1 04EF001C#E7582016E5082232
(1708107709.008289) can1 0CF00400#FF7D7D000000FFFF
(1708107709.011771) can1 04EF001C#825B5E3D802B5C39
(1708107709.013306) can1 0CEF0100#B020000000625400
(1708107709.018245) can1 0CEF1100#02B00BA9E3121442
(1708107709.021888) can1 04EF001C#425EB038402EB23C
(1708107709.023277) can1 18FFDC00#8014010000507B19
(1708107709.028267) can1 18FFDC00#8118000000A4FFA3
(1708107709.028869) can1 0CF00300#CF004FFF00FFFFFF
(1708107709.029431) can1 0CF00400#FF7D7D000000FFFF
(1708107709.032009) can1 04EF001C#26412F0727F12EC3
(1708107709.033264) can1 18FFDC00#82FFFF6E921B00FF
(1708107709.033858) can1 09F20000#000000FFFFFFFFFF
(1708107709.034460) can1 0CEF0100#B020000000625400
(1708107709.035082) can1 18FF1080#000000FFFFFFFD00
(1708107709.036076) can1 18FF1180#0300FCFDFFFF02FF
(1708107709.042116) can1 04EF001C#C143DF3DC093DE99
(1708107709.042701) can1 0CEF0017#812B8813CD0AFFFF
(1708107709.048287) can1 0CF00400#FF7D7D000000FFFF
(1708107709.048873) can1 18E8FF00#02FFFFFFFF00EF00
(1708107709.052198) can1 04EF001C#184628F019962954
(1708107709.053297) can1 0CEF0100#B020000000625400
(1708107709.058300) can1 18FEF200#0000FFFFFFFF37FF
(1708107709.062317) can1 04EF001C#D7489186D6F89042
(1708107709.062894) can1 18FF1CF3#0000000000000000
(1708107709.068294) can1 0CF00400#FF7D7D000000FFFF
(1708107709.068920) can1 0CEF1100#5AB577680AEFAD0C
(1708107709.072423) can1 04EF001C#994BC5F598FBC431
(1708107709.073285) can1 18FFDC00#A014010000507B19
(1708107709.073917) can1 0CEF0100#B020000000625400
(1708107709.078272) can1 18FFDC00#A119000000A4FFA3
(1708107709.078823) can1 0CF00300#CF004FFF00FFFFFF
(1708107709.082548) can1 04EF001C#584E2AF859DE2B1C
(1708107709.083264) can1 18FFDC00#A2FFFF6E921B00FF
(1708107709.088284) can1 0CF00400#FF7D7D000000FFFF
(1708107709.092651) can1 04EF001C#195191EF18C1900B
(1708107709.093311) can1 0CEF0100#B020000000625400
(1708107709.098277) can1 18FEF100#FF2900F5FF11DFFF
(1708107709.102756) can1 04EF001C#D753499DD6C34879
(1708107709.108273) can1 0CF00400#FF7D7D000000FFFF
(1708107709.112908) can1 04EF001C#99562DE898E62C2C
(1708107709.113555) can1 0CEF0100#B020000000625400
(1708107709.118244) can1 0CEF1100#8CA0AC5DD1B33E53
(1708107709.122701) can1 0CEF0017#812B8813CD0AFFFF
(1708107709.123298) can1 04EF001C#585992EF5989934B
(1708107709.123796) can1 18FFDC00#C014010000507B19
(1708107709.128275) can1 18FFDC00#C119000000A4FFA3
(1708107709.128919) can1 0CF00300#CF004FFF00FFFFFF
(1708107709.129394) can1 0CF00400#FF7D7D000000FFFF
(1708107709.129974) can1 18E8FF00#02FFFFFFFF00EF00
(1708107709.133118) can1 04EF001C#185CF8EA198CF94E
(1708107709.133686) can1 09F20000#000000FFFFFFFFFF
(1708107709.134269) can1 0CEF0100#B020000000625400
(1708107709.134867) can1 18FFDC00#C2FFFF6E921B00FF
(1708107709.135451) can1 18FF1080#000000FFFFFFFD00
(1708107709.136098) can1 18FF1180#0300FCFDFFFF02FF
(1708107709.137069) can1 18FF1380#000000003FC0C006
(1708107709.138283) can1 09F20100#E016000200FFFFBF
(1708107709.141115) can1 18FF1C17#0001100000000000
(1708107709.143203) can1 04EF001C#D75E2190D64E20F4
(1708107709.143784) can1 09F20100#E172C90400006E92
(1708107709.148284) can1 0CF00400#FF7D7D000000FFFF
(1708107709.148946) can1 04EF001C#7E52EDD47FA2EC50
(1708107709.149405) can1 09F20100#E21B00FFFFFFFF00
(1708107709.149985) can1 18FEEE00#3CFFFFFFFFFF42FF
(1708107709.150579) can1 04EF001C#3E460FC03FB60E44
(1708107709.151321) can1 04EF001C#1D509DCE1CA09C4A
(1708107709.153277) can1 09F20100#E30100FFFFFFFFFF
(1708107709.153900) can1 0CEF0100#B020000000625400
(1708107709.154441) can1 18FEEF00#FFFFFF00FFFFFFFF
(1708107709.157383) can1 04EF001C#194951F718B95073
(1708107709.158287) can1 18FEF200#0000FFFFFFFF37FF
(1708107709.162734) can1 18FF1CF3#0000000000000000
(1708107709.163315) can1 18FEF700#FFFF1A01F500F600
(1708107709.167483) can1 04EF001C#D94B87F5D85B8691
(1708107709.168279) can1 0CF00400#FF7D7D000000FFFF
(1708107709.168906) can1 0CEF1100#CCA5D65C80793CDC
(1708107709.173282) can1 18FFDC00#E014010000507B19
(1708107709.173912) can1 0CEF0100#B020000000625400
(1708107709.177592) can1 04EF001C#984EECF8991EEDDC
(1708107709.178269) can1 18FFDC00#E11A000000A4FFA3
(1708107709.178843) can1 0CF00300#CF004FFF00FFFFFF
(1708107709.183266) can1 18FFDC00#E2FFFF6E921B00FF
(1708107709.183827) can1 0CEF1700#01AB8813CD0AFFFF
(1708107709.187721) can1 04EF001C#E6516917E7216813
(1708107709.188348) can1 0CF00400#FF7D7D000000FFFF
(1708107709.188938) can1 18FEFC00#FFA3FFFFFFFFFFFF
(1708107709.193289) can1 0CEF0100#B020000000625400
(1708107709.193931) can1 18FEF600#FFFF3C2AFFFFFFFF
(1708107709.197824) can1 04EF001C#8254263283042716
(1708107709.198365) can1 18FEF100#FF2A00F5FF11DFFF
(1708107709.202707) can1 0CEF0017#812B8813CD0AFFFF
(1708107709.207938) can1 04EF001C#6657DD116767DC55
(1708107709.208542) can1 0CF00400#FF7D7D000000FFFF
(1708107709.209076) can1 18E8FF00#02FFFFFFFF00EF00
(1708107709.213289) can1 0CEF0100#B020000000625400
(1708107709.218039) can1 04EF001C#275AF61426AAF790
(1708107709.218595) can1 0CEF1100#F3D4107BF194188F
(1708107709.223289) can1 18FFDC00#0014010000507B19
(1708107709.228142) can1 04EF001C#C25C243AC38C259E
(1708107709.228728) can1 0CF00300#CF004FFF00FFFFFF
(1708107709.229366) can1 0CF00400#FF7D7D000000FFFF
(1708107709.229867) can1 18FFDC00#011A000000A4FFA3
(1708107709.233262) can1 18FFDC00#02FFFF6E921B00FF
(1708107709.233873) can1 09F20000#000000FFFFFFFFFF
(1708107709.234538) can1 0CEF0100#B020000000625400
(1708107709.236082) can1 18FF1080#000000FFFFFFFD00
(1708107709.237090) can1 18FF1180#0300FCFDFFFF02FF
(1708107709.238276) can1 04EF001C#A65F5B19A7CF5AFD
(1708107709.248289) can1 0CF00400#FF7D7D000000FFFF
(1708107709.248944) can1 04EF001C#D841D6F7DA31D4F3
(1708107709.253290) can1 0CEF0100#B020000000625400
(1708107709.258294) can1 18FEF200#0000FFFFFFFF37FF
(1708107709.258834) can1 04EF001C#9944BDFA9B74BFBE
(1708107709.262740) can1 18FF1CF3#0000000000000000
(1708107709.268284) can1 0CF00400#FF7D7D000000FFFF
(1708107709.268865) can1 04EF001C#57476D8955776FCD
(1708107709.269408) can1 0CEF1100#ACC8E544A7FB75FB
(1708107709.273284) can1 18FFDC00#2014010000507B19
(1708107709.273886) can1 0CEF0100#B020000000625400
(1708107709.278276) can1 18FFDC00#211A000000A4FFA3
(1708107709.278818) can1 04EF001C#184A48FC1A7A4AB8
(1708107709.279392) can1 0CF00300#CF004FFF00FFFFFF
(1708107709.279994) can1 09F8021C#21FCBAEF0100FFFF
(1708107709.280827) can1 09F8011C#846E2618C86B5BC1
(1708107709.281755) can1 19FA031C#21D26700AD007000
(1708107709.282697) can1 0CEF0017#812B8813CD0AFFFF
(1708107709.283273) can1 0DF0101C#21F0A34D60D18E2B
(1708107709.283832) can1 0DF50B9B#AAFFFFFFFF0000FF
(1708107709.284427) can1 18FFDC00#22FFFF6E921B00FF
(1708107709.284943) can1 18FEE81C#D4AF00002164677E
(1708107709.285880) can1 19FA041C#609321FF0C01C611
(1708107709.286858) can1 19FA041C#6158CA3011FFFFFF
(1708107709.287877) can1 19FA041C#62FFFF050429D020
(1708107709.288449) can1 0CF00400#FF7D7D000000FFFF
(1708107709.288994) can1 04EF001C#8D4DE1538F1DE377
(1708107709.289563) can1 18E8FF00#02FFFFFFFF00EF00
(1708107709.290143) can1 19FA041C#63CC10FFFFFFFFFF
(1708107709.290940) can1 19FA041C#640C6B030C7B6009
(1708107709.291916) can1 19FA041C#65FFFFFFFFFF0DD3
(1708107709.292927) can1 19FA041C#6613D4490000FFFF
(1708107709.293505) can1 0CEF0100#B020000000625400
(1708107709.294071) can1 19FA041C#67FFFFFF0F8F168A
(1708107709.294970) can1 19FA041C#6866F811FFFFFFFF
(1708107709.295965) can1 19FA041C#69FF100000F4E200
(1708107709.296992) can1 19FA041C#6A00FFFFFFFFFF12
(1708107709.297982) can1 19FA041C#6B581BE0C4F811FF
(1708107709.298552) can1 18FEF100#FF2C00F5FF11DFFF
(1708107709.299097) can1 04EF001C#5150D3AE5340D1CA
(1708107709.300028) can1 19FA041C#6CFFFFFFFF143115
(1708107709.301026) can1 19FA041C#6D2E221C0CFFFFFF
(1708107709.302017) can1 19FA041C#6EFFFF19FD0C748B
(1708107709.303052) can1 19FA041C#6FAC0DFFFFFFFFFF
(1708107709.304038) can1 19FA041C#701AFD0C72CE3C0F
(1708107709.305076) can1 19FA041C#71FFFFFFFFFF1D79
(1708107709.306069) can1 19FA041C#723B82C33C0FFFFF
(1708107709.307075) can1 19FA041C#73FFFFFF30A91A30
(1708107709.308094) can1 19FA041C#748E6810FFFFFFFF
(1708107709.308695) can1 0CF00400#FF7D7D000000FFFF
(1708107709.309221) can1 04EF001C#02539A3500639871
(1708107709.310132) can1 19FA041C#75FFFFFFFFFFFFFF
(1708107709.313292) can1 0CEF0100#B020000000625400
(1708107709.318244) can1 0CEF1100#5BFACF31B3643093
(1708107709.319176) can1 04EF001C#1955B1EB1B45B38F
(1708107709.323285) can1 18FFDC00#4014010000507B19
(1708107709.328270) can1 18FFDC00#411B000000A4FFA3
(1708107709.328867) can1 0CF00300#CF004FFF00FFFFFF
(1708107709.329471) can1 04EF001C#D95767E9DB87654D
(1708107709.329961) can1 0CF00400#FF7D7D000000FFFF
(1708107709.333256) can1 18FFDC00#42FFFF6E921B00FF
(1708107709.333892) can1 09F20000#000000FFFFFFFFFF
(1708107709.334544) can1 0CEF0100#B020000000625400
(1708107709.336090) can1 18FF1080#000000FFFFFFFD00
(1708107709.337085) can1 18FF1180#0300FCFDFFFF02FF
(1708107709.338081) can1 18FF1380#000000003FC0C006
(1708107709.339373) can1 04EF001C#985A4CEC9AAA4E68
(1708107709.348286) can1 0CF00400#FF7D7D000000FFFF
(1708107709.349509) can1 04EF001C#C15D2F23C3AD2DA7
(1708107709.353290) can1 0CEF0100#B020000000625400
(1708107709.358299) can1 18FEF200#0000FFFFFFFF37FF
(1708107709.359623) can1 04EF001C#3E403FC63C503DA2
(1708107709.361695) can1 18FF1C17#0001100000000000
(1708107709.362706) can1 0CEF0017#812B8813CD0AFFFF
(1708107709.368285) can1 0CF00400#FF7D7D000000FFFF
(1708107709.368873) can1 0CEF1100#2DF3D903CA4D26D8
(1708107709.369425) can1 18E8FF00#02FFFFFFFF00EF00
(1708107709.369969) can1 04EF001C#FC42EBD4FEB2E950
(1708107709.373279) can1 18FFDC00#6014010000507B19
(1708107709.373899) can1 0CEF0100#B020000000625400
(1708107709.378269) can1 18FFDC00#611B000000A4FFA3
(1708107709.378873) can1 0CF00300#CF004FFF00FFFFFF
(1708107709.379856) can1 04EF001C#BD4590DBBFB5925F
(1708107709.382078) can1 15FD069B#589F73FFFFFFFFFF
(1708107709.382817) can1 18FF1CF3#0000000000000000
(1708107709.383422) can1 18FFDC00#62FFFF6E921B00FF
(1708107709.388290) can1 0CF00400#FF7D7D000000FFFF
(1708107709.389933) can1 04EF001C#46490C0F44B90E8B
(1708107709.393290) can1 0CEF0100#B020000000625400
(1708107709.398272) can1 18FEF100#FF2D00F5FF11DFFF
(1708107709.400057) can1 04EF001C#BA4BE7EDB89BE549
(1708107709.408277) can1 0CF00400#FF7D7D000000FFFF
(1708107709.410196) can1 04EF001C#9D4EE9D09FBEEB54
(1708107709.413291) can1 0CEF0100#B020000000625400
(1708107709.418252) can1 0CEF1100#F3E8F0758C80BB68
(1708107709.420272) can1 04EF001C#5E51D4275C11D6E3
(1708107709.423278) can1 18FFDC00#8014010000507B19
(1708107709.428265) can1 18FFDC00#811B000000A4FFA3
(1708107709.428902) can1 0CF00300#CF004FFF00FFFFFF
(1708107709.429394) can1 0CF00400#FF7D7D000000FFFF
(1708107709.430458) can1 04EF001C#225483C220748166
(1708107709.433263) can1 18FFDC00#82FFFF6E921B00FF
(1708107709.433876) can1 09F20000#000000FFFFFFFFFF
(1708107709.434457) can1 0CEF0100#B020000000625400
(1708107709.437092) can1 18FF1080#000000FFFFFFFD00
(1708107709.438072) can1 18FF1180#0300FCFDFFFF02FF
(1708107709.440507) can1 04EF001C#835637C88176356C
(1708107709.442713) can1 0CEF0017#812B8813CD0AFFFF
(1708107709.448284) can1 0CF00400#FF7D7D000000FFFF
(1708107709.450601) can1 04EF001C#0C59C4BF0EB9C6DB
(1708107709.453290) can1 0CEF0100#B020000000625400
(1708107709.453882) can1 18E8FF00#02FFFFFFFF00EF00
(1708107709.458303) can1 18FEF200#0000FFFFFFFF37FF
(1708107709.460736) can1 04EF001C#CD5B13B5CFFB1191
(1708107709.468295) can1 0CF00400#FF7D7D000000FFFF
(1708107709.468910) can1 0CEF1100#B4ECC38C5EC5843B
(1708107709.470820) can1 04EF001C#C55E33F0C43E3214
(1708107709.473276) can1 18FFDC00#A014010000507B19
(1708107709.473901) can1 0CEF0100#B020000000625400
(1708107709.478275) can1 18FFDC00#A11C000000A4FFA3
(1708107709.478881) can1 0CF00300#CF004FFF00FFFFFF
(1708107709.480939) can1 04EF001C#4C4146A74D614703
(1708107709.483260) can1 18FFDC00#A2FFFF6E921B00FF
(1708107709.488282) can1 0CF00400#FF7D7D000000FFFF
(1708107709.491037) can1 04EF001C#D843C605D963C7A1
(1708107709.493290) can1 0CEF0100#B020000000625400
(1708107709.498279) can1 18FEF100#FF2E00F5FF11DFFF
(1708107709.501157) can1 04EF001C#9846AC009966ADA4
(1708107709.502746) can1 18FF1CF3#0000000000000000
(1708107709.508283) can1 0CF00400#FF7D7D000000FFFF
(1708107709.511264) can1 04EF001C#5949130758A91263
(1708107709.513292) can1 0CEF0100#B020000000625400
(1708107709.518251) can1 0CEF1100#0B9EF9ABC8C84757
(1708107709.521399) can1 04EF001C#194C790218EC7826
(1708107709.522719) can1 0CEF0017#812B8813CD0AFFFF
(1708107709.523293) can1 18FFDC00#C014010000507B19
(1708107709.528275) can1 18FFDC00#C11D000000A4FFA3
(1708107709.528876) can1 0CF00300#CF004FFF00FFFFFF
(1708107709.529402) can1 0CF00400#FF7D7D000000FFFF
(1708107709.530028) can1 18E8FF00#02FFFFFFFF00EF00
(1708107709.531517) can1 04EF001C#344F4D69340F4DAD
(1708107709.533256) can1 18FFDC00#C2FFFF6E921B00FF
(1708107709.533860) can1 09F20000#000000FFFFFFFFFF
(1708107709.534443) can1 0CEF0100#B020000000625400
(1708107709.537097) can1 18FF1080#000000FFFFFFFD00
(1708107709.538087) can1 18FF1180#0300FCFDFFFF02FF
(1708107709.539079) can1 18FF1380#000000003FC0C006
(1708107709.541610) can1 04EF001C#985114E798811443
(1708107709.548281) can1 0CF00400#FF7D7D000000FFFF
(1708107709.551717) can1 04EF001C#5854FAE258A4FA66
(1708107709.553290) can1 0CEF0100#B020000000625400
(1708107709.558295) can1 18FEF200#0000FFFFFFFF37FF
(1708107709.561839) can1 04EF001C#1857A0E118A7A065
(1708107709.562743) can1 18FF1CF3#0000000000000000
(1708107709.568290) can1 0CF00400#FF7D7D000000FFFF
(1708107709.568868) can1 0CEF1100#40928930BF8E662E
(1708107709.571931) can1 04EF001C#D85916EFD849168B
(1708107709.573291) can1 18FFDC00#E014010000507B19
(1708107709.573864) can1 0CEF0100#B020000000625400
(1708107709.578267) can1 18FFDC00#E11D000000A4FFA3
(1708107709.578823) can1 0CF00300#CF004FFF00FFFFFF
(1708107709.582065) can1 04EF001C#9A5C7EFA9A0C7EDE
(1708107709.583257) can1 18FFDC00#E2FFFF6E921B00FF
(1708107709.588283) can1 0CF00400#FF7D7D000000FFFF
(1708107709.591629) can1 18FF1C17#0001100000000000
(1708107709.592208) can1 04EF001C#E55F1A01E52F1A05
(1708107709.593294) can1 0CEF0100#B020000000625400
(1708107709.598277) can1 18FEF100#FF3000F5FF11DFFF
(1708107709.602298) can1 04EF001C#A642B30459F54CC7
(1708107709.602839) can1 0CEF0017#812B8813CD0AFFFF
(1708107709.608282) can1 0CF00400#FF7D7D000000FFFF
(1708107709.612384) can1 04EF001C#41456B3BBED294D8
(1708107709.613294) can1 0CEF0100#B020000000625400
(1708107709.613877) can1 18E8FF00#02FFFFFFFF00EF00
(1708107709.618242) can1 0CEF1100#8E81E4C4EF65CF2D
(1708107709.622510) can1 04EF001C#27486606D89F99A5
(1708107709.623330) can1 18FFDC00#0014010000507B19
(1708107709.628281) can1 18FFDC00#011D000000A4FFA3
(1708107709.628970) can1 0CF00300#CF004FFF00FFFFFF
(1708107709.629459) can1 0CF00400#FF7D7D000000FFFF
(1708107709.632620) can1 04EF001C#E54AB2141A9D4DB7
(1708107709.633311) can1 18FFDC00#02FFFF6E921B00FF
(1708107709.633860) can1 09F20000#000000FFFFFFFFFF
(1708107709.634465) can1 0CEF0100#B020000000625400
(1708107709.638109) can1 18FF1080#000000FFFFFFFD00
(1708107709.639083) can1 18FF1180#0300FCFDFFFF02FF
(1708107709.642735) can1 04EF001C#824DEE2B7D9A1188
(1708107709.648281) can1 0CF00400#FF7D7D000000FFFF
(1708107709.652913) can1 04EF001C#D74FA98128B85602
(1708107709.653461) can1 0CEF0100#B020000000625400
(1708107709.653994) can1 18FEEF00#FFFFFF00FFFFFFFF
(1708107709.658296) can1 18FEF200#0000FFFFFFFF37FF
(1708107709.662769) can1 18FF1CF3#0000000000000000
(1708107709.663354) can1 04EF001C#98520CE46785F347
(1708107709.668287) can1 0CF00400#FF7D7D000000FFFF
(1708107709.668869) can1 0CEF1100#C18D957F93317F0C
(1708107709.673054) can1 04EF001C#5755FD9BA8E20258
(1708107709.673633) can1 0CEF0100#B020000000625400
(1708107709.674215) can1 18FFDC00#2014010000507B19
(1708107709.678274) can1 18FFDC00#211D000000A4FFA3
(1708107709.678874) can1 0CF00300#CF004FFF00FFFFFF
(1708107709.683169) can1 04EF001C#1958D9E61928D9E2
(1708107709.683713) can1 0CEF1700#01AB8813CD0AFFFF
(1708107709.684284) can1 18FFDC00#22FFFF6E921B00FF
(1708107709.688277) can1 0CF00400#FF7D7D000000FFFF
(1708107709.693288) can1 0CEF0100#B020000000625400
(1708107709.693845) can1 04EF001C#D95A0FE4D96A0FA0
(1708107709.694441) can1 18FEF600#FFFF3C2AFFFFFFFF
(1708107709.698277) can1 18FEF100#FF3100F5FF11DFFF
(1708107709.703393) can1 04EF001C#9B5D77F39BAD7777
(1708107709.708284) can1 0CF00400#FF7D7D000000FFFF
(1708107709.713289) can1 0CEF0100#B020000000625400
(1708107709.713832) can1 04EF001C#58405AF658F05A32
(1708107709.718254) can1 0CEF1100#35BC67D281A8CA94
(1708107709.722751) can1 0CEF0017#812B8813CD0AFFFF
(1708107709.723306) can1 18FFDC00#4014010000507B19
(1708107709.723878) can1 04EF001C#194301FD19D30119
(1708107709.728268) can1 18FFDC00#411E000000A4FFA3
(1708107709.728869) can1 0CF00300#CF004FFF00FFFFFF
(1708107709.729430) can1 0CF00400#FF7D7D000000FFFF
(1708107709.733254) can1 18FFDC00#42FFFF6E921B00FF
(1708107709.733802) can1 04EF001C#D745F98BD615F8AF
(1708107709.734471) can1 09F20000#000000FFFFFFFFFF
(1708107709.735038) can1 0CEF0100#B020000000625400
(1708107709.735593) can1 18E8FF00#02FFFFFFFF00EF00
(1708107709.738102) can1 18FF1080#000000FFFFFFFD00
(1708107709.739084) can1 18FF1180#0300FCFDFFFF02FF
(1708107709.740088) can1 18FF1380#000000003FC0C006
(1708107709.743849) can1 04EF001C#9948DDF69818DCD2
(1708107709.748278) can1 0CF00400#FF7D7D000000FFFF
(1708107709.753288) can1 0CEF0100#B020000000625400
(1708107709.753978) can1 04EF001C#574B0D85565B0CE1
(1708107709.758298) can1 18FEF200#0000FFFFFFFF37FF
(1708107709.762744) can1 0CEF0017#812B8813CD0AFFFF
(1708107709.764060) can1 04EF001C#184E68F8195E699C
(1708107709.768271) can1 0CF00400#FF7D7D000000FFFF
(1708107709.768875) can1 0CEF1100#75B3CDD146E05CAD
(1708107709.773277) can1 18FFDC00#6014010000507B19
(1708107709.773901) can1 0CEF0100#B020000000625400
(1708107709.774438) can1 04EF001C#D8505EE6D9405F82
(1708107709.775005) can1 18E8FF00#02FFFFFFFF00EF00
(1708107709.778268) can1 18FFDC00#611E000000A4FFA3
(1708107709.778862) can1 0CF00300#CF004FFF00FFFFFF
(1708107709.782768) can1 18FF1CF3#0000000000000000
(1708107709.783348) can1 09F8021C#22FCBAEF0000FFFF
(1708107709.783941) can1 18FFDC00#62FFFF6E921B00FF
(1708107709.784450) can1 04EF001C#0954A96A08A4A8EE
(1708107709.785337) can1 09F8011C#7C6E2618C06B5BC1
(1708107709.786339) can1 19FA031C#22D26700AD007000
(1708107709.787332) can1 0DF0101C#22F0A34D60D18E2B
(1708107709.788279) can1 0CF00400#FF7D7D000000FFFF
(1708107709.788893) can1 18FEE81C#D4AF00002064687E
(1708107709.793288) can1 0CEF0100#B020000000625400
(1708107709.794453) can1 04EF001C#CB567D78CAA67CFC
(1708107709.798272) can1 18FEF100#FF3100F5FF11DFFF
(1708107709.804543) can1 04EF001C#8C59404F8DA941CB
(1708107709.808273) can1 0CF00400#FF7D7D000000FFFF
(1708107709.813296) can1 0CEF0100#B020000000625400
(1708107709.814644) can1 04EF001C#965C729A97AC731E
(1708107709.818250) can1 0CEF1100#A1A236751439E33F
(1708107709.820758) can1 19FA041C#809322FF0C01C611
(1708107709.821777) can1 19FA041C#8158CA6810FFFFFF
(1708107709.822792) can1 19FA041C#82FFFF050429D020
(1708107709.823366) can1 18FFDC00#8014010000507B19
(1708107709.823949) can1 19FA041C#836810FFFFFFFFFF
(1708107709.824800) can1 04EF001C#F85F07E9F9AF066D
(1708107709.825842) can1 19FA041C#840C6B030C7B6009
(1708107709.826841) can1 19FA041C#85FFFFFFFFFF0DD3
(1708107709.827832) can1 19FA041C#8613D449C409FFFF
(1708107709.828427) can1 0CF00300#CF004FFF00FFFFFF
(1708107709.828969) can1 0CF00400#FF7D7D000000FFFF
(1708107709.829561) can1 18FFDC00#811E000000A4FFA3
(1708107709.830163) can1 19FA041C#87FFFFFF0F3E178A
(1708107709.830920) can1 19FA041C#88669411FFFFFFFF
(1708107709.831910) can1 19FA041C#89FF100000F4E200
(1708107709.832902) can1 19FA041C#8A00FFFFFFFFFF12
(1708107709.833501) can1 09F20000#000000FFFFFFFFFF
(1708107709.834078) can1 0CEF0100#B020000000625400
(1708107709.834652) can1 18FFDC00#82FFFF6E921B00FF
(1708107709.835888) can1 04EF001C#A242B724A352B640
(1708107709.836968) can1 19FA041C#8B581BE0C4CC10FF
(1708107709.837961) can1 19FA041C#8CFFFFFFFF143115
(1708107709.838959) can1 19FA041C#8D2E22280AFFFFFF
(1708107709.839543) can1 18FF1080#000000FFFFFFFD00
(1708107709.840106) can1 19FA041C#8EFFFF19FD0C748B
(1708107709.841010) can1 19FA041C#8F740EFFFFFFFFFF
(1708107709.841575) can1 18FF1180#0300FCFDFFFF02FF
(1708107709.842143) can1 19FA041C#901AFD0C72CE3C0F
(1708107709.842742) can1 0CEF0017#812B8813CD0AFFFF
(1708107709.843311) can1 19FA041C#91FFFFFFFFFF1D79
(1708107709.844039) can1 19FA041C#923B82C33C0FFFFF
(1708107709.844980) can1 04EF001C#5E4574C35F757587
(1708107709.846044) can1 19FA041C#93FFFFFF30A91A30
(1708107709.847047) can1 19FA041C#948E3C0FFFFFFFFF
(1708107709.848087) can1 19FA041C#95FFFFFFFFFFFFFF
(1708107709.848618) can1 0CF00400#FF7D7D000000FFFF
(1708107709.849200) can1 18FECA00#40FF00000000FFFF
(1708107709.853302) can1 0CEF0100#B020000000625400
(1708107709.853927) can1 18E8FF00#02FFFFFFFF00EF00
(1708107709.855088) can1 04EF001C#34470D9135170CB5
(1708107709.858293) can1 18FEF200#0000FFFFFFFF37FF
(1708107709.862772) can1 0CEA1C00#00EE000000000000
(1708107709.864211) can1 18EEFF1C#0204450E00000042
(1708107709.865192) can1 04EF001C#1F4A4FC41E7A4E80
(1708107709.868270) can1 0CF00400#FF7D7D000000FFFF
(1708107709.868874) can1 0CEF1100#E1A1FC757C68B87D
(1708107709.873285) can1 18FFDC00#A014010000507B19
(1708107709.873885) can1 0CEF0100#B020000000625400
(1708107709.875295) can1 04EF001C#B44CD19AB57CD0DE
(1708107709.878280) can1 18FFDC00#A11F000000A4FFA3
(1708107709.878851) can1 0CF00300#CF004FFF00FFFFFF
(1708107709.880161) can1 15FD069B#599F73FFFFFFFFFF
(1708107709.882763) can1 18FF1CF3#0000000000000000
(1708107709.883353) can1 18FFDC00#A2FFFF6E921B00FF
(1708107709.885404) can1 04EF001C#4C4F36594D7F371D
(1708107709.888276) can1 0CF00400#FF7D7D000000FFFF
(1708107709.893294) can1 0CEF0100#B020000000625400
(1708107709.895516) can1 04EF001C#0C529C440D429D20
(1708107709.898275) can1 18FEF100#FF3200F5FF11DFFF
(1708107709.905620) can1 04EF001C#98543CE299643DA6
(1708107709.908271) can1 0CF00400#FF7D7D000000FFFF
(1708107709.912003) can1 18FF1C17#0001100000000000
(1708107709.913302) can1 0CEF0100#B020000000625400
(1708107709.915719) can1 04EF001C#8D5731498C27304D
(1708107709.918275) can1 0CEF1100#2DD0010AF09F7706
(1708107709.923285) can1 18FFDC00#C014010000507B19
(1708107709.925839) can1 04EF001C#4E5A9C5C4F2A9D58
(1708107709.928264) can1 18FFDC00#C11F000000A4FFA3
(1708107709.928880) can1 0CF00300#CF004FFF00FFFFFF
(1708107709.929399) can1 0CF00400#FF7D7D000000FFFF
(1708107709.933266) can1 18FFDC00#C2FFFF6E921B00FF
(1708107709.933870) can1 09F20000#000000FFFFFFFFFF
(1708107709.934439) can1 0CEF0100#B020000000625400
(1708107709.935987) can1 04EF001C#FC5C1BCAFD2C1ACE
(1708107709.939111) can1 18FF1080#000000FFFFFFFD00
(1708107709.940073) can1 18FF1180#0300FCFDFFFF02FF
(1708107709.941091) can1 18FF1380#000000003FC0C006
(1708107709.946074) can1 04EF001C#985F64E998CF640D
(1708107709.948271) can1 0CF00400#FF7D7D000000FFFF
(1708107709.953305) can1 0CEF0100#B020000000625400
(1708107709.956175) can1 04EF001C#58424AF458D24A10
(1708107709.958283) can1 18FEF200#0000FFFFFFFF37FF
(1708107709.962760) can1 0CEF0017#812B8813CD0AFFFF
(1708107709.966301) can1 04EF001C#184530F318F53037
(1708107709.968272) can1 0CF00400#FF7D7D000000FFFF
(1708107709.968883) can1 0CEF1100#EDD7CF0BBAF4DD54
(1708107709.973289) can1 18FFDC00#E014010000507B19
(1708107709.973908) can1 0CEF0100#B020000000625400
(1708107709.974446) can1 18E8FF00#02FFFFFFFF00EF00
(1708107709.976399) can1 04EF001C#45480716459807B2
(1708107709.978267) can1 18FFDC00#E11F000000A4FFA3
(1708107709.978880) can1 0CF00300#CF004FFF00FFFFFF
(1708107709.982783) can1 18FF1CF3#0000000000000000
(1708107709.983390) can1 18FFDC00#E2FFFF6E921B00FF
(1708107709.986530) can1 04EF001C#024B5A2D029B5A89
(1708107709.988274) can1 0CF00400#FF7D7D000000FFFF
(1708107709.993292) can1 0CEF0100#B020000000625400
(1708107709.996633) can1 04EF001C#E64D890BE69D89AF
(1708107709.998270) can1 18FEF100#FF3200F5FF11DFFF
(1708107710.002763) can1 0CEF0017#812B8813CD0AFFFF
(1708107710.006756) can1 04EF001C#9C5018C69C801862
(1708107710.008303) can1 0CF00400#FF7D7D000000FFFF
(1708107710.013298) can1 0CEF0100#B020000000625400
(1708107710.013859) can1 18E8FF00#02FFFFFFFF00EF00
(1708107710.016879) can1 04EF001C#4153DB2D4183DB89
(1708107710.018246) can1 0CEF1100#B2C5CA37CD19212F
(1708107710.023287) can1 18FFDC00#0014010000507B19
(1708107710.026986) can1 04EF001C#2756961827E696DC
(1708107710.028270) can1 18FFDC00#011F000000A4FFA3
(1708107710.028905) can1 0CF00300#CF004FFF00FFFFFF
(1708107710.029461) can1 0CF00400#FF7D7D000000FFFF
(1708107710.033276) can1 18FFDC00#02FFFF6E921B00FF
(1708107710.033868) can1 09F20000#000000FFFFFFFFFF
(1708107710.034444) can1 0CEF0100#B020000000625400
(1708107710.037099) can1 04EF001C#DA581CFEDAE81C3A
(1708107710.040096) can1 18FF1080#000000FFFFFFFD00
(1708107710.041084) can1 18FF1180#0300FCFDFFFF02FF
(1708107710.047196) can1 04EF001C#185BC0ED18CBC009
(1708107710.048272) can1 0CF00400#FF7D7D000000FFFF
(1708107710.053300) can1 0CEF0100#B020000000625400
(1708107710.057299) can1 04EF001C#D95D37E3D9CD3707
(1708107710.058291) can1 18FEF200#0000FFFFFFFF37FF
(1708107710.062788) can1 18FF1CF3#0000000000000000
(1708107710.067424) can1 04EF001C#99409DFE98309CFA
(1708107710.068276) can1 0CF00400#FF7D7D000000FFFF
(1708107710.068878) can1 0CEF1100#71C5FCEF36747E34
(1708107710.073292) can1 18FFDC00#2014010000507B19
(1708107710.073866) can1 0CEF0100#B020000000625400
(1708107710.077522) can1 04EF001C#584342E5590343C1
(1708107710.078279) can1 18FFDC00#211F000000A4FFA3
(1708107710.078849) can1 0CF00300#CF004FFF00FFFFFF
(1708107710.082768) can1 0CEF0017#812B8813CD0AFFFF
(1708107710.083347) can1 18FFDC00#22FFFF6E921B00FF
(1708107710.087647) can1 04EF001C#184628E0190629C4
(1708107710.088279) can1 0CF00400#FF7D7D000000FFFF
(1708107710.093295) can1 0CEF0100#B020000000625400
(1708107710.093857) can1 18E8FF00#02FFFFFFFF00EF00
(1708107710.097742) can1 04EF001C#D8489EEED9289FEA
(1708107710.098290) can1 18FEF100#FF3300F5FF11DFFF
(1708107710.107855) can1 04EF001C#984BC4ED98CBC409
(1708107710.108461) can1 0CF00400#FF7D7D000000FFFF
(1708107710.113300) can1 0CEF0100#B020000000625400
(1708107710.117969) can1 04EF001C#594E2BE059CE2B04
(1708107710.118510) can1 0CEF1100#1BEA5D3539F18CC3
(1708107710.123298) can1 18FFDC00#4014010000507B19
(1708107710.128090) can1 04EF001C#185190F7193191F3
