(1708107535.406793) can1 18FF1080#000000FFFFFFFD00
(1708107535.407833) can1 18FF1180#0300FBFDFFFF02FF
(1708107535.504783) can1 18FF1080#000000FFFFFFFD00
(1708107535.505777) can1 18FF1180#0300FBFDFFFF02FF
(1708107535.506782) can1 18FF1380#040000003FC04000
(1708107535.605793) can1 18FF1080#000000FFFFFFFD00
(1708107535.606781) can1 18FF1180#0300FBFDFFFF02FF
(1708107535.705812) can1 18FF1080#000000FFFFFFFD00
(1708107535.706792) can1 18FF1180#0300FBFDFFFF02FF
(1708107535.707774) can1 18FF1380#040000003FC04000
(1708107535.805793) can1 18FF1080#000000FFFFFFFD00
(1708107535.806786) can1 18FF1180#0300FBFDFFFF02FF
(1708107535.843383) can1 18EEFF00#C82C420E00000051
(1708107535.848200) can1 18EAFF00#00EE00
(1708107535.848957) can1 18EEFF1C#0204450E00000042
(1708107535.849964) can1 05F8021C#FFFC00000000FFFF
(1708107535.853384) can1 18EEFF00#C82C4A0E00000051
(1708107535.860080) can1 05F8021C#FFFC00000000FFFF
(1708107535.865793) can1 18E80080#01FFFFFFFF00EE00
(1708107535.870199) can1 05F8021C#FFFC00000000FFFF
(1708107535.880298) can1 05F8021C#FFFC00000000FFFF
(1708107535.890416) can1 05F8021C#FFFC00000000FFFF
(1708107535.900521) can1 05F8021C#FFFC00000000FFFF
(1708107535.906799) can1 18FF1080#000000FFFFFFFD00
(1708107535.907781) can1 18FF1180#0300FBFDFFFF02FF
(1708107535.908781) can1 18FF1380#040000003FC04000
(1708107535.910621) can1 05F8021C#FFFC00000000FFFF
(1708107535.920737) can1 05F8021C#FFFC00000000FFFF
(1708107535.930856) can1 05F8021C#FFFC00000000FFFF
(1708107535.940965) can1 05F8021C#FFFC00000000FFFF
(1708107535.951081) can1 05F8021C#FFFC00000000FFFF
(1708107535.961190) can1 05F8021C#FFFC00000000FFFF
(1708107535.971292) can1 05F8021C#FFFC00000000FFFF
(1708107535.981413) can1 05F8021C#FFFC00000000FFFF
(1708107535.991526) can1 05F8021C#FFFC00000000FFFF
(1708107536.001638) can1 05F8021C#FFFC00000000FFFF
(1708107536.006799) can1 18FF1080#000000FFFFFFFD00
(1708107536.007786) can1 18FF1180#0300FBFDFFFF02FF
(1708107536.011748) can1 05F8021C#FFFC00000000FFFF
(1708107536.021852) can1 05F8021C#FFFC00000000FFFF
(1708107536.031972) can1 05F8021C#FFFC00000000FFFF
(1708107536.042077) can1 05F8021C#FFFC00000000FFFF
(1708107536.052186) can1 05F8021C#FFFC00000000FFFF
(1708107536.062307) can1 05F8021C#FFFC00000000FFFF
(1708107536.072419) can1 05F8021C#FFFC00000000FFFF
(1708107536.082539) can1 05F8021C#FFFC00000000FFFF
(1708107536.092642) can1 05F8021C#FFFC00000000FFFF
(1708107536.102758) can1 05F8021C#FFFC00000000FFFF
(1708107536.107790) can1 18FF1080#000000FFFFFFFD00
(1708107536.108789) can1 18FF1180#0300FBFDFFFF02FF
(1708107536.109789) can1 18FF1380#040000003FC04000
(1708107536.112942) can1 05F8021C#FFFC00000000FFFF
(1708107536.122969) can1 05F8021C#FFFC00000000FFFF
(1708107536.123534) can1 18FFDC00#4014010000507919
(1708107536.128393) can1 18FFDC00#41000000000CFFA3
(1708107536.128968) can1 0CF00400#FF7D7D000000FFFF
(1708107536.133097) can1 05F8021C#FFFC00000000FFFF
(1708107536.133722) can1 09F20000#000000FFFFFFFFFF
(1708107536.134258) can1 18FFDC00#42FFFF6E921B00FF
(1708107536.138409) can1 09F20100#4016000100FFFFA5
(1708107536.143200) can1 05F8021C#FFFC00000000FFFF
(1708107536.143794) can1 09F20100#4172BE0400006E92
(1708107536.144340) can1 18FEE500#36270000FFFFFFFF
(1708107536.148390) can1 0CF00400#FF7D7D000000FFFF
(1708107536.149056) can1 09F20100#421B00FFFFFFFF00
(1708107536.149541) can1 18FEEE00#3CFFFFFFFFFF41FF
(1708107536.153301) can1 05F8021C#FFFC00000000FFFF
(1708107536.153920) can1 09F20100#430100FFFFFFFFFF
(1708107536.154504) can1 18FEEF00#FFFFFF00FFFFFFFF
(1708107536.158406) can1 18FEF200#0000FFFFFFFF4AFF
(1708107536.163374) can1 18FEF700#FFFF1A01F200F300
(1708107536.164004) can1 05F8021C#FFFC00000000FFFF
(1708107536.168397) can1 0CF00400#FF7D7D000000FFFF
(1708107536.168946) can1 0CEF1100#7C801CC49425B187
(1708107536.173385) can1 18FFDC00#6014010000507919
(1708107536.173933) can1 04EF001C#854EF1605E692A43
(1708107536.174524) can1 0CEF0100#B020000000625300
(1708107536.178396) can1 18FFDC00#61000000000CFFA3
(1708107536.178986) can1 0CF00300#DF004FFF00FFFFFF
(1708107536.183360) can1 18FFDC00#62FFFF6E921B00FF
(1708107536.183896) can1 04EF001C#4451CE779EB61494
(1708107536.184519) can1 0CEF1700#0000000000000000
(1708107536.188405) can1 0CF00400#FF7D7D000000FFFF
(1708107536.188972) can1 18FEFC00#FFA3FFFFFFFFFFFF
(1708107536.193423) can1 0CEF0100#B020000000625300
(1708107536.193962) can1 04EF001C#0554A57ADF937FB9
(1708107536.194535) can1 18FEF600#FFFF3C2AFFFFFFFF
(1708107536.198412) can1 18FEF100#FF0000F0FFC71FFF
(1708107536.200850) can1 09F8021C#FFFC00000000FFFF
(1708107536.201874) can1 09F8011C#0000000000000000
(1708107536.202877) can1 19FA031C#FFC2000000000000
(1708107536.203840) can1 04EF001C#1557ADF9CFD0777A
(1708107536.204906) can1 0DF0101C#FF00000000000000
(1708107536.205898) can1 18FEE81C#FFFFFFFFFFFFFFFF
(1708107536.206983) can1 19FA041C#00C3FFFF102D0000
(1708107536.207835) can1 18FF1080#000000FFFFFFFD00
(1708107536.208400) can1 19FA041C#0100000000FFFFFF
(1708107536.208954) can1 0CF00400#FF7D7D000000FFFF
(1708107536.209538) can1 18FF1180#0300FBFDFFFF02FF
(1708107536.210121) can1 19FA041C#02FFFF3600000000
(1708107536.210998) can1 19FA041C#030000FFFFFFFFFF
(1708107536.212003) can1 19FA041C#04FB000000000000
(1708107536.213011) can1 19FA041C#05FFFFFFFFFFF100
(1708107536.213587) can1 0CEF0100#B020000000625300
(1708107536.214164) can1 04EF001C#2C5AFD3CF63D275F
(1708107536.215098) can1 19FA041C#060000000000FFFF
(1708107536.216056) can1 19FA041C#07FFFFFFFE000000
(1708107536.217063) can1 19FA041C#08000000FFFFFFFF
(1708107536.218079) can1 19FA041C#09FFFD0000000000
(1708107536.218626) can1 0CEF1100#84BD8D0A9EA4C7DC
(1708107536.219206) can1 19FA041C#0A00FFFFFFFFFF48
(1708107536.220122) can1 19FA041C#0B000000000000FF
(1708107536.221113) can1 19FA041C#0CFFFFFFFFE70000
(1708107536.222125) can1 19FA041C#0D00000000FFFFFF
(1708107536.223132) can1 19FA041C#0EFFFFBE00000000
(1708107536.223708) can1 18FFDC00#8014010000507919
(1708107536.224254) can1 04EF001C#FC5C1BBA263BC1D9
(1708107536.225179) can1 19FA041C#0F0000FFFFFFFFFF
(1708107536.226169) can1 19FA041C#1055000000000000
(1708107536.227159) can1 19FA041C#11FFFFFFFFFFCF00
(1708107536.228188) can1 19FA041C#120000000000FFFF
(1708107536.228768) can1 0CF00300#DF004FFF00FFFFFF
(1708107536.229361) can1 0CF00400#FF7D7D000000FFFF
(1708107536.229919) can1 18FFDC00#810000000004FFA3
(1708107536.230501) can1 19FA041C#13FFFFFFBB000000
(1708107536.231251) can1 19FA041C#14000000FFFFFFFF
(1708107536.232232) can1 19FA041C#15FFD70000000000
(1708107536.233232) can1 19FA041C#1600FFFFFFFFFFC3
(1708107536.233830) can1 09F20000#000000FFFFFFFFFF
(1708107536.234382) can1 04EF001C#AB5F560171188C42
(1708107536.235002) can1 0CEF0100#B020000000625300
(1708107536.235529) can1 18FFDC00#82FFFF6E921B00FF
(1708107536.236146) can1 19FA041C#17000000000000FF
(1708107536.237276) can1 19FA041C#18FFFFFFFF4E0000
(1708107536.238293) can1 19FA041C#1900000000FFFFFF
(1708107536.239303) can1 19FA041C#1AFFFF1400000000
(1708107536.240317) can1 19FA041C#1B0000FFFFFFFFFF
(1708107536.244271) can1 04EF001C#C641C8771C661254
(1708107536.248381) can1 0CF00400#FF7D7D000000FFFF
(1708107536.253398) can1 0CEF0100#B020000000625300
(1708107536.254398) can1 04EF001C#8644A2725C437871
(1708107536.258399) can1 18FEF200#0000FFFFFFFF4AFF
(1708107536.264509) can1 04EF001C#6D475629B7608C0A
(1708107536.268382) can1 0CF00400#FF7D7D000000FFFF
(1708107536.268955) can1 0CEF1100#C7B1FFD1E1EBACE5
(1708107536.273394) can1 18FFDC00#A014010000507919
(1708107536.273971) can1 0CEF0100#B020000000625300
(1708107536.274752) can1 04EF001C#964AC2FC4C4D18FF
(1708107536.278393) can1 18FFDC00#A10000000024FFA3
(1708107536.278996) can1 0CF00300#DF004FFF00FFFFFF
(1708107536.283377) can1 18FFDC00#A2FFFF6E921B00FF
(1708107536.284762) can1 04EF001C#EB4C8C12314B5611
(1708107536.288388) can1 0CF00400#FF7D7D000000FFFF
(1708107536.293395) can1 0CEF0100#B020000000625300
(1708107536.294875) can1 04EF001C#D04FAEC90A4874CA
(1708107536.296235) can1 18EEFF9B#6DAAEF10008278C0
(1708107536.298390) can1 18FEF100#FF0000F0FFC71FFF
(1708107536.304958) can1 04EF001C#6D52FE3CB775241F
(1708107536.308382) can1 0CF00400#FF7D7D000000FFFF
(1708107536.308975) can1 18FF1080#000000FFFFFFFD00
(1708107536.309782) can1 18FF1180#0300FBFDFFFF02FF
(1708107536.310826) can1 18FF1380#040000003FC04000
(1708107536.313396) can1 0CEF0100#B020000000625300
(1708107536.315057) can1 04EF001C#6255C943B8721360
(1708107536.318351) can1 0CEF1100#10A3DCADB534E387
(1708107536.323385) can1 18FFDC00#C014010000507919
(1708107536.325171) can1 04EF001C#F957469923109CDA
(1708107536.328377) can1 18FFDC00#C10000000024FFA3
(1708107536.328951) can1 0CF00300#DF004FFF00FFFFFF
(1708107536.329536) can1 0CF00400#FF7D7D000000FFFF
(1708107536.333371) can1 18FFDC00#C2FFFF6E921B00FF
(1708107536.333998) can1 09F20000#000000FFFFFFFFFF
(1708107536.334565) can1 0CEF0100#B020000000625300
(1708107536.335314) can1 04EF001C#DE5A08AC041DD2EF
(1708107536.345375) can1 04EF001C#6C5D873BB61A5D78
(1708107536.348385) can1 0CF00400#FF7D7D000000FFFF
(1708107536.353398) can1 0CEF0100#B020000000625300
(1708107536.355514) can1 04EF001C#3A403B96E007E1D5
(1708107536.358397) can1 18FEF200#0000FFFFFFFF4AFF
(1708107536.365638) can1 04EF001C#EC42FB2436052167
(1708107536.368393) can1 0CF00400#FF7D7D000000FFFF
(1708107536.368917) can1 0CEF1100#56A6A71C65738C84
(1708107536.373391) can1 18FFDC00#E014010000507919
(1708107536.373967) can1 0CEF0100#B020000000625300
(1708107536.375728) can1 04EF001C#164626F0CC01FCB3
(1708107536.378389) can1 18FFDC00#E10000000024FFA3
(1708107536.378986) can1 0CF00300#DF004FFF00FFFFFF
(1708107536.383377) can1 18FFDC00#E2FFFF6E921B00FF
(1708107536.385845) can1 04EF001C#79483A86A30FE0C5
(1708107536.388386) can1 0CF00400#FF7D7D000000FFFF
(1708107536.393394) can1 0CEF0100#B020000000625300
(1708107536.395953) can1 04EF001C#3A4B639DE02CB9FE
(1708107536.398418) can1 18FEF100#FF0000F0FFC71FFF
(1708107536.406088) can1 04EF001C#ED4D8223372A5840
(1708107536.408381) can1 0CF00400#FF7D7D000000FFFF
(1708107536.408968) can1 18FF1080#000000FFFFFFFD00
(1708107536.409778) can1 18FF1180#0300FBFDFFFF02FF
(1708107536.413397) can1 0CEF0100#B020000000625300
(1708107536.416166) can1 04EF001C#AC5029367637F355
(1708107536.418361) can1 0CEF1100#7DD09C9ADE720B81
(1708107536.423394) can1 18FFDC00#0014010000507919
(1708107536.426302) can1 04EF001C#4553DF7D9FD405FE
(1708107536.428377) can1 18FFDC00#010000000024FFA3
(1708107536.428958) can1 0CF00300#DF004FFF00FFFFFF
(1708107536.429550) can1 0CF00400#FF7D7D000000FFFF
(1708107536.433373) can1 18FFDC00#02FFFF6E921B00FF
(1708107536.433976) can1 09F20000#000000FFFFFFFFFF
(1708107536.434574) can1 0CEF0100#B020000000625300
(1708107536.436389) can1 04EF001C#3B568A88E1D1500B
(1708107536.446523) can1 04EF001C#EC582B3E369FF1FD
(1708107536.448386) can1 0CF00400#FF7D7D000000FFFF
(1708107536.453397) can1 0CEF0100#B020000000625300
(1708107536.456616) can1 04EF001C#EB5B3405305CEF06
(1708107536.458418) can1 18FEF200#0000FFFFFFFF4AFF
(1708107536.466733) can1 04EF001C#455EB7709FB96D93
(1708107536.468388) can1 0CF00400#FF7D7D000000FFFF
(1708107536.468926) can1 0CEF1100#3ED4AE43B924A87A
(1708107536.473390) can1 18FFDC00#2014010000507919
(1708107536.473967) can1 0CEF0100#B020000000625300
(1708107536.476886) can1 04EF001C#28412107F2A6FBE4
(1708107536.478373) can1 18FFDC00#21000000002CFFA3
(1708107536.478959) can1 0CF00300#DF004FFF00FFFFFF
(1708107536.483376) can1 18FFDC00#22FFFF6E921B00FF
(1708107536.486965) can1 04EF001C#E743F87D3C64235E
(1708107536.488383) can1 0CF00400#FF7D7D000000FFFF
(1708107536.493398) can1 0CEF0100#B020000000625300
(1708107536.497056) can1 04EF001C#8546B1685FA16B8B
(1708107536.498391) can1 18FEF100#FF0000F0FFC71FFF
(1708107536.507181) can1 04EF001C#46490C7F9C8ED6BC
(1708107536.508389) can1 0CF00400#FF7D7D000000FFFF
(1708107536.509801) can1 18FF1080#000000FFFFFFFD00
(1708107536.510795) can1 18FF1180#0300FBFDFFFF02FF
(1708107536.511780) can1 18FF1380#040000003FC04000
(1708107536.513395) can1 0CEF0100#B020000000625300
(1708107536.517281) can1 04EF001C#064C667ADC8BBCB9
(1708107536.518373) can1 0CEF1100#E1C68F7FEFE97508
(1708107536.523397) can1 18FFDC00#4014010000507919
(1708107536.527406) can1 04EF001C#C54EB3601F8969A3
(1708107536.528380) can1 18FFDC00#41000000002CFFA3
(1708107536.528957) can1 0CF00300#DF004FFF00FFFFFF
(1708107536.529530) can1 0CF00400#FF7D7D000000FFFF
(1708107536.533362) can1 18FFDC00#42FFFF6E921B00FF
(1708107536.533967) can1 09F20000#000000FFFFFFFFFF
(1708107536.534539) can1 0CEF0100#B020000000625300
(1708107536.537517) can1 04EF001C#87510B6F5DF6D1CC
(1708107536.547639) can1 04EF001C#4654E4629CF33EC1
(1708107536.548388) can1 0CF00400#FF7D7D000000FFFF
(1708107536.553395) can1 0CEF0100#B020000000625300
(1708107536.557749) can1 04EF001C#0657BE61DC9064A2
(1708107536.558400) can1 18FEF200#0000FFFFFFFF4BFF
(1708107536.567840) can1 04EF001C#C659086F1C9ED2AC
(1708107536.568432) can1 0CEF1100#9EFA7349F3DDCA26
(1708107536.568954) can1 0CF00400#FF7D7D000000FFFF
(1708107536.573387) can1 18FFDC00#6014010000507919
(1708107536.574005) can1 0CEF0100#B020000000625300
(1708107536.577961) can1 04EF001C#855C61725FFBBBD1
(1708107536.578529) can1 0CF00300#DF004FFF00FFFFFF
(1708107536.579120) can1 18FFDC00#61000000002CFFA3
(1708107536.583371) can1 18FFDC00#62FFFF6E921B00FF
(1708107536.588089) can1 04EF001C#455FBF719FF865D2
(1708107536.588675) can1 0CF00400#FF7D7D000000FFFF
(1708107536.593395) can1 0CEF0100#B020000000625300
(1708107536.598202) can1 04EF001C#0542156CDFE5CFCF
(1708107536.598757) can1 18FEF100#FF0000F0FFC71FFF
(1708107536.608283) can1 04EF001C#C544E36A1FE339C9
(1708107536.608893) can1 0CF00400#FF7D7D000000FFFF
(1708107536.609800) can1 18FF1080#000000FFFFFFFD00
(1708107536.610795) can1 18FF1180#0300FBFDFFFF02FF
(1708107536.613395) can1 0CEF0100#B020000000625300
(1708107536.618354) can1 0CEF1100#4AEB88EDA10475B4
(1708107536.618900) can1 04EF001C#8547B9695FC063EA
(1708107536.623406) can1 18FFDC00#8014010000507919
(1708107536.628382) can1 18FFDC00#81000000002CFFA3
(1708107536.628947) can1 04EF001C#464A147C9CEDCEDF
(1708107536.629563) can1 0CF00300#DF004FFF00FFFFFF
(1708107536.630139) can1 0CF00400#FF7D7D000000FFFF
(1708107536.633371) can1 18FFDC00#82FFFF6E921B00FF
(1708107536.633970) can1 09F20000#000000FFFFFFFFFF
(1708107536.634574) can1 0CEF0100#B020000000625300
(1708107536.638638) can1 04EF001C#064D6E7BDCAAB498
(1708107536.648391) can1 0CF00400#FF7D7D000000FFFF
(1708107536.648948) can1 04EF001C#C54FBB611FA86182
(1708107536.653389) can1 18FEEF00#FFFFFF00FFFFFFFF
(1708107536.654009) can1 0CEF0100#B020000000625300
(1708107536.658396) can1 18FEF200#0000FFFFFFFF4AFF
(1708107536.658929) can1 04EF001C#8752136C5DB5C98F
(1708107536.668393) can1 0CF00400#FF7D7D000000FFFF
(1708107536.668955) can1 0CEF1100#31EFB5F47C36FD9C
(1708107536.669482) can1 04EF001C#4555EF7B9E523478
(1708107536.673396) can1 18FFDC00#A014010000507919
(1708107536.673972) can1 0CEF0100#B020000000625300
(1708107536.678393) can1 18FFDC00#A1000000002CFFA3
(1708107536.678949) can1 0CF00300#DF004FFF00FFFFFF
(1708107536.679510) can1 04EF001C#0758C766DC7F1C45
(1708107536.683376) can1 18FFDC00#A2FFFF6E921B00FF
(1708107536.683973) can1 0CEF1700#0000000000000000
(1708107536.688392) can1 0CF00400#FF7D7D000000FFFF
(1708107536.689209) can1 04EF001C#C55A13741E7DC857
(1708107536.693394) can1 0CEF0100#B020000000625300
(1708107536.694028) can1 18FEF600#FFFF3C2AFFFFFFFF
(1708107536.698398) can1 18FEF100#FF0000F0FFC71FFF
(1708107536.699311) can1 04EF001C#855D69735E7AB250
(1708107536.707426) can1 09F8021C#FFFC00000000FFFF
(1708107536.708394) can1 0CF00400#FF7D7D000000FFFF
(1708107536.708997) can1 09F8011C#0000000000000000
(1708107536.710431) can1 04EF001C#8340875E58075C1D
(1708107536.711017) can1 18FF1080#000000FFFFFFFD00
(1708107536.711621) can1 09F8011C#0000000000000000
(1708107536.712183) can1 18FF1180#0300FBFDFFFF02FF
(1708107536.712771) can1 19FA031C#FFC2000000000000
(1708107536.713398) can1 0CEF0100#B020000000625300
(1708107536.714044) can1 0DF0101C#FF00000000000000
(1708107536.714627) can1 18FF1380#040000003FC04000
(1708107536.715520) can1 18FEE81C#FFFFFFFFFFFFFFFF
(1708107536.716536) can1 19FA041C#201BFFFF02100000
(1708107536.717586) can1 19FA041C#2100000000FFFFFF
(1708107536.718474) can1 0CEF1100#859E554BEE2F5C10
(1708107536.718994) can1 19FA041C#22FFFF2C00000000
(1708107536.719568) can1 04EF001C#E443FB653F042026
(1708107536.720622) can1 19FA041C#230000FFFFFFFFFF
(1708107536.723377) can1 18FFDC00#C014010000507919
(1708107536.728369) can1 18FFDC00#C1000000002CFFA3
(1708107536.728971) can1 0CF00300#DF004FFF00FFFFFF
(1708107536.729535) can1 0CF00400#FF7D7D000000FFFF
(1708107536.730068) can1 04EF001C#EA45C51331221E70
(1708107536.733369) can1 18FFDC00#C2FFFF6E921B00FF
(1708107536.733967) can1 09F20000#000000FFFFFFFFFF
(1708107536.734569) can1 0CEF0100#B020000000625300
(1708107536.739753) can1 04EF001C#8548C1665E0F1A25
(1708107536.748397) can1 0CF00400#FF7D7D000000FFFF
(1708107536.749877) can1 04EF001C#6B4B3015B02CEB76
(1708107536.753398) can1 0CEF0100#B020000000625300
(1708107536.758393) can1 18FEF200#0000FFFFFFFF4AFF
(1708107536.759978) can1 04EF001C#2C4E5D28F729864B
(1708107536.768395) can1 0CF00400#FF7D7D000000FFFF
(1708107536.768957) can1 0CEF1100#C59D9F4B867E0752
(1708107536.770091) can1 04EF001C#4951C31F9216185C
(1708107536.773390) can1 18FFDC00#E014010000507919
(1708107536.773988) can1 0CEF0100#B020000000625300
(1708107536.778387) can1 18FFDC00#E1000000002CFFA3
(1708107536.778978) can1 0CF00300#DF004FFF00FFFFFF
(1708107536.780209) can1 04EF001C#E2537D453974A666
(1708107536.783363) can1 18FFDC00#E2FFFF6E921B00FF
(1708107536.788429) can1 0CF00400#FF7D7D000000FFFF
(1708107536.790291) can1 04EF001C#7956CA98A27111BB
(1708107536.793398) can1 0CEF0100#B020000000625300
(1708107536.798398) can1 18FEF100#FF0000F0FFC71FFF
(1708107536.800414) can1 04EF001C#3A59F38FE17E28AC
(1708107536.808390) can1 0CF00400#FF7D7D000000FFFF
(1708107536.810525) can1 04EF001C#FA5B258D217CFEAE
(1708107536.811121) can1 18FF1080#000000FFFFFFFD00
(1708107536.811797) can1 18FF1180#0300FBFDFFFF02FF
(1708107536.813393) can1 0CEF0100#B020000000625300
(1708107536.818371) can1 0CEF1100#1A8FBE77D0B3DA20
(1708107536.820630) can1 04EF001C#BB5E4E80601995C3
(1708107536.823387) can1 18FFDC00#0014010000507919
(1708107536.828388) can1 18FFDC00#01000000002CFFA3
(1708107536.828956) can1 0CF00300#DF004FFF00FFFFFF
(1708107536.829536) can1 0CF00400#FF7D7D000000FFFF
(1708107536.830776) can1 04EF001C#D941D78F02060CCC
(1708107536.833371) can1 18FFDC00#02FFFF6E921B00FF
(1708107536.833986) can1 09F20000#000000FFFFFFFFFF
(1708107536.834561) can1 0CEF0100#B020000000625300
(1708107536.840872) can1 04EF001C#06442672DD03FD31
(1708107536.848396) can1 0CF00400#FF7D7D000000FFFF
(1708107536.848974) can1 18FECA00#44FF00000000FFFF
(1708107536.850964) can1 04EF001C#314708C9EA00D38A
(1708107536.853398) can1 0CEF0100#B020000000625300
(1708107536.858396) can1 18FEF200#0000FFFFFFFF4AFF
(1708107536.861087) can1 04EF001C#8549C9675E2E1204
(1708107536.868395) can1 0CF00400#FF7D7D000000FFFF
(1708107536.868926) can1 0CEF1100#5183CEECADEE2309
(1708107536.871183) can1 04EF001C#7A4C199AA12BC2F9
(1708107536.873390) can1 18FFDC00#2014010000507919
(1708107536.874001) can1 0CEF0100#B020000000625300
(1708107536.878392) can1 18FFDC00#21000000002CFFA3
(1708107536.878996) can1 0CF00300#DF004FFF00FFFFFF
(1708107536.881309) can1 04EF001C#3A4F4399E10898DA
(1708107536.883364) can1 18FFDC00#22FFFF6E921B00FF
(1708107536.888398) can1 0CF00400#FF7D7D000000FFFF
(1708107536.891408) can1 04EF001C#C5514B7F1E36901C
(1708107536.893396) can1 0CEF0100#B020000000625300
(1708107536.898400) can1 18FEF100#FF0000F0FFC71FFF
(1708107536.901526) can1 04EF001C#8554217A5E13FA39
(1708107536.908386) can1 0CF00400#FF7D7D000000FFFF
(1708107536.911671) can1 04EF001C#4557FF799E10243A
(1708107536.912269) can1 18FF1080#000000FFFFFFFD00
(1708107536.913396) can1 0CEF0100#B020000000625300
(1708107536.914034) can1 18FF1180#0300FBFDFFFF02FF
(1708107536.914792) can1 18FF1380#040000003FC04000
(1708107536.918353) can1 0CEF1100#B2BD813AA75F1393
(1708107536.921751) can1 04EF001C#065AD66CDD1D0D2F
(1708107536.923378) can1 18FFDC00#4014010000507919
(1708107536.928389) can1 18FFDC00#41000000002CFFA3
(1708107536.928951) can1 0CF00300#DF004FFF00FFFFFF
(1708107536.929548) can1 0CF00400#FF7D7D000000FFFF
(1708107536.931853) can1 04EF001C#FA5C1D8A211BC6C9
(1708107536.933363) can1 18FFDC00#42FFFF6E921B00FF
(1708107536.933972) can1 09F20000#000000FFFFFFFFFF
(1708107536.934548) can1 0CEF0100#B020000000625300
(1708107536.941976) can1 04EF001C#865F7A695D78A14A
(1708107536.948397) can1 0CF00400#FF7D7D000000FFFF
(1708107536.952083) can1 04EF001C#4542576C9E458C6F
(1708107536.953398) can1 0CEF0100#B020000000625300
(1708107536.958393) can1 18FEF200#0000FFFFFFFF4AFF
(1708107536.962201) can1 04EF001C#06452E73DD62F550
(1708107536.968393) can1 0CF00400#FF7D7D000000FFFF
(1708107536.968978) can1 0CEF1100#FDB1F081650AAE42
(1708107536.972312) can1 04EF001C#C547FB691E60204A
(1708107536.973389) can1 18FFDC00#6014010000507919
(1708107536.974000) can1 0CEF0100#B020000000625300
(1708107536.978372) can1 18FFDC00#61000000002CFFA3
(1708107536.978980) can1 0CF00300#DF004FFF00FFFFFF
(1708107536.982427) can1 04EF001C#864AD27C5D6D095F
(1708107536.983363) can1 18FFDC00#62FFFF6E921B00FF
(1708107536.988401) can1 0CF00400#FF7D7D000000FFFF
(1708107536.992515) can1 04EF001C#464D2C7B9D6AF758
(1708107536.993423) can1 0CEF0100#B020000000625300
(1708107536.998398) can1 18FEF100#FF0000F0FFC71FFF
(1708107537.002647) can1 04EF001C#06508666DD175D25
(1708107537.008391) can1 0CF00400#FF7D7D000000FFFF
(1708107537.011811) can1 18FF1080#000000FFFFFFFD00
(1708107537.012755) can1 04EF001C#C552537C1E75885F
(1708107537.013354) can1 18FF1180#0300FBFDFFFF02FF
(1708107537.013919) can1 0CEF0100#B020000000625300
(1708107537.018369) can1 0CEF1100#29A00B2537D311D0
(1708107537.022870) can1 04EF001C#86552A635D72F140
(1708107537.023480) can1 18FFDC00#8014010000507919
(1708107537.028388) can1 18FFDC00#81000000002CFFA3
(1708107537.028965) can1 0CF00300#DF004FFF00FFFFFF
(1708107537.029531) can1 0CF00400#FF7D7D000000FFFF
(1708107537.032983) can1 04EF001C#455887769E1F5C35
(1708107537.033568) can1 09F20000#000000FFFFFFFFFF
(1708107537.034157) can1 0CEF0100#B020000000625300
(1708107537.034759) can1 18FFDC00#82FFFF6E921B00FF
(1708107537.043099) can1 04EF001C#065BDE6DDD3C050E
(1708107537.048392) can1 0CF00400#FF7D7D000000FFFF
(1708107537.053201) can1 04EF001C#C65D286B1D1AF328
(1708107537.053789) can1 0CEF0100#B020000000625300
(1708107537.058395) can1 18FEF200#0000FFFFFFFF4BFF
(1708107537.063319) can1 04EF001C#8540816E5E075A2D
(1708107537.068394) can1 0CF00400#FF7D7D000000FFFF
(1708107537.068941) can1 0CEF1100#66A01A9D5A9F617A
(1708107537.073409) can1 18FFDC00#A014010000507919
(1708107537.073934) can1 04EF001C#45435F6D9E64844E
(1708107537.074516) can1 0CEF0100#B020000000625300
(1708107537.078380) can1 18FFDC00#A1000000002CFFA3
(1708107537.078973) can1 0CF00300#DF004FFF00FFFFFF
(1708107537.083378) can1 18FFDC00#A2FFFF6E921B00FF
(1708107537.083910) can1 04EF001C#06463670DD01ED33
(1708107537.088392) can1 0CF00400#FF7D7D000000FFFF
(1708107537.093405) can1 0CEF0100#B020000000625300
(1708107537.093940) can1 04EF001C#C648807E1D0F5B3D
(1708107537.098394) can1 18FEF100#FF0000F0FFC71FFF
(1708107537.103762) can1 04EF001C#874BDB755C6C0056
(1708107537.108396) can1 0CF00400#FF7D7D000000FFFF
(1708107537.112803) can1 18FF1080#000000FFFFFFFD00
(1708107537.113418) can1 0CEF0100#B020000000625300
(1708107537.113962) can1 04EF001C#464E34789D09EF3B
(1708107537.114541) can1 18FF1180#0300FBFDFFFF02FF
(1708107537.115786) can1 18FF1380#040000003FC04000
(1708107537.118361) can1 0CEF1100#54D097922A6BCE61
(1708107537.123389) can1 18FFDC00#C014010000507919
(1708107537.124017) can1 04EF001C#05518D7FDE76565C
(1708107537.128377) can1 18FFDC00#C1000000002CFFA3
(1708107537.128948) can1 0CF00300#DF004FFF00FFFFFF
(1708107537.129529) can1 0CF00400#FF7D7D000000FFFF
(1708107537.133366) can1 18FFDC00#C2FFFF6E921B00FF
(1708107537.133973) can1 09F20000#000000FFFFFFFFFF
(1708107537.134551) can1 04EF001C#C5535B7D1E14803E
(1708107537.135212) can1 0CEF0100#B020000000625300
(1708107537.138412) can1 09F20100#6016000100FFFFA8
(1708107537.143366) can1 09F20100#6172BA0400006E92
(1708107537.144201) can1 04EF001C#865632605D31E903
(1708107537.148380) can1 0CF00400#FF7D7D000000FFFF
(1708107537.149039) can1 09F20100#621B00FFFFFFFF00
(1708107537.149563) can1 18FEEE00#3CFFFFFFFFFF41FF
(1708107537.153401) can1 09F20100#630100FFFFFFFFFF
(1708107537.154000) can1 0CEF0100#B020000000625300
(1708107537.154511) can1 04EF001C#45598F779EFE54D4
(1708107537.155113) can1 18FEEF00#FFFFFF00FFFFFFFF
(1708107537.158412) can1 18FEF200#0000FFFFFFFF4BFF
(1708107537.163385) can1 18FEF700#FFFF1A01F200F200
(1708107537.164458) can1 04EF001C#055CE572DEFB3ED1
(1708107537.168386) can1 0CF00400#FF7D7D000000FFFF
(1708107537.168967) can1 0CEF1100#15D4A5DBC7A2914E
(1708107537.173398) can1 18FFDC00#E014010000507919
(1708107537.174017) can1 0CEF0100#B020000000625300
(1708107537.174644) can1 04EF001C#C65E30681DF9EBCB
(1708107537.178387) can1 18FFDC00#E1000000002CFFA3
(1708107537.178987) can1 0CF00300#DF004FFF00FFFFFF
(1708107537.183376) can1 18FFDC00#E2FFFF6E921B00FF
(1708107537.184089) can1 0CEF1700#0000000000000000
(1708107537.184733) can1 04EF001C#AA41A71771E67CB4
(1708107537.188387) can1 0CF00400#FF7D7D000000FFFF
(1708107537.188993) can1 18FEFC00#FFA3FFFFFFFFFFFF
(1708107537.193396) can1 0CEF0100#B020000000625300
(1708107537.194009) can1 18FEF600#FFFF3C2AFFFFFFFF
(1708107537.194821) can1 04EF001C#6A444912B1E392B1
(1708107537.198399) can1 18FEF100#FF0000F0FFC71FFF
(1708107537.204885) can1 04EF001C#05473D69DEA0E68A
(1708107537.208381) can1 0CF00400#FF7D7D000000FFFF
(1708107537.211994) can1 09F8021C#FFFC00000000FFFF
(1708107537.212821) can1 18FF1080#000000FFFFFFFD00
(1708107537.213414) can1 09F8011C#0000000000000000
(1708107537.213979) can1 0CEF0100#B020000000625300
(1708107537.214561) can1 18FF1180#0300FBFDFFFF02FF
(1708107537.215997) can1 04EF001C#144A44ECC84D98EF
(1708107537.217062) can1 19FA031C#FFC2000000000000
(1708107537.218061) can1 0DF0101C#FF00000000000000
(1708107537.218663) can1 0CEF1100#38C6BFF72C37B556
(1708107537.219196) can1 18FEE81C#FFFFFFFFFFFFFFFF
(1708107537.220117) can1 19FA041C#401BFFFF02100000
(1708107537.221151) can1 19FA041C#4100000000FFFFFF
(1708107537.222144) can1 19FA041C#42FFFF2C00000000
(1708107537.223151) can1 19FA041C#430000FFFFFFFFFF
(1708107537.223768) can1 18FFDC00#0014010000507919
(1708107537.225139) can1 04EF001C#AC4CC92A706B1509
(1708107537.228382) can1 18FFDC00#010000000024FFA3
(1708107537.228958) can1 0CF00300#DF004FFF00FFFFFF
(1708107537.229556) can1 0CF00400#FF7D7D000000FFFF
(1708107537.233411) can1 18FFDC00#02FFFF6E921B00FF
(1708107537.233967) can1 09F20000#000000FFFFFFFFFF
(1708107537.234559) can1 0CEF0100#B020000000625300
(1708107537.235250) can1 04EF001C#7A4F0199A608DDDA
(1708107537.245327) can1 04EF001C#04526B8F272EB70C
(1708107537.248383) can1 0CF00400#FF7D7D000000FFFF
(1708107537.253399) can1 0CEF0100#B020000000625300
(1708107537.255420) can1 04EF001C#F654AE19D528729A
(1708107537.258401) can1 18FEF200#0000FFFFFFFF4BFF
(1708107537.265550) can1 04EF001C#8557C682A6CB1AE1
(1708107537.268380) can1 0CF00400#FF7D7D000000FFFF
(1708107537.268933) can1 0CEF1100#FFC4180F52D32761
(1708107537.273397) can1 18FFDC00#2014010000507919
(1708107537.274001) can1 0CEF0100#B020000000625300
(1708107537.275664) can1 04EF001C#FB5AD37FD8260FFC
(1708107537.278391) can1 18FFDC00#210000000024FFA3
(1708107537.278967) can1 0CF00300#DF004FFF00FFFFFF
(1708107537.283373) can1 18FFDC00#22FFFF6E921B00FF
(1708107537.285787) can1 04EF001C#375D21181401FDBB
(1708107537.288384) can1 0CF00400#FF7D7D000000FFFF
(1708107537.293401) can1 0CEF0100#B020000000625300
(1708107537.295869) can1 04EF001C#F65FF612D5632AD1
(1708107537.298385) can1 18FEF100#FF0000F0FFC71FFF
(1708107537.306001) can1 04EF001C#84426F9FA75EB37C
(1708107537.308379) can1 0CF00400#FF7D7D000000FFFF
(1708107537.313408) can1 0CEF0100#B020000000625300
(1708107537.314023) can1 18FF1080#000000FFFFFFFD00
(1708107537.314788) can1 18FF1180#0300FBFDFFFF02FF
(1708107537.315824) can1 18FF1380#040000003FC04000
(1708107537.316374) can1 04EF001C#434596A060594A43
(1708107537.318350) can1 0CEF1100#8EF617CAE6E12E8C
(1708107537.323391) can1 18FFDC00#4014010000507919
(1708107537.326211) can1 04EF001C#0348BCAD21B461AE
(1708107537.328381) can1 18FFDC00#410000000024FFA3
(1708107537.328957) can1 0CF00300#DF004FFF00FFFFFF
(1708107537.329537) can1 0CF00400#FF7D7D000000FFFF
(1708107537.333375) can1 18FFDC00#42FFFF6E921B00FF
(1708107537.333966) can1 09F20000#000000FFFFFFFFFF
(1708107537.334540) can1 0CEF0100#B020000000625300
(1708107537.336332) can1 04EF001C#F74A5F0FD596822C
(1708107537.346439) can1 04EF001C#834D10A8A1F1CDEB
(1708107537.348381) can1 0CF00400#FF7D7D000000FFFF
(1708107537.353408) can1 0CEF0100#B020000000625300
(1708107537.356548) can1 04EF001C#42503FBD608CE29E
(1708107537.358391) can1 18FEF200#0000FFFFFFFF4BFF
(1708107537.366676) can1 04EF001C#035364B621EFB9F5
(1708107537.368377) can1 0CF00400#FF7D7D000000FFFF
(1708107537.368928) can1 0CEF1100#5FEAC50512319D6D
(1708107537.373400) can1 18FFDC00#6014010000507919
(1708107537.373988) can1 0CEF0100#B020000000625300
(1708107537.376760) can1 04EF001C#C35592B0E1C94FD3
(1708107537.378383) can1 18FFDC00#610000000024FFA3
(1708107537.378960) can1 0CF00300#DF004FFF00FFFFFF
(1708107537.383373) can1 18FFDC00#62FFFF6E921B00FF
(1708107537.386880) can1 04EF001C#8358B8BDA1C465DE
(1708107537.388382) can1 0CF00400#FF7D7D000000FFFF
(1708107537.393404) can1 0CEF0100#B020000000625300
(1708107537.397002) can1 04EF001C#425B67B66027BA35
(1708107537.398388) can1 18FEF100#FF0000F0FFC71FFF
(1708107537.407119) can1 04EF001C#035E0CBB2122D138
(1708107537.408377) can1 0CF00400#FF7D7D000000FFFF
(1708107537.413404) can1 0CEF0100#B020000000625300
(1708107537.413992) can1 18FF1080#000000FFFFFFFD00
(1708107537.414819) can1 18FF1180#0300FBFDFFFF02FF
(1708107537.417222) can1 04EF001C#C2403BADE03CE62E
(1708107537.418358) can1 0CEF1100#16E4250EDF721144
(1708107537.423393) can1 18FFDC00#8014010000507919
(1708107537.427342) can1 04EF001C#834360A6A11FBD05
(1708107537.428372) can1 18FFDC00#810000000024FFA3
(1708107537.429017) can1 0CF00300#DF004FFF00FFFFFF
(1708107537.429530) can1 0CF00400#FF7D7D000000FFFF
(1708107537.433386) can1 18FFDC00#82FFFF6E921B00FF
(1708107537.433965) can1 09F20000#000000FFFFFFFFFF
(1708107537.434566) can1 0CEF0100#B020000000625300
(1708107537.437445) can1 04EF001C#42468FAB607A5268
(1708107537.447555) can1 04EF001C#0349B4AC2175696F
(1708107537.448389) can1 0CF00400#FF7D7D000000FFFF
(1708107537.453399) can1 0CEF0100#B020000000625300
(1708107537.457671) can1 04EF001C#C24B63A6E077BE65
(1708107537.458399) can1 18FEF200#0000FFFFFFFF4BFF
(1708107537.467784) can1 04EF001C#844E0F93A652D270
(1708107537.468406) can1 0CF00400#FF7D7D000000FFFF
(1708107537.468947) can1 0CEF1100#B798E85AE55D40CA
(1708107537.473404) can1 18FFDC00#A014010000507919
(1708107537.474003) can1 0CEF0100#B020000000625300
(1708107537.477879) can1 04EF001C#425137BC604DEA5F
(1708107537.478502) can1 0CF00300#DF004FFF00FFFFFF
(1708107537.479071) can1 18FFDC00#A10000000024FFA3
(1708107537.483374) can1 18FFDC00#A2FFFF6E921B00FF
(1708107537.488000) can1 04EF001C#03545CB122A882B2
(1708107537.488586) can1 0CF00400#FF7D7D000000FFFF
(1708107537.493403) can1 0CEF0100#B020000000625300
(1708107537.498109) can1 04EF001C#C2568BBBE38A5598
(1708107537.498671) can1 18FEF100#FF0000F0FFC71FFF
(1708107537.508225) can1 04EF001C#8359B0BCA2A56EBF
(1708107537.508865) can1 0CF00400#FF7D7D000000FFFF
(1708107537.513406) can1 0CEF0100#B020000000625300
(1708107537.514810) can1 18FF1080#000000FFFFFFFD00
(1708107537.515800) can1 18FF1180#0300FBFDFFFF02FF
(1708107537.516789) can1 18FF1380#040000003FC04000
(1708107537.518327) can1 04EF001C#435C5EB96280809A
(1708107537.518895) can1 0CEF1100#E589364E1729B3DD
(1708107537.523398) can1 18FFDC00#C014010000507819
(1708107537.528379) can1 18FFDC00#C10000000024FFA3
(1708107537.528933) can1 04EF001C#035F04BA2283DA99
(1708107537.529529) can1 0CF00300#DF004FFF00FFFFFF
(1708107537.530107) can1 0CF00400#FF7D7D000000FFFF
(1708107537.533379) can1 18FFDC00#C2FFFF6E921B00FF
(1708107537.533962) can1 09F20000#000000FFFFFFFFFF
(1708107537.534536) can1 0CEF0100#B020000000625300
(1708107537.538567) can1 04EF001C#C441359CE5DDEBFF
(1708107537.548394) can1 0CF00400#FF7D7D000000FFFF
(1708107537.548944) can1 04EF001C#84445F99A59881BA
(1708107537.553403) can1 0CEF0100#B020000000625300
(1708107537.558402) can1 18FEF200#0000FFFFFFFF4BFF
(1708107537.558992) can1 04EF001C#434786A262FB58E1
(1708107537.568392) can1 0CF00400#FF7D7D000000FFFF
(1708107537.568962) can1 04EF001C#044AAB9725F675D4
(1708107537.569496) can1 0CEF1100#248D200765C1C00B
(1708107537.573413) can1 18FFDC00#E014010000507819
(1708107537.573969) can1 0CEF0100#B020000000625300
(1708107537.578389) can1 18FFDC00#E10000000024FFA3
(1708107537.578964) can1 0CF00300#DF004FFF00FFFFFF
(1708107537.579490) can1 04EF001C#C34C5AA9E2F084EA
(1708107537.583375) can1 18FFDC00#E2FFFF6E921B00FF
(1708107537.588392) can1 0CF00400#FF7D7D000000FFFF
(1708107537.589140) can1 04EF001C#834F00AAA2D3DEC9
(1708107537.593405) can1 0CEF0100#B020000000625300
(1708107537.598399) can1 18FEF100#FF0000F0FFC71FFF
(1708107537.599238) can1 04EF001C#42522FBF632EF13C
(1708107537.608390) can1 0CF00400#FF7D7D000000FFFF
(1708107537.609360) can1 04EF001C#035554B022098A13
(1708107537.613409) can1 0CEF0100#B020000000625300
(1708107537.614805) can1 18FF1080#000000FFFFFFFD00
(1708107537.615803) can1 18FF1180#0300FBFDFFFF02FF
(1708107537.618376) can1 0CEF1100#59BF2CA2D2E812FE
(1708107537.619463) can1 04EF001C#C35782B2E22B5C31
(1708107537.623400) can1 18FFDC00#0014010000507819
(1708107537.628386) can1 18FFDC00#010000000024FFA3
(1708107537.628952) can1 0CF00300#DF004FFF00FFFFFF
(1708107537.629649) can1 0CF00400#FF7D7D000000FFFF
(1708107537.630081) can1 04EF001C#ED5AC5CFCC061B6C
(1708107537.633384) can1 18FFDC00#02FFFF6E921B00FF
(1708107537.633960) can1 09F20000#000000FFFFFFFFFF
(1708107537.634550) can1 0CEF0100#B020000000625300
(1708107537.639675) can1 04EF001C#425D57B063218933
(1708107537.648384) can1 0CF00400#FF7D7D000000FFFF
(1708107537.649812) can1 04EF001C#2840D6FD093C087E
(1708107537.653394) can1 18FEEF00#FFFFFF00FFFFFFFF
(1708107537.653994) can1 0CEF0100#B020000000625300
(1708107537.658402) can1 18FEF200#0000FFFFFFFF4BFF
(1708107537.659916) can1 04EF001C#E84200FFC9DEDE9C
(1708107537.668384) can1 0CF00400#FF7D7D000000FFFF
(1708107537.668943) can1 0CEF1100#90B378A9040A360A
(1708107537.670022) can1 04EF001C#E14531B0C039EF33
(1708107537.673392) can1 18FFDC00#2014010000507819
(1708107537.673982) can1 0CEF0100#B020000000625300
(1708107537.678378) can1 18FFDC00#210000000024FFA3
(1708107537.678986) can1 0CF00300#DF004FFF00FFFFFF
(1708107537.680140) can1 04EF001C#9F48244DBED4FA2E
(1708107537.683357) can1 18FFDC00#22FFFF6E921B00FF
(1708107537.683982) can1 0CEF1700#0000000000000000
(1708107537.688392) can1 0CF00400#FF7D7D000000FFFF
(1708107537.690224) can1 04EF001C#384B9E76191740D5
(1708107537.693404) can1 0CEF0100#B020000000625300
(1708107537.693977) can1 18FEF600#FFFF3C2AFFFFFFFF
(1708107537.698395) can1 18FEF100#FF0000F0FFC71FFF
(1708107537.700339) can1 04EF001C#F84D6870D9D1B613
(1708107537.708405) can1 0CF00400#FF7D7D000000FFFF
(1708107537.710450) can1 04EF001C#B750CD1596EC1356
(1708107537.713409) can1 0CEF0100#B020000000625300
(1708107537.714557) can1 09F8021C#FFFC00000000FFFF
(1708107537.715547) can1 09F8011C#0000000000000000
(1708107537.716163) can1 18FF1080#000000FFFFFFFD00
(1708107537.716752) can1 19FA031C#FFC2000000000000
(1708107537.717309) can1 18FF1180#0300FBFDFFFF02FF
(1708107537.717925) can1 0DF0101C#FF00000000000000
(1708107537.718494) can1 0CEF1100#CDAD1D06E860F62E
(1708107537.719066) can1 18FEE81C#FFFFFFFFFFFFFFFF
(1708107537.719631) can1 18FF1380#040000003FC04000
(1708107537.720559) can1 04EF001C#6D5309C64C8FD7E5
(1708107537.721623) can1 19FA041C#601BFFFF02100000
(1708107537.722668) can1 19FA041C#6100000000FFFFFF
(1708107537.723383) can1 18FFDC00#4014010000507919
(1708107537.723966) can1 19FA041C#62FFFF2C00000000
(1708107537.724711) can1 19FA041C#630000FFFFFFFFFF
(1708107537.728375) can1 18FFDC00#410000000024FFA3
(1708107537.729016) can1 0CF00300#DF004FFF00FFFFFF
(1708107537.729591) can1 0CF00400#FF7D7D000000FFFF
(1708107537.730707) can1 04EF001C#B356F933928A2710
(1708107537.733374) can1 18FFDC00#42FFFF6E921B00FF
(1708107537.733980) can1 09F20000#000000FFFFFFFFFF
(1708107537.734538) can1 0CEF0100#B020000000625300
(1708107537.740774) can1 04EF001C#C458FD85E5A42386
(1708107537.748390) can1 0CF00400#FF7D7D000000FFFF
(1708107537.750890) can1 04EF001C#B85B9A669A474785
(1708107537.753406) can1 0CEF0100#B020000000625300
(1708107537.758394) can1 18FEF200#0000FFFFFFFF4AFF
(1708107537.761011) can1 04EF001C#445E498366629440
(1708107537.768391) can1 0CF00400#FF7D7D000000FFFF
(1708107537.768932) can1 0CEF1100#3CA146CD3AE7F4F9
(1708107537.771129) can1 04EF001C#3841CE7C1A1D13DF
(1708107537.773394) can1 18FFDC00#6014010000507919
(1708107537.773974) can1 0CEF0100#B020000000625300
(1708107537.778396) can1 18FFDC00#610000000024FFA3
(1708107537.778957) can1 0CF00300#DF004FFF00FFFFFF
(1708107537.781236) can1 04EF001C#F643160ED43FCB8D
(1708107537.783353) can1 18FFDC00#62FFFF6E921B00FF
(1708107537.788391) can1 0CF00400#FF7D7D000000FFFF
(1708107537.791330) can1 04EF001C#85464E93A73A9310
(1708107537.793410) can1 0CEF0100#B020000000625300
(1708107537.798390) can1 18FEF100#FF0000F0FFC71FFF
(1708107537.801460) can1 04EF001C#4249F7A460352A27
(1708107537.808391) can1 0CF00400#FF7D7D000000FFFF
(1708107537.811570) can1 04EF001C#034C9CA92170416A
(1708107537.813390) can1 0CEF0100#B020000000625300
(1708107537.815804) can1 18FF1080#000000FFFFFFFD00
(1708107537.816792) can1 18FF1180#0300FBFDFFFF02FF
(1708107537.818362) can1 0CEF1100#89D37E3A2E7C8101
(1708107537.821683) can1 04EF001C#C24E4BA3E0729660
(1708107537.823391) can1 18FFDC00#8014010000507819
(1708107537.828380) can1 18FFDC00#810000000024FFA3
(1708107537.828952) can1 0CF00300#DF004FFF00FFFFFF
(1708107537.829521) can1 0CF00400#FF7D7D000000FFFF
(1708107537.831781) can1 04EF001C#B751C51496AD1B17
(1708107537.833382) can1 18FFDC00#82FFFF6E921B00FF
(1708107537.833979) can1 09F20000#000000FFFFFFFFFF
(1708107537.834551) can1 0CEF0100#B020000000625300
(1708107537.841915) can1 04EF001C#42541FB963A8C1BA
(1708107537.848393) can1 0CF00400#FF7D7D000000FFFF
(1708107537.848976) can1 18FECA00#44FF00000000FFFF
(1708107537.852000) can1 04EF001C#035744B222AB9AB1
(1708107537.853409) can1 0CEF0100#B020000000625300
(1708107537.858397) can1 18FEF200#0000FFFFFFFF4BFF
(1708107537.862133) can1 04EF001C#C359F2BCE2A52CBF
(1708107537.868386) can1 0CF00400#FF7D7D000000FFFF
(1708107537.869029) can1 0CEF1100#40D76A335E8660C7
(1708107537.872241) can1 04EF001C#835C98B9A140455A
(1708107537.873403) can1 18FFDC00#A014010000507819
(1708107537.873970) can1 0CEF0100#B020000000625300
(1708107537.878387) can1 18FFDC00#A10000000024FFA3
(1708107537.878997) can1 0CF00300#DF004FFF00FFFFFF
(1708107537.882360) can1 04EF001C#425F47B260439A51
(1708107537.883365) can1 18FFDC00#A2FFFF6E921B00FF
(1708107537.888394) can1 0CF00400#FF7D7D000000FFFF
(1708107537.892451) can1 04EF001C#0342ECA7215E3144
(1708107537.893398) can1 0CEF0100#B020000000625300
(1708107537.898392) can1 18FEF100#FF0000F0FFC71FFF
(1708107537.902577) can1 04EF001C#C2441BA9E058C64A
(1708107537.908389) can1 0CF00400#FF7D7D000000FFFF
(1708107537.912682) can1 04EF001C#834740A2A15B9D41
(1708107537.913400) can1 0CEF0100#B020000000625300
(1708107537.916805) can1 18FF1080#000000FFFFFFFD00
(1708107537.917790) can1 18FF1180#0300FBFDFFFF02FF
(1708107537.918378) can1 0CEF1100#12C6B427ACF293D0
(1708107537.918936) can1 18FF1380#040000003FC04000
(1708107537.922803) can1 04EF001C#424AEFA760563244
(1708107537.923384) can1 18FFDC00#C014010000507919
(1708107537.928379) can1 18FFDC00#C10000000024FFA3
(1708107537.928945) can1 0CF00300#DF004FFF00FFFFFF
(1708107537.929526) can1 0CF00400#FF7D7D000000FFFF
(1708107537.932908) can1 04EF001C#034D94A82171496B
(1708107537.933523) can1 09F20000#000000FFFFFFFFFF
(1708107537.934104) can1 0CEF0100#B020000000625300
(1708107537.934643) can1 18FFDC00#C2FFFF6E921B00FF
(1708107537.943016) can1 04EF001C#C34F42AAE1539F49
(1708107537.948390) can1 0CF00400#FF7D7D000000FFFF
(1708107537.953131) can1 04EF001C#8452EF8FA66E324C
(1708107537.953740) can1 0CEF0100#B020000000625300
(1708107537.958401) can1 18FEF200#0000FFFFFFFF4BFF
(1708107537.963242) can1 04EF001C#425517B86009CA1B
(1708107537.968385) can1 0CF00400#FF7D7D000000FFFF
(1708107537.969022) can1 0CEF1100#D7C6834F620874E7
(1708107537.973362) can1 04EF001C#03583CBD2124E13E
(1708107537.973928) can1 0CEF0100#B020000000625300
(1708107537.974505) can1 18FFDC00#E014010000507919
(1708107537.978389) can1 18FFDC00#E10000000024FFA3
(1708107537.978983) can1 0CF00300#DF004FFF00FFFFFF
(1708107537.983369) can1 18FFDC00#E2FFFF6E921B00FF
(1708107537.983907) can1 04EF001C#C35AEABFE1C637DC
(1708107537.988392) can1 0CF00400#FF7D7D000000FFFF
(1708107537.993403) can1 0CEF0100#B020000000625300
(1708107537.993945) can1 04EF001C#835D90B8A1C14DDB
(1708107537.998399) can1 18FEF100#FF0000F0FFC71FFF
(1708107538.003700) can1 04EF001C#4440B99D66DC64FE
(1708107538.008391) can1 0CF00400#FF7D7D000000FFFF
(1708107538.013405) can1 0CEF0100#B020000000625300
(1708107538.013952) can1 04EF001C#0543E29627DF3FF5
(1708107538.016848) can1 18FF1080#000000FFFFFFFD00
(1708107538.017800) can1 18FF1180#0300FBFDFFFF02FF
(1708107538.018361) can1 0CEF1100#BEF0AA4BD90DC372
(1708107538.023400) can1 18FFDC00#0014010000507819
(1708107538.023935) can1 04EF001C#C34512A0E199CF83
(1708107538.028386) can1 18FFDC00#010000000024FFA3
(1708107538.028968) can1 0CF00300#DF004FFF00FFFFFF
(1708107538.029569) can1 0CF00400#FF7D7D000000FFFF
(1708107538.033385) can1 18FFDC00#02FFFF6E921B00FF
(1708107538.033980) can1 09F20000#000000FFFFFFFFFF
(1708107538.034545) can1 04EF001C#834838ADA1B4E5AE
(1708107538.035096) can1 0CEF0100#B020000000625300
(1708107538.044135) can1 04EF001C#424BE7A660973A85
(1708107538.048380) can1 0CF00400#FF7D7D000000FFFF
(1708107538.053405) can1 0CEF0100#B020000000625300
(1708107538.054318) can1 04EF001C#044E8B93269256B0
(1708107538.058416) can1 18FEF200#0000FFFFFFFF4BFF
(1708107538.064357) can1 04EF001C#C250BBBDE08C669E
(1708107538.068385) can1 0CF00400#FF7D7D000000FFFF
(1708107538.068944) can1 0CEF1100#7FF4BC0215E4BD54
(1708107538.073408) can1 18FFDC00#2014010000507819
(1708107538.073966) can1 0CEF0100#B020000000625300
(1708107538.074523) can1 04EF001C#8353E0B6A18F3D95
(1708107538.078373) can1 18FFDC00#210000000024FFA3
(1708107538.078999) can1 0CF00300#DF004FFF00FFFFFF
(1708107538.083374) can1 18FFDC00#22FFFF6E921B00FF
(1708107538.084591) can1 04EF001C#AC56E6CB8E8A3BE8
(1708107538.088380) can1 0CF00400#FF7D7D000000FFFF
(1708107538.093401) can1 0CEF0100#B020000000625300
(1708107538.094716) can1 04EF001C#29591FEC0BE5C2AF
(1708107538.098387) can1 18FEF100#FF0000F0FFC71FFF
(1708107538.104813) can1 04EF001C#C25BE3B6E0E73EF5
(1708107538.108381) can1 0CF00400#FF7D7D000000FFFF
(1708107538.113391) can1 0CEF0100#B020000000625300
(1708107538.114933) can1 04EF001C#A85EA2E38A827FC0
(1708107538.117808) can1 18FF1080#000000FFFFFFFD00
(1708107538.118434) can1 0CEF1100#2EE6BACEE196BEB3
(1708107538.118935) can1 18FF1180#0300FBFDFFFF02FF
(1708107538.119811) can1 18FF1380#040000003FC04000
(1708107538.123379) can1 18FFDC00#4014010000507819
(1708107538.125027) can1 04EF001C#9F416C44BD9DB167
(1708107538.128374) can1 18FFDC00#410000000024FFA3
(1708107538.128952) can1 0CF00300#DF004FFF00FFFFFF
(1708107538.129542) can1 0CF00400#FF7D7D000000FFFF
(1708107538.133377) can1 18FFDC00#42FFFF6E921B00FF
(1708107538.133960) can1 09F20000#000000FFFFFFFFFF
(1708107538.134535) can1 0CEF0100#B020000000625300
(1708107538.135175) can1 04EF001C#3744E90115983422
(1708107538.138400) can1 09F20100#8016000100FFFFAB
(1708107538.143369) can1 09F20100#8172B70400006E92
(1708107538.143971) can1 18FEE500#36270000FFFFFFFF
(1708107538.145267) can1 04EF001C#E84620FBCADAFD98
(1708107538.148384) can1 0CF00400#FF7D7D000000FFFF
(1708107538.148958) can1 09F20100#821B00FFFFFFFF00
(1708107538.149651) can1 18FEEE00#3CFFFFFFFFFF42FF
(1708107538.153401) can1 09F20100#830100FFFFFFFFFF
(1708107538.154002) can1 0CEF0100#B020000000625300
(1708107538.154554) can1 18FEEF00#FFFFFF00FFFFFFFF
(1708107538.155392) can1 04EF001C#AA4918E488D5C587
(1708107538.158392) can1 18FEF200#0000FFFFFFFF4BFF
(1708107538.163381) can1 18FEF700#FFFF1A01F100F100
(1708107538.165470) can1 04EF001C#774CEB09551036AA
(1708107538.168381) can1 0CF00400#FF7D7D000000FFFF
(1708107538.168931) can1 0CEF1100#9D98E38A6598664C
(1708107538.173406) can1 18FFDC00#6014010000507819
(1708107538.174011) can1 0CEF0100#B020000000625300
(1708107538.175569) can1 04EF001C#974F140AB513C9A9
(1708107538.178380) can1 18FFDC00#610000000024FFA3
(1708107538.178955) can1 0CF00300#DF004FFF00FFFFFF
(1708107538.183370) can1 18FFDC00#62FFFF6E921B00FF
(1708107538.183995) can1 0CEF1700#0000000000000000
(1708107538.185702) can1 04EF001C#2F5241D70D6E9C14
(1708107538.188381) can1 0CF00400#FF7D7D000000FFFF
(1708107538.188960) can1 18FEFC00#FFA3FFFFFFFFFFFF
(1708107538.193405) can1 0CEF0100#B020000000625300
(1708107538.193977) can1 18FEF600#FFFF3C2AFFFFFFFF
(1708107538.195793) can1 04EF001C#EF54B7D1CD086A72
(1708107538.198385) can1 18FEF100#FF0000F0FFC71FFF
(1708107538.205932) can1 04EF001C#425707BA606BDA79
(1708107538.208386) can1 0CF00400#FF7D7D000000FFFF
(1708107538.213401) can1 0CEF0100#B020000000625300
(1708107538.216025) can1 04EF001C#035A2CBF2146F15C
(1708107538.217113) can1 09F8021C#FFFC00000000FFFF
(1708107538.217806) can1 18FF1080#000000FFFFFFFD00
(1708107538.218405) can1 09F8011C#0000000000000000
(1708107538.218971) can1 0CEF1100#D6949311ACDF4AC5
(1708107538.219502) can1 18FF1180#0300FBFDFFFF02FF
(1708107538.220132) can1 19FA031C#FFC2000000000000
(1708107538.221224) can1 0DF0101C#FF00000000000000
(1708107538.222144) can1 18FEE81C#FFFFFFFFFFFFFFFF
(1708107538.223163) can1 19FA041C#801BFFFF02100000
(1708107538.223762) can1 18FFDC00#8014010000507819
(1708107538.224336) can1 19FA041C#8100000000FFFFFF
(1708107538.225242) can1 19FA041C#82FFFF2C00000000
(1708107538.226140) can1 04EF001C#B15DA32893417ECB
(1708107538.227236) can1 19FA041C#830000FFFFFFFFFF
(1708107538.228363) can1 18FFDC00#810000000024FFA3
(1708107538.228943) can1 0CF00300#DF004FFF00FFFFFF
(1708107538.229548) can1 0CF00400#FF7D7D000000FFFF
(1708107538.233374) can1 18FFDC00#82FFFF6E921B00FF
(1708107538.233979) can1 09F20000#000000FFFFFFFFFF
(1708107538.234549) can1 0CEF0100#B020000000625300
(1708107538.236246) can1 04EF001C#E15FE1AAC3433C49
(1708107538.246368) can1 04EF001C#4242AFAF607E726C
(1708107538.248378) can1 0CF00400#FF7D7D000000FFFF
(1708107538.253402) can1 0CEF0100#B020000000625300
(1708107538.256465) can1 04EF001C#0345D4A021590943
(1708107538.258397) can1 18FEF200#0000FFFFFFFF4BFF
(1708107538.266587) can1 04EF001C#C24703AAE3BBDDA9
(1708107538.268382) can1 0CF00400#FF7D7D000000FFFF
(1708107538.268933) can1 0CEF1100#F7887A5E65D324CA
(1708107538.273404) can1 18FFDC00#A014010000507919
(1708107538.274002) can1 0CEF0100#B020000000625300
(1708107538.276697) can1 04EF001C#AA4A00E78BF6DEA4
(1708107538.278371) can1 18FFDC00#A10000000024FFA3
(1708107538.278965) can1 0CF00300#DF004FFF00FFFFFF
(1708107538.283363) can1 18FFDC00#A2FFFF6E921B00FF
(1708107538.286814) can1 04EF001C#564DC30077D11D63
(1708107538.288379) can1 0CF00400#FF7D7D000000FFFF
(1708107538.293401) can1 0CEF0100#B020000000625300
(1708107538.296936) can1 04EF001C#20505EAD012C802E
(1708107538.298391) can1 18FEF100#FF0000F0FFC71FFF
(1708107538.307032) can1 04EF001C#C352AAB7E22E7434
(1708107538.308382) can1 0CF00400#FF7D7D000000FFFF
(1708107538.313400) can1 0CEF0100#B020000000625300
(1708107538.317152) can1 04EF001C#8555D680A4090823
(1708107538.317819) can1 18FF1080#000000FFFFFFFD00
(1708107538.318413) can1 0CEF1100#06BA519BF0C10C2E
(1708107538.318969) can1 18FF1180#0300FCFDFFFF02FF
(1708107538.319799) can1 18FF1380#040000003FC04000
(1708107538.323384) can1 18FFDC00#C014010000507819
(1708107538.327262) can1 04EF001C#42587FB56304A116
(1708107538.328377) can1 18FFDC00#C10000000024FFA3
(1708107538.328953) can1 0CF00300#DF004FFF00FFFFFF
(1708107538.329526) can1 0CF00400#FF7D7D000000FFFF
(1708107538.333382) can1 18FFDC00#C2FFFF6E921B00FF
(1708107538.333980) can1 09F20000#000000FFFFFFFFFF
(1708107538.334539) can1 0CEF0100#B020000000625300
(1708107538.337363) can1 04EF001C#045B23862507FD25
(1708107538.347479) can1 04EF001C#C35DD2B8E2610C7B
(1708107538.348391) can1 0CF00400#FF7D7D000000FFFF
(1708107538.353400) can1 0CEF0100#B020000000625300
(1708107538.357614) can1 04EF001C#834078A5A27CA666
(1708107538.358399) can1 18FEF200#0000FFFFFFFF4BFF
(1708107538.367689) can1 04EF001C#4343A6A6625F7845
(1708107538.368387) can1 0CF00400#FF7D7D000000FFFF
(1708107538.368939) can1 0CEF1100#47BE63D21D085301
(1708107538.373412) can1 18FFDC00#E014010000507819
(1708107538.374019) can1 0CEF0100#B020000000625300
(1708107538.377813) can1 04EF001C#0346CCA3225A1240
(1708107538.378408) can1 0CF00300#DF004FFF00FFFFFF
(1708107538.378988) can1 18FFDC00#E10000000024FFA3
(1708107538.383370) can1 18FFDC00#E2FFFF6E921B00FF
(1708107538.387926) can1 04EF001C#C2487BA5E2B4A4A6
(1708107538.388507) can1 0CF00400#FF7D7D000000FFFF
(1708107538.393413) can1 0CEF0100#B020000000625300
(1708107538.398037) can1 04EF001C#834B20AEA397FF8D
(1708107538.398619) can1 18FEF100#FF0000F0FFC71FFF
(1708107538.408153) can1 04EF001C#424ECFA362F210E0
(1708107538.408767) can1 0CF00400#FF7D7D000000FFFF
(1708107538.413403) can1 0CEF0100#B020000000625300
(1708107538.418257) can1 04EF001C#0451738C24CDACEF
(1708107538.418849) can1 0CEF1100#99AF9AA6CD475A07
(1708107538.419391) can1 18FF1080#000000FFFFFFFD00
(1708107538.420847) can1 18FF1180#0300FCFDFFFF02FF
(1708107538.423394) can1 18FFDC00#0014010000507819
(1708107538.428373) can1 18FFDC00#010000000024FFA3
(1708107538.428964) can1 04EF001C#C353A2B6E3CF7DD5
(1708107538.429511) can1 0CF00300#DF004FFF00FFFFFF
(1708107538.430076) can1 0CF00400#FF7D7D000000FFFF
(1708107538.433382) can1 18FFDC00#02FFFF6E921B00FF
(1708107538.433990) can1 09F20000#000000FFFFFFFFFF
(1708107538.434595) can1 0CEF0100#B020000000625300
(1708107538.438473) can1 04EF001C#8456CF8BA42A1008
(1708107538.448381) can1 0CF00400#FF7D7D000000FFFF
(1708107538.448955) can1 04EF001C#425977B46205A817
(1708107538.453405) can1 0CEF0100#B020000000625300
(1708107538.458391) can1 18FEF200#0000FFFFFFFF4BFF
(1708107538.458990) can1 04EF001C#035C1CB92300C31A
(1708107538.468395) can1 0CF00400#FF7D7D000000FFFF
(1708107538.468951) can1 04EF001C#C25ECBB3E2621470
(1708107538.469471) can1 0CEF1100#D0A3EAAD8E9F8A5A
(1708107538.473405) can1 18FFDC00#2014010000507819
(1708107538.474024) can1 0CEF0100#B020000000625300
(1708107538.478374) can1 18FFDC00#210000000024FFA3
(1708107538.478981) can1 0CF00300#DF004FFF00FFFFFF
(1708107538.479559) can1 04EF001C#834170A4A37DAF67
(1708107538.483376) can1 18FFDC00#22FFFF6E921B00FF
(1708107538.488385) can1 0CF00400#FF7D7D000000FFFF
(1708107538.489073) can1 04EF001C#42449FA96258404A
(1708107538.493407) can1 0CEF0100#B020000000625300
(1708107538.498384) can1 18FEF100#FF0000F0FFC71FFF
(1708107538.499174) can1 04EF001C#0547C2921A9B22B1
(1708107538.508392) can1 0CF00400#FF7D7D000000FFFF
(1708107538.509286) can1 04EF001C#C24973A4DDF593E7
(1708107538.513404) can1 0CEF0100#B020000000625300
(1708107538.518344) can1 0CEF1100#ECDD9451E2774622
(1708107538.518934) can1 18FF1080#000000FFFFFFFD00
(1708107538.519505) can1 04EF001C#844C1F919B30FF12
(1708107538.520098) can1 18FF1180#0300FCFDFFFF02FF
(1708107538.520853) can1 18FF1380#040000003FC04000
(1708107538.523381) can1 18FFDC00#4014010000507819
(1708107538.528376) can1 18FFDC00#410000000024FFA3
(1708107538.528955) can1 0CF00300#DF004FFF00FFFFFF
(1708107538.529563) can1 0CF00400#FF7D7D000000FFFF
(1708107538.530082) can1 04EF001C#424FC7A25D132701
(1708107538.533378) can1 18FFDC00#42FFFF6E921B00FF
(1708107538.534000) can1 09F20000#000000FFFFFFFFFF
(1708107538.534567) can1 0CEF0100#B020000000625300
(1708107538.539586) can1 04EF001C#04526B8F1B2E8B0C
(1708107538.548393) can1 0CF00400#FF7D7D000000FFFF
(1708107538.549730) can1 04EF001C#E754BF91F8C85FF2
(1708107538.553409) can1 0CEF0100#B020000000625300
(1708107538.558379) can1 18FEF200#0000FFFFFFFF4AFF
(1708107538.559842) can1 04EF001C#A957EBE2B6CB0B81
(1708107538.568381) can1 0CF00400#FF7D7D000000FFFF
(1708107538.568944) can1 0CEF1100#BFD1E20A9307D16A
(1708107538.569968) can1 04EF001C#675A4B9F7826AB1C
(1708107538.573404) can1 18FFDC00#6014010000507819
(1708107538.573976) can1 0CEF0100#B020000000625300
(1708107538.578377) can1 18FFDC00#610000000024FFA3
(1708107538.578972) can1 0CF00300#DF004FFF00FFFFFF
(1708107538.580071) can1 04EF001C#5F5D4A584001AAFB
(1708107538.583387) can1 18FFDC00#62FFFF6E921B00FF
(1708107538.588391) can1 0CF00400#FF7D7D000000FFFF
(1708107538.590151) can1 04EF001C#F75FF71AE86317D9
(1708107538.593407) can1 0CEF0100#B020000000625300
(1708107538.598383) can1 18FEF100#FF0000F0FFC71FFF
(1708107538.600270) can1 04EF001C#B7425D07A81EBDA4
(1708107538.608384) can1 0CF00400#FF7D7D000000FFFF
(1708107538.610388) can1 04EF001C#7745A30068394383
(1708107538.613404) can1 0CEF0100#B020000000625300
(1708107538.618360) can1 0CEF1100#68C3C176C7D89E08
(1708107538.619815) can1 18FF1080#000000FFFFFFFD00
(1708107538.620483) can1 04EF001C#38488675273466F6
(1708107538.621053) can1 18FF1180#0300FCFDFFFF02FF
(1708107538.623398) can1 18FFDC00#8014010000507819
(1708107538.628384) can1 18FFDC00#810000000024FFA3
(1708107538.628963) can1 0CF00300#DF004FFF00FFFFFF
(1708107538.629520) can1 0CF00400#FF7D7D000000FFFF
(1708107538.630622) can1 04EF001C#564BF30649371385
(1708107538.633382) can1 18FFDC00#82FFFF6E921B00FF
(1708107538.633976) can1 09F20000#000000FFFFFFFFFF
(1708107538.634548) can1 0CEF0100#B020000000625300
(1708107538.640703) can1 04EF001C#844D17909B31F713
(1708107538.648374) can1 0CF00400#FF7D7D000000FFFF
(1708107538.650828) can1 04EF001C#77500B15682CEB96
(1708107538.653395) can1 18FEEF00#FFFFFF00FFFFFFFF
(1708107538.654004) can1 0CEF0100#B020000000625300
(1708107538.658389) can1 18FEF200#0000FFFFFFFF4BFF
(1708107538.660949) can1 04EF001C#38535E6E272FBEED
(1708107538.668386) can1 0CF00400#FF7D7D000000FFFF
(1708107538.668951) can1 0CEF1100#2FC7F28FAB9CACAB
(1708107538.671042) can1 04EF001C#F855A868E72948EB
(1708107538.673409) can1 18FFDC00#A014010000507819
(1708107538.673988) can1 0CEF0100#B020000000625300
(1708107538.678372) can1 18FFDC00#A10000000024FFA3
(1708107538.678978) can1 0CF00300#DF004FFF00FFFFFF
(1708107538.681176) can1 04EF001C#B8588265A7C46206
(1708107538.683361) can1 18FFDC00#A2FFFF6E921B00FF
(1708107538.683976) can1 0CEF1700#0000000000000000
(1708107538.688390) can1 0CF00400#FF7D7D000000FFFF
(1708107538.691270) can1 04EF001C#425B67B65DC787D5
(1708107538.693401) can1 0CEF0100#B020000000625300
(1708107538.694014) can1 18FEF600#FFFF3C2AFFFFFFFF
(1708107538.698405) can1 18FEF100#FF0000F0FFC71FFF
(1708107538.701389) can1 04EF001C#055E0A8B1AC2EAE8
(1708107538.708390) can1 0CF00400#FF7D7D000000FFFF
(1708107538.711488) can1 04EF001C#C2403BADDD3CDB2E
(1708107538.713403) can1 0CEF0100#B020000000625300
(1708107538.718351) can1 0CEF1100#D4F1FB9BB5193A92
(1708107538.718959) can1 09F8021C#FFFC00000000FFFF
(1708107538.719672) can1 09F8011C#0000000000000000
(1708107538.720242) can1 18FF1080#000000FFFFFFFD00
(1708107538.720927) can1 19FA031C#FFC2000000000000
(1708107538.721608) can1 04EF001C#D243332ECD3FD3AD
(1708107538.722244) can1 18FF1180#0300FCFDFFFF02FF
(1708107538.722828) can1 0DF0101C#FF00000000000000
(1708107538.723390) can1 18FF1380#040000003FC04000
(1708107538.723958) can1 18FEE81C#FFFFFFFFFFFFFFFF
(1708107538.724530) can1 18FFDC00#C014010000507819
(1708107538.725104) can1 19FA041C#A01BFFFF02100000
(1708107538.725761) can1 19FA041C#A100000000FFFFFF
(1708107538.726739) can1 19FA041C#A2FFFF2C00000000
(1708107538.727750) can1 19FA041C#A30000FFFFFFFFFF
(1708107538.728369) can1 18FFDC00#C10000000024FFA3
(1708107538.728991) can1 0CF00300#DF004FFF00FFFFFF
(1708107538.729556) can1 0CF00400#FF7D7D000000FFFF
(1708107538.731754) can1 04EF001C#7746BB0368DA5B60
(1708107538.733377) can1 18FFDC00#C2FFFF6E921B00FF
(1708107538.733970) can1 09F20000#000000FFFFFFFFFF
(1708107538.734541) can1 0CEF0100#B020000000625300
(1708107538.741821) can1 04EF001C#0449B3941B355317
(1708107538.748392) can1 0CF00400#FF7D7D000000FFFF
(1708107538.751937) can1 04EF001C#C34B62AEDCF782ED
(1708107538.753401) can1 0CEF0100#B020000000625300
(1708107538.758393) can1 18FEF200#0000FFFFFFFF4BFF
(1708107538.762056) can1 04EF001C#834E08AB9CB2E8A8
(1708107538.768377) can1 0CF00400#FF7D7D000000FFFF
(1708107538.768929) can1 0CEF1100#97F5C94266554CC9
(1708107538.772155) can1 04EF001C#425137BC626DE87F
(1708107538.773446) can1 18FFDC00#E014010000507819
(1708107538.773985) can1 0CEF0100#B020000000625300
(1708107538.778370) can1 18FFDC00#E10000000024FFA3
(1708107538.778992) can1 0CF00300#DF004FFF00FFFFFF
(1708107538.782280) can1 04EF001C#04545B892448846A
(1708107538.783365) can1 18FFDC00#E2FFFF6E921B00FF
(1708107538.788391) can1 0CF00400#FF7D7D000000FFFF
(1708107538.792385) can1 04EF001C#C4568D8BE46A5248
(1708107538.793396) can1 0CEF0100#B020000000625300
(1708107538.798386) can1 18FEF100#FF0000F0FFC71FFF
(1708107538.802493) can1 04EF001C#8659B594A6656A57
(1708107538.808394) can1 0CF00400#FF7D7D000000FFFF
(1708107538.812606) can1 04EF001C#445C598164008622
(1708107538.813399) can1 0CEF0100#B020000000625300
(1708107538.818359) can1 0CEF1100#7BE43D263AF20D28
(1708107538.820877) can1 18FF1080#000000FFFFFFFD00
(1708107538.821811) can1 18FF1180#0300FCFDFFFF02FF
(1708107538.822727) can1 04EF001C#055F028A2503DD29
(1708107538.823394) can1 18FFDC00#0014010000507819
(1708107538.828374) can1 18FFDC00#010000000024FFA3
(1708107538.828948) can1 0CF00300#DF004FFF00FFFFFF
(1708107538.829525) can1 0CF00400#FF7D7D000000FFFF
(1708107538.832840) can1 04EF001C#C5413494E5DDEBF7
(1708107538.833435) can1 09F20000#000000FFFFFFFFFF
(1708107538.834015) can1 0CEF0100#B020000000625300
(1708107538.834603) can1 18FFDC00#02FFFF6E921B00FF
(1708107538.842943) can1 04EF001C#85445E91A5D881F2
(1708107538.848421) can1 0CF00400#FF7D7D000000FFFF
(1708107538.849006) can1 18FECA00#44FF00000000FFFF
(1708107538.853074) can1 04EF001C#4447819A64FB5ED9
(1708107538.853632) can1 0CEF0100#B020000000625300
(1708107538.858391) can1 18FEF200#0000FFFFFFFF4BFF
(1708107538.863172) can1 04EF001C#054AAA9F259675BC
(1708107538.868374) can1 0CF00400#FF7D7D000000FFFF
(1708107538.868937) can1 0CEF1100#38E42FFE54A5A69A
(1708107538.873292) can1 04EF001C#C54C5C99E59083BA
(1708107538.873907) can1 0CEF0100#B020000000625300
(1708107538.874431) can1 18FFDC00#2014010000507819
(1708107538.878375) can1 18FFDC00#210000000024FFA3
(1708107538.878951) can1 0CF00300#DF004FFF00FFFFFF
(1708107538.883354) can1 18FFDC00#22FFFF6E921B00FF
(1708107538.883911) can1 04EF001C#854F069AA593D9B9
(1708107538.888391) can1 0CF00400#FF7D7D000000FFFF
(1708107538.893406) can1 0CEF0100#B020000000625300
(1708107538.893925) can1 04EF001C#4452298F648EF6AC
(1708107538.898384) can1 18FEF100#FF0000F0FFC71FFF
(1708107538.903621) can1 04EF001C#0555528025898DA3
(1708107538.908398) can1 0CF00400#FF7D7D000000FFFF
(1708107538.913400) can1 0CEF0100#B020000000625300
(1708107538.913932) can1 04EF001C#C457858AE48B5AA9
(1708107538.918356) can1 0CEF1100#8F961799C0BAF7E6
(1708107538.920862) can1 18FF1080#000000FFFFFFFD00
(1708107538.921802) can1 18FF1180#0300FCFDFFFF02FF
(1708107538.922813) can1 18FF1380#040000003FC04000
(1708107538.923401) can1 18FFDC00#4014010000507819
(1708107538.923975) can1 04EF001C#855AAE8FA58671AC
(1708107538.928382) can1 18FFDC00#410000000024FFA3
(1708107538.928972) can1 0CF00300#DF004FFF00FFFFFF
(1708107538.929708) can1 0CF00400#FF7D7D000000FFFF
(1708107538.933373) can1 18FFDC00#42FFFF6E921B00FF
(1708107538.933990) can1 09F20000#000000FFFFFFFFFF
(1708107538.934530) can1 04EF001C#445D518064C18EE3
(1708107538.935091) can1 0CEF0100#B020000000625300
(1708107538.944070) can1 04EF001C#0540FA95257C2556
(1708107538.948390) can1 0CF00400#FF7D7D000000FFFF
(1708107538.953399) can1 0CEF0100#B020000000625300
(1708107538.954190) can1 04EF001C#C4422D9FE45EF27C
(1708107538.957796) can1 0CEF0017#8104FFFF0000FFFF
(1708107538.958433) can1 18FEF200#0000FFFFFFFF4BFF
(1708107538.963398) can1 18E8FF00#02FFFFFFFF00EF00
(1708107538.964298) can1 04EF001C#854556909A99B6B3
(1708107538.968378) can1 0CF00400#FF7D7D000000FFFF
(1708107538.968941) can1 0CEF1100#DF89391E99D3692A
(1708107538.969522) can1 18FF1C17#0001500000000000
(1708107538.973405) can1 18FFDC00#6014010000507819
(1708107538.974009) can1 0CEF0100#B020000000625300
(1708107538.974523) can1 04EF001C#4448F9955BD419F6
(1708107538.978379) can1 18FFDC00#610000000024FFA3
(1708107538.978990) can1 0CF00300#DF004FFF00FFFFFF
(1708107538.983367) can1 18FFDC00#62FFFF6E921B00FF
(1708107538.984522) can1 04EF001C#054BA29E1AD742FD
(1708107538.988379) can1 0CF00400#FF7D7D000000FFFF
(1708107538.993399) can1 0CEF0100#B020000000625300
(1708107538.994626) can1 04EF001C#E94D79F8F631997B
(1708107538.998385) can1 18FEF100#FF0000F0FFC71FFF
(1708107539.004740) can1 04EF001C#8650FD9D990C1D3E
(1708107539.008384) can1 0CF00400#FF7D7D000000FFFF
(1708107539.013400) can1 0CEF0100#B020000000625300
(1708107539.014857) can1 04EF001C#69530DE6760FED45
(1708107539.018365) can1 0CEF1100#1784255DF332107E
(1708107539.021805) can1 18FF1080#000000FFFFFFFD00
(1708107539.022798) can1 18FF1180#0300FCFDFFFF02FF
(1708107539.023408) can1 18FFDC00#8014010000507819
(1708107539.024992) can1 04EF001C#2B5665F3340A8550
(1708107539.028370) can1 18FFDC00#810000000024FFA3
(1708107539.028953) can1 0CF00300#DF004FFF00FFFFFF
(1708107539.029523) can1 0CF00400#FF7D7D000000FFFF
(1708107539.033387) can1 18FFDC00#82FFFF6E921B00FF
(1708107539.033976) can1 09F20000#000000FFFFFFFFFF
(1708107539.034552) can1 0CEF0100#B020000000625300
(1708107539.035111) can1 04EF001C#225914B43D65F477
(1708107539.045181) can1 04EF001C#855BA68E9A67464D
(1708107539.048379) can1 0CF00400#FF7D7D000000FFFF
(1708107539.053405) can1 0CEF0100#B020000000625300
(1708107539.055272) can1 04EF001C#7A5E7673650296D0
(1708107539.058382) can1 18FEF200#0000FFFFFFFF4AFF
(1708107539.065418) can1 04EF001C#0541F2941A7D1257
(1708107539.068379) can1 0CF00400#FF7D7D000000FFFF
(1708107539.068925) can1 0CEF1100#68B8D96B5107A2A0
(1708107539.073407) can1 18FFDC00#A014010000507819
(1708107539.074011) can1 0CEF0100#B020000000625300
(1708107539.075565) can1 04EF001C#2244FCA93D581C4A
(1708107539.078370) can1 18FFDC00#A10000000024FFA3
(1708107539.078988) can1 0CF00300#DF004FFF00FFFFFF
(1708107539.083372) can1 18FFDC00#A2FFFF6E921B00FF
(1708107539.085628) can1 04EF001C#BA46706BA55A9088
(1708107539.088377) can1 0CF00400#FF7D7D000000FFFF
(1708107539.093397) can1 0CEF0100#B020000000625300
(1708107539.095736) can1 04EF001C#7949CD7C66752DBF
(1708107539.098383) can1 18FEF100#FF0000F0FFC71FFF
(1708107539.105849) can1 04EF001C#054C9A991A507A7A
(1708107539.108383) can1 0CF00400#FF7D7D000000FFFF
(1708107539.113395) can1 0CEF0100#B020000000625300
(1708107539.115961) can1 04EF001C#F94E717BE6529198
(1708107539.118363) can1 0CEF1100#A7AAFCD703EE5BF3
(1708107539.121825) can1 18FF1080#000000FFFFFFFD00
(1708107539.122802) can1 18FF1180#0300FCFDFFFF02FF
(1708107539.123419) can1 18FFDC00#C014010000507819
(1708107539.123975) can1 18FF1380#000000003FD5C006
(1708107539.126084) can1 04EF001C#8651F59C994D157F
(1708107539.128366) can1 18FFDC00#C10000000024FFA3
(1708107539.128947) can1 0CF00300#DF004FFF00FFFFFF
(1708107539.129529) can1 0CF00400#FF7D7D000000FFFF
(1708107539.133381) can1 18FFDC00#C2FFFF6E921B00FF
(1708107539.133975) can1 09F20000#000000FFFFFFFFFF
(1708107539.134558) can1 0CEF0100#B020000000625300
(1708107539.136179) can1 04EF001C#A154FBA1BFA81AA2
(1708107539.138386) can1 09F20100#A016000100FFFFAD
(1708107539.143363) can1 09F20100#A172B30400006E92
(1708107539.146296) can1 04EF001C#055742821A4BA261
(1708107539.148379) can1 0CF00400#FF7D7D000000FFFF
(1708107539.148955) can1 09F20100#A21B00FFFFFFFF00
(1708107539.149551) can1 18FEEE00#3CFFFFFFFFFF42FF
(1708107539.153397) can1 09F20100#A30100FFFFFFFFFF
(1708107539.153987) can1 0CEF0100#B020000000625300
(1708107539.154621) can1 18FEEF00#FFFFFF00FFFFFFFF
(1708107539.156400) can1 04EF001C#305A1E272EA6FF24
(1708107539.158395) can1 18FEF200#0000FFFFFFFF4BFF
(1708107539.163385) can1 18FEF700#FFFF1A01F000F000
(1708107539.166519) can1 04EF001C#855C9E899BA07F8A
(1708107539.168377) can1 0CF00400#FF7D7D000000FFFF
(1708107539.168944) can1 0CEF1100#E6AC5E9E60BC58A8
(1708107539.173398) can1 18FFDC00#E014010000507819
(1708107539.174004) can1 0CEF0100#B020000000625300
(1708107539.176627) can1 04EF001C#445F41825AA3A081
(1708107539.178403) can1 18FFDC00#E10000000024FFA3
(1708107539.178957) can1 0CF00300#DF004FFF00FFFFFF
(1708107539.183372) can1 18FFDC00#E2FFFF6E921B00FF
(1708107539.183994) can1 0CEF1700#0104FFFF0000FFFF
(1708107539.186747) can1 04EF001C#0542EA971BBE0B94
(1708107539.188377) can1 0CF00400#FF7D7D000000FFFF
(1708107539.188959) can1 18FEFC00#FFA3FFFFFFFFFFFF
(1708107539.193397) can1 0CEF0100#B020000000625300
(1708107539.193991) can1 18FEF600#FFFF3C2AFFFFFFFF
(1708107539.196930) can1 04EF001C#C4441D99DAB8FC9A
(1708107539.198385) can1 18FEF100#FF0000F0FFC71FFF
(1708107539.206954) can1 04EF001C#8647458A98BBA489
(1708107539.208385) can1 0CF00400#FF7D7D000000FFFF
(1708107539.208989) can1 18FF1C17#0001500000000000
(1708107539.213387) can1 0CEF0100#B020000000625300
(1708107539.217071) can1 04EF001C#444AE9975AF608D4
(1708107539.218354) can1 0CEF1100#DFD8F108DB9D5B2C
(1708107539.219208) can1 09F8021C#FFFC00000000FFFF
(1708107539.220144) can1 09F8011C#0000000000000000
(1708107539.221170) can1 19FA031C#FFC2000000000000
(1708107539.222175) can1 0DF0101C#FF00000000000000
(1708107539.222823) can1 18FF1080#000000FFFFFFFD00
(1708107539.223391) can1 18FEE81C#FFFFFFFFFFFFFFFF
(1708107539.223967) can1 18FF1180#0300FCFDFFFF02FF
(1708107539.224582) can1 18FFDC00#0014010000507819
(1708107539.225131) can1 19FA041C#C01BFFFF02100000
(1708107539.226282) can1 19FA041C#C100000000FFFFFF
(1708107539.227184) can1 04EF001C#B64D2400A8F1C543
(1708107539.228285) can1 19FA041C#C2FFFF2C00000000
(1708107539.228885) can1 0CF00300#DF004FFF00FFFFFF
(1708107539.229461) can1 0CF00400#FF7D7D000000FFFF
(1708107539.230059) can1 18FFDC00#010000000024FFA3
(1708107539.230613) can1 19FA041C#C30000FFFFFFFFFF
(1708107539.233372) can1 18FFDC00#02FFFF6E921B00FF
(1708107539.233962) can1 09F20000#000000FFFFFFFFFF
(1708107539.234559) can1 0CEF0100#B020000000625300
(1708107539.237287) can1 04EF001C#C44F4592DAF3A4D1
(1708107539.247416) can1 04EF001C#8552EE879BEE0FC4
(1708107539.248383) can1 0CF00400#FF7D7D000000FFFF
(1708107539.253402) can1 0CEF0100#B020000000625300
(1708107539.257514) can1 04EF001C#655531807B89D0A3
(1708107539.258398) can1 18FEF200#0000FFFFFFFF4BFF
(1708107539.267649) can1 04EF001C#2758199D39A4F89E
(1708107539.268385) can1 0CF00400#FF7D7D000000FFFF
(1708107539.269023) can1 0CEF1100#98DCC2F1B7D9698F
(1708107539.273405) can1 18FFDC00#2014010000507819
(1708107539.273981) can1 0CEF0100#B020000000625300
(1708107539.277743) can1 04EF001C#E95AC1EFF78620CC
(1708107539.278386) can1 18FFDC00#210000000024FFA3
(1708107539.278975) can1 0CF00300#DF004FFF00FFFFFF
(1708107539.283371) can1 18FFDC00#22FFFF6E921B00FF
(1708107539.287851) can1 04EF001C#865D959098E174D3
(1708107539.288425) can1 0CF00400#FF7D7D000000FFFF
(1708107539.293403) can1 0CEF0100#B020000000625300
(1708107539.297958) can1 04EF001C#4540B8955BFC59D6
(1708107539.298566) can1 18FEF100#FF0000F0FFC71FFF
(1708107539.308092) can1 04EF001C#0543E2961BDF03F5
(1708107539.308689) can1 0CF00400#FF7D7D000000FFFF
(1708107539.313405) can1 0CEF0100#B020000000625300
(1708107539.318187) can1 04EF001C#C5451490DB39F513
(1708107539.318771) can1 0CEF1100#4CCD3955E500D61D
(1708107539.322823) can1 18FF1080#000000FFFFFFFD00
(1708107539.323424) can1 18FFDC00#4014010000507819
(1708107539.324004) can1 18FF1180#0300FCFDFFFF02FF
(1708107539.324832) can1 18FF1380#000000003FD5C006
(1708107539.328305) can1 04EF001C#85483E9D9B14DF3E
(1708107539.328944) can1 0CF00300#DF004FFF00FFFFFF
(1708107539.329492) can1 0CF00400#FF7D7D000000FFFF
(1708107539.330031) can1 18FFDC00#410000000024FFA3
(1708107539.333380) can1 18FFDC00#42FFFF6E921B00FF
(1708107539.333954) can1 09F20000#000000FFFFFFFFFF
(1708107539.334541) can1 0CEF0100#B020000000625300
(1708107539.338424) can1 04EF001C#444BE1965A170035
(1708107539.348394) can1 0CF00400#FF7D7D000000FFFF
(1708107539.348960) can1 04EF001C#054E8A9B1B126B38
(1708107539.353406) can1 0CEF0100#B020000000625300
(1708107539.358400) can1 18FEF200#0000FFFFFFFF4BFF
(1708107539.358927) can1 04EF001C#C550BC85DB6C5D46
(1708107539.368388) can1 0CF00400#FF7D7D000000FFFF
(1708107539.368954) can1 04EF001C#8553E6869B4F0765
(1708107539.369473) can1 0CEF1100#7FC1540E38B24C33
(1708107539.373392) can1 18FFDC00#6014010000507819
(1708107539.373995) can1 0CEF0100#B020000000625300
(1708107539.378397) can1 18FFDC00#610000000024FFA3
(1708107539.378947) can1 04EF001C#455608835B6AE940
(1708107539.379532) can1 0CF00300#DF004FFF00FFFFFF
(1708107539.383367) can1 18FFDC00#62FFFF6E921B00FF
(1708107539.388390) can1 0CF00400#FF7D7D000000FFFF
(1708107539.389000) can1 04EF001C#0559328C1B45D36F
(1708107539.393394) can1 0CEF0100#B020000000625300
(1708107539.398392) can1 18FEF100#FF0000F0FFC71FFF
(1708107539.399120) can1 04EF001C#C65BE796D8470675
(1708107539.408386) can1 0CF00400#FF7D7D000000FFFF
(1708107539.409203) can1 04EF001C#855E8E8B9B626F48
(1708107539.413400) can1 0CEF0100#B020000000625300
(1708107539.418359) can1 0CEF1100#08F35A7B0D0D2852
(1708107539.419327) can1 04EF001C#4441B19C5A7D505F
(1708107539.423405) can1 18FFDC00#8014010000507819
(1708107539.423992) can1 18FF1080#000000FFFFFFFD00
(1708107539.424807) can1 18FF1180#0300FCFDFFFF02FF
(1708107539.428368) can1 18FFDC00#810000000024FFA3
(1708107539.428953) can1 0CF00300#DF004FFF00FFFFFF
(1708107539.429515) can1 04EF001C#0544DA911B583B72
(1708107539.430130) can1 0CF00400#FF7D7D000000FFFF
(1708107539.433387) can1 18FFDC00#82FFFF6E921B00FF
(1708107539.434026) can1 09F20000#000000FFFFFFFFFF
(1708107539.434548) can1 0CEF0100#B020000000625300
(1708107539.439529) can1 04EF001C#C5460C93DB5AED70
(1708107539.448381) can1 0CF00400#FF7D7D000000FFFF
(1708107539.449658) can1 04EF001C#AB4919ECB575F82F
(1708107539.453406) can1 0CEF0100#B020000000625300
(1708107539.458396) can1 18FEF200#0000FFFFFFFF4BFF
(1708107539.459766) can1 04EF001C#694CF5F97770143A
(1708107539.468394) can1 0CF00400#FF7D7D000000FFFF
(1708107539.468964) can1 0CEF1100#CFF74D824A72E3A8
(1708107539.469906) can1 04EF001C#2A4FACE234134D41
(1708107539.473409) can1 18FFDC00#A014010000507819
(1708107539.473999) can1 0CEF0100#B020000000625300
(1708107539.478384) can1 18FFDC00#A10000000024FFA3
(1708107539.478962) can1 0CF00300#DF004FFF00FFFFFF
(1708107539.479996) can1 04EF001C#20524EAF3E4EAF4C
(1708107539.483373) can1 18FFDC00#A2FFFF6E921B00FF
(1708107539.488390) can1 0CF00400#FF7D7D000000FFFF
(1708107539.490069) can1 04EF001C#E354BBB1FD085A12
(1708107539.493402) can1 0CEF0100#B020000000625300
(1708107539.498394) can1 18FEF100#FF0000F0FFC71FFF
(1708107539.500186) can1 04EF001C#78573C6A666BDDA9
(1708107539.508384) can1 0CF00400#FF7D7D000000FFFF
(1708107539.510298) can1 04EF001C#395A176F24A6F56C
(1708107539.513403) can1 0CEF0100#B020000000625300
(1708107539.518359) can1 0CEF1100#94E1699F35975E92
(1708107539.520414) can1 04EF001C#FB5CE379E6A0017A
(1708107539.523386) can1 18FFDC00#C014010000507819
(1708107539.523978) can1 18FF1080#000000FFFFFFFD00
(1708107539.524809) can1 18FF1180#0300FCFDFFFF02FF
(1708107539.525819) can1 18FF1380#000000003FD5C006
(1708107539.528372) can1 18FFDC00#C10000000024FFA3
(1708107539.528961) can1 0CF00300#DF004FFF00FFFFFF
(1708107539.529530) can1 0CF00400#FF7D7D000000FFFF
(1708107539.530551) can1 04EF001C#1940E67504BC0476
(1708107539.533381) can1 18FFDC00#C2FFFF6E921B00FF
(1708107539.533985) can1 09F20000#000000FFFFFFFFFF
(1708107539.534562) can1 0CEF0100#B020000000625300
(1708107539.540649) can1 04EF001C#4442A99F59BE4B9C
(1708107539.548397) can1 0CF00400#FF7D7D000000FFFF
(1708107539.550748) can1 04EF001C#3945EF7024B90D73
(1708107539.553408) can1 0CEF0100#B020000000625300
(1708107539.557390) can1 18FF1C17#0001500000000000
(1708107539.558396) can1 18FEF200#0000FFFFFFFF4BFF
(1708107539.560867) can1 04EF001C#F9473972E4BBDB71
(1708107539.568388) can1 0CF00400#FF7D7D000000FFFF
(1708107539.568929) can1 0CEF1100#57E57F4679FA0430
(1708107539.570980) can1 04EF001C#F24A5A27EF96B804
(1708107539.573400) can1 18FFDC00#E014010000507819
(1708107539.574018) can1 0CEF0100#B020000000625300
(1708107539.578382) can1 18FFDC00#E10000000024FFA3
(1708107539.578975) can1 0CF00300#DF004FFF00FFFFFF
(1708107539.581085) can1 04EF001C#784DEC7065B10E73
(1708107539.583360) can1 18FFDC00#E2FFFF6E921B00FF
(1708107539.588388) can1 0CF00400#FF7D7D000000FFFF
(1708107539.591194) can1 04EF001C#05507A85188C98A6
(1708107539.593402) can1 0CEF0100#B020000000625300
(1708107539.598395) can1 18FEF100#FF0000F0FFC71FFF
(1708107539.601311) can1 04EF001C#C552AC87D8AE4E84
(1708107539.608375) can1 0CF00400#FF7D7D000000FFFF
(1708107539.611414) can1 04EF001C#8655D5989BE937DB
(1708107539.613406) can1 0CEF0100#B020000000625300
(1708107539.618354) can1 0CEF1100#789765E1CAF3C274
(1708107539.621534) can1 04EF001C#4458798559849BA6
(1708107539.623387) can1 18FFDC00#0014010000507819
(1708107539.624840) can1 18FF1080#000000FFFFFFFD00
(1708107539.625817) can1 18FF1180#0300FCFDFFFF02FF
(1708107539.628380) can1 18FFDC00#010000000024FFA3
(1708107539.628954) can1 0CF00300#DF004FFF00FFFFFF
(1708107539.629537) can1 0CF00400#FF7D7D000000FFFF
(1708107539.631640) can1 04EF001C#395B1F6E24C7FD0D
(1708107539.633383) can1 18FFDC00#02FFFF6E921B00FF
(1708107539.633994) can1 09F20000#000000FFFFFFFFFF
(1708107539.634578) can1 0CEF0100#B020000000625300
(1708107539.641764) can1 04EF001C#C45DD580D9E137C3
(1708107539.648389) can1 0CF00400#FF7D7D000000FFFF
(1708107539.651867) can1 04EF001C#85407E9598DC9CF6
(1708107539.653405) can1 18FEEF00#FFFFFF00FFFFFFFF
(1708107539.653960) can1 0CEF0100#B020000000625300
(1708107539.658400) can1 18FEF200#0000FFFFFFFF4AFF
(1708107539.661981) can1 04EF001C#4443A19E59DF43FD
(1708107539.668390) can1 0CF00400#FF7D7D000000FFFF
(1708107539.669038) can1 0CEF1100#A68AFC960BA40BF9
(1708107539.672103) can1 04EF001C#0546CA93183A2810
(1708107539.673389) can1 18FFDC00#2014010000507B19
(1708107539.673985) can1 0CEF0100#B020000000625300
(1708107539.678384) can1 18FFDC00#210000000024FFA3
(1708107539.678975) can1 0CF00300#DF004FFF00FFFFFF
(1708107539.682204) can1 04EF001C#C4487D95D9149F36
(1708107539.683359) can1 18FFDC00#22FFFF6E921B00FF
(1708107539.683946) can1 0CEF1700#0104FFFF0000FFFF
(1708107539.688392) can1 0CF00400#FF7D7D000000FFFF
(1708107539.692301) can1 04EF001C#864B25869B17C725
(1708107539.693398) can1 0CEF0100#B020000000625300
(1708107539.693984) can1 18FEF600#FFFF3C2AFFFFFFFF
(1708107539.698397) can1 18FEF100#FF0000F0FFC71FFF
(1708107539.702427) can1 04EF001C#454EC89B58122A38
(1708107539.708387) can1 0CF00400#FF7D7D000000FFFF
(1708107539.712533) can1 04EF001C#0651719C1B0D933F
(1708107539.713427) can1 0CEF0100#B020000000625300
(1708107539.718361) can1 0CEF1100#D3BA62733A1FCF38
(1708107539.720666) can1 09F8021C#FFFC00000000FFFF
(1708107539.721678) can1 09F8011C#0000000000000000
(1708107539.722666) can1 04EF001C#01545EA11C08BC02
(1708107539.723478) can1 18FFDC00#4014010000507B19
(1708107539.724001) can1 19FA031C#FFC2000000000000
(1708107539.724781) can1 0DF0101C#FF00000000000000
(1708107539.725324) can1 18FF1080#000000FFFFFFFD00
(1708107539.725913) can1 18FEE81C#FFFFFFFFFFFFFFFF
(1708107539.726741) can1 19FA041C#E01BFFFF02100000
(1708107539.727340) can1 18FF1180#0300FCFDFFFF02FF
(1708107539.727914) can1 19FA041C#E100000000FFFFFF
(1708107539.728504) can1 0CF00300#DF004FFF00FFFFFF
(1708107539.729058) can1 0CF00400#FF7D7D000000FFFF
(1708107539.729636) can1 18FF1380#000000003FD5C006
(1708107539.730217) can1 18FFDC00#410000000024FFA3
(1708107539.730806) can1 19FA041C#E2FFFF2C00000000
(1708107539.731850) can1 19FA041C#E30000FFFFFFFFFF
(1708107539.732758) can1 04EF001C#625726BA7F0BC419
(1708107539.733359) can1 18FFDC00#42FFFF6E921B00FF
(1708107539.733957) can1 09F20000#000000FFFFFFFFFF
(1708107539.734599) can1 0CEF0100#B020000000625300
(1708107539.742910) can1 04EF001C#4459718459059327
(1708107539.748391) can1 0CF00400#FF7D7D000000FFFF
(1708107539.752997) can1 04EF001C#065C19911BC0FBF2
(1708107539.753624) can1 0CEF0100#B020000000625300
(1708107539.758401) can1 18FEF200#0000FFFFFFFF37FF
(1708107539.763095) can1 04EF001C#C55ECC8BD8222E08
(1708107539.768384) can1 0CF00400#FF7D7D000000FFFF
(1708107539.768950) can1 0CEF1100#1CBA57CB76739E9B
(1708107539.773203) can1 04EF001C#874174849A1D9627
(1708107539.773810) can1 0CEF0100#B020000000625300
(1708107539.774392) can1 18FFDC00#6014010000507B19
(1708107539.778376) can1 18FFDC00#610000000024FFA3
(1708107539.778955) can1 0CF00300#DF004FFF00FFFFFF
(1708107539.783317) can1 04EF001C#4444999959787B5A
(1708107539.783858) can1 18FFDC00#62FFFF6E921B00FF
(1708107539.788389) can1 0CF00400#FF7D7D000000FFFF
(1708107539.788981) can1 18FF1C17#0001500000000000
(1708107539.793398) can1 0CEF0100#B020000000625300
(1708107539.793997) can1 04EF001C#0547C292187B2051
(1708107539.798391) can1 18FEF100#FF0000F0FFC71FFF
(1708107539.803542) can1 04EF001C#C4497594D9559777
(1708107539.808387) can1 0CF00400#FF7D7D000000FFFF
(1708107539.813403) can1 0CEF0100#B020000000625300
(1708107539.813940) can1 04EF001C#854C1E999850FC7A
(1708107539.818350) can1 0CEF1100#57B4B7503BB43636
(1708107539.823389) can1 18FFDC00#8014010000507B19
(1708107539.823922) can1 04EF001C#454FC09A58732259
(1708107539.825825) can1 18FF1080#000000FFFFFFFD00
(1708107539.826818) can1 18FF1180#0400FCFDFFFF02FF
(1708107539.828366) can1 18FFDC00#810000000024FFA3
(1708107539.828943) can1 0CF00300#DF004FFF00FFFFFF
(1708107539.829575) can1 0CF00400#FF7D7D000000FFFF
(1708107539.833384) can1 18FFDC00#82FFFF6E921B00FF
(1708107539.833917) can1 04EF001C#05526A87182E8804
(1708107539.834513) can1 09F20000#000000FFFFFFFFFF
(1708107539.835106) can1 0CEF0100#B020000000625300
(1708107539.843999) can1 04EF001C#C4549D89D9287F0A
(1708107539.848389) can1 0CF00400#FF7D7D000000FFFF
(1708107539.848970) can1 18FECA00#44FF00000000FFFF
(1708107539.853389) can1 0CEF0100#B020000000625300
(1708107539.854139) can1 04EF001C#8557C682982B2401
(1708107539.858401) can1 18FEF200#0000FFFFFFFF37FF
(1708107539.864207) can1 04EF001C#465A6B975BE689D4
(1708107539.868376) can1 0CF00400#FF7D7D000000FFFF
(1708107539.868934) can1 0CEF1100#88A8666F46E0A21B
(1708107539.873396) can1 18FFDC00#A014010000507C19
(1708107539.874007) can1 0CEF0100#B020000000625300
(1708107539.874539) can1 04EF001C#055D128818E1F0CB
(1708107539.878389) can1 18FFDC00#A10000000024FFA3
(1708107539.878946) can1 0CF00300#DF004FFF00FFFFFF
(1708107539.883379) can1 18FFDC00#A2FFFF6E921B00FF
(1708107539.884448) can1 04EF001C#C55FC48AD8A32689
(1708107539.888382) can1 0CF00400#FF7D7D000000FFFF
(1708107539.891601) can1 18FF1CF3#0000000000000000
(1708107539.893401) can1 0CEF0100#B020000000625300
(1708107539.894555) can1 04EF001C#86426D8F985E8C6C
(1708107539.898396) can1 18FEF100#FF0000F0FFC71FFF
(1708107539.904658) can1 04EF001C#444591985A19703B
(1708107539.908383) can1 0CF00400#FF7D7D000000FFFF
(1708107539.913395) can1 0CEF0100#B020000000625300
(1708107539.914783) can1 04EF001C#2A4894E534147546
(1708107539.918347) can1 0CEF1100#04DA51101C473BD2
(1708107539.923388) can1 18FFDC00#C014010000507B19
(1708107539.924906) can1 04EF001C#EA4A42E7F4D6A384
(1708107539.925824) can1 18FF1080#000000FFFFFFFD00
(1708107539.926870) can1 18FF1180#0400FCFDFFFF02FF
(1708107539.927810) can1 18FF1380#000000003FD5C006
(1708107539.928404) can1 0CF00400#FF7D7D000000FFFF
(1708107539.928973) can1 0CF00300#DF004FFF00FFFFFF
(1708107539.929540) can1 18FFDC00#C10000000024FFA3
(1708107539.933380) can1 18FFDC00#C2FFFF6E921B00FF
(1708107539.933961) can1 09F20000#000000FFFFFFFFFF
(1708107539.934535) can1 0CEF0100#B020000000625300
(1708107539.935111) can1 04EF001C#E24D72A0FCD193C3
(1708107539.945112) can1 04EF001C#4450398D5AECD8CE
(1708107539.948378) can1 0CF00400#FF7D7D000000FFFF
(1708107539.951609) can1 18FF1CF3#0000000000000000
(1708107539.953406) can1 0CEF0100#B020000000625300
(1708107539.955221) can1 04EF001C#39535F6627EFBE25
(1708107539.958401) can1 18FEF200#0000FFFFFFFF37FF
(1708107539.960341) can1 0CEF0017#8104FFFF0000FFFF
(1708107539.965321) can1 04EF001C#C5559480DB8975A3
(1708107539.968378) can1 0CF00400#FF7D7D000000FFFF
(1708107539.968936) can1 0CEF1100#C6DD9F8168A9B8F4
(1708107539.969516) can1 18E8FF00#02FFFFFFFF00EF00
(1708107539.973393) can1 18FFDC00#E014010000507B19
(1708107539.973997) can1 0CEF0100#B020000000625300
(1708107539.975454) can1 04EF001C#E158D9ADFFA438AE
(1708107539.978384) can1 18FFDC00#E10000000024FFA3
(1708107539.978963) can1 0CF00300#DF004FFF00FFFFFF
(1708107539.983372) can1 18FFDC00#E2FFFF6E921B00FF
(1708107539.985540) can1 04EF001C#795B5D6E67A7BC6D
(1708107539.988379) can1 0CF00400#FF7D7D000000FFFF
(1708107539.993386) can1 0CEF0100#B020000000625300
(1708107539.995688) can1 04EF001C#3A5E34732482D550
(1708107539.998391) can1 18FEF100#FF0000F0FFC71FFF
(1708107539.998993) can1 15FD069B#007D73FFFFFFFFFF
(1708107539.999549) can1 0DF50B9B#00FFFFFFFF0000FF
(1708107540.005764) can1 04EF001C#C5403C95DBBCDD96
(1708107540.008376) can1 0CF00400#FF7D7D000000FFFF
(1708107540.013397) can1 0CEF0100#B020000000625300
(1708107540.015875) can1 04EF001C#B9435B76A65FBB95
(1708107540.018363) can1 0CEF1100#90C860B492D50AA2
(1708107540.023392) can1 18FFDC00#0014010000507C19
(1708107540.025999) can1 04EF001C#4446899B5B5A6978
(1708107540.026863) can1 18FF1080#000000FFFFFFFD00
(1708107540.027824) can1 18FF1180#0400FCFDFFFF02FF
(1708107540.028416) can1 0CF00300#DF004FFF00FFFFFF
(1708107540.028991) can1 0CF00400#FF7D7D000000FFFF
(1708107540.029564) can1 18FF1C17#0001500000000000
(1708107540.030202) can1 18FFDC00#010000000024FFA3
(1708107540.033377) can1 18FFDC00#02FFFF6E921B00FF
(1708107540.033963) can1 09F20000#000000FFFFFFFFFF
(1708107540.034542) can1 0CEF0100#B020000000625300
(1708107540.036129) can1 04EF001C#2A499CE434B57DE7
(1708107540.046215) can1 04EF001C#C54B649EDB9785BD
(1708107540.048411) can1 0CF00400#FF7D7D000000FFFF
(1708107540.051602) can1 0CEF0017#811B00000032FFFF
(1708107540.053404) can1 0CEF0100#B020000000625300
(1708107540.056323) can1 04EF001C#854E0E9B9B92EFB8
(1708107540.058391) can1 18FEF200#0000FFFFFFFF37FF
(1708107540.058995) can1 18E8FF00#02FFFFFFFF00EF00
(1708107540.066449) can1 04EF001C#4451318C5AEDD0CF
(1708107540.068379) can1 0CF00400#FF7D7D000000FFFF
(1708107540.068928) can1 0CEF1100#59CC2BDD54CEE73B
(1708107540.071609) can1 18FF1CF3#0000000000000000
(1708107540.073407) can1 18FFDC00#2014010000507C19
(1708107540.073992) can1 0CEF0100#B020000000625300
(1708107540.076550) can1 04EF001C#05545A811B88BBA2
(1708107540.078371) can1 18FFDC00#210000000024FFA3
(1708107540.078984) can1 0CF00300#DF004FFF00FFFFFF
(1708107540.083373) can1 18FFDC00#22FFFF6E921B00FF
(1708107540.086680) can1 04EF001C#C5568C83DBEA6DC0
(1708107540.088380) can1 0CF00400#FF7D7D000000FFFF
(1708107540.091607) can1 0CEF0017#811B00000032FFFF
(1708107540.093403) can1 0CEF0100#B020000000625300
(1708107540.096769) can1 04EF001C#8559B68C9BC557EF
(1708107540.098382) can1 18FEF100#FF0000F0FFC71FFF
(1708107540.098974) can1 18E8FF00#02FFFFFFFF00EF00
(1708107540.106891) can1 04EF001C#445C59815AC0B8E2
(1708107540.108381) can1 0CF00400#FF7D7D000000FFFF
(1708107540.111607) can1 0CEF0017#811B00000032FFFF
(1708107540.113403) can1 0CEF0100#B020000000625300
(1708107540.117014) can1 04EF001C#065F019218E3E0D1
(1708107540.118370) can1 0CEF1100#2FFDFDE0E7F3572E
(1708107540.118965) can1 18E8FF00#02FFFFFFFF00EF00
(1708107540.123397) can1 18FFDC00#4014010000507C19
(1708107540.126828) can1 18FF1080#000000FFFFFFFD00
(1708107540.127366) can1 04EF001C#C441359CDA3DD41F
(1708107540.127958) can1 18FF1180#0400FCFDFFFF02FF
(1708107540.128557) can1 0CF00300#DF004FFF00FFFFFF
(1708107540.129164) can1 0CF00400#FF7D7D000000FFFF
(1708107540.129714) can1 18FF1380#000000003FD5C006
(1708107540.130305) can1 18FFDC00#4100000000A4FFA3
(1708107540.131613) can1 0CEF0017#811B00000032FFFF
(1708107540.133370) can1 18FFDC00#42FFFF6E921B00FF
(1708107540.133958) can1 09F20000#000000FFFFFFFFFF
(1708107540.134536) can1 0CEF0100#B020000000625300
(1708107540.137231) can1 04EF001C#85445E919BD8BFF2
(1708107540.138388) can1 09F20100#C016000200FFFFAF
(1708107540.138969) can1 18E8FF00#02FFFFFFFF00EF00
(1708107540.143369) can1 09F20100#C172D10400006E92
(1708107540.143950) can1 18FEE500#36270000FFFFFFFF
(1708107540.147345) can1 04EF001C#4447819A5ADB60F9
(1708107540.148385) can1 0CF00400#FF7D7D000000FFFF
(1708107540.148988) can1 09F20100#C21B00FFFFFFFF00
(1708107540.149542) can1 18FEEE00#3CFFFFFFFFFF42FF
(1708107540.151610) can1 0CEF0017#811B00000032FFFF
(1708107540.153396) can1 09F20100#C30100FFFFFFFFFF
(1708107540.153990) can1 0CEF0100#B020000000625300
(1708107540.154555) can1 18FEEF00#FFFFFF00FFFFFFFF
(1708107540.157450) can1 04EF001C#064AA98718D648E4
(1708107540.158399) can1 18FEF200#0000FFFFFFFF37FF
(1708107540.158978) can1 18E8FF00#02FFFFFFFF00EF00
(1708107540.163387) can1 18FEF700#FFFF1A01F600F800
(1708107540.167551) can1 04EF001C#C44C5D91DAD0BCF2
(1708107540.168388) can1 0CF00400#FF7D7D000000FFFF
(1708107540.168940) can1 0CEF1100#FFF0E7633F3E4DEB
(1708107540.171615) can1 0CEF0017#811B00000032FFFF
(1708107540.173392) can1 18FFDC00#6014010000507B19
(1708107540.174001) can1 0CEF0100#B020000000625300
(1708107540.177675) can1 04EF001C#854F069A9B33E719
(1708107540.178378) can1 18FFDC00#6100000000A4FFA3
(1708107540.178980) can1 0CF00300#DF004FFF00FFFFFF
(1708107540.179553) can1 18E8FF00#02FFFFFFFF00EF00
(1708107540.183362) can1 18FFDC00#62FFFF6E921B00FF
(1708107540.183957) can1 0CEF1700#019B00000032FFFF
(1708107540.187781) can1 04EF001C#4452298F5A0EC82C
(1708107540.188410) can1 0CF00400#FF7D7D000000FFFF
(1708107540.189007) can1 18FEFC00#FFA3FFFFFFFFFFFF
(1708107540.191623) can1 18FF1CF3#0000000000000000
(1708107540.193394) can1 0CEF0100#B020000000625300
(1708107540.193960) can1 18FEF600#FFFF3C2AFFFFFFFF
(1708107540.197902) can1 04EF001C#065551981809B03B
(1708107540.198499) can1 18FEF100#FF0000F0FFC71FFF
(1708107540.208010) can1 04EF001C#C457858ADA0B6429
(1708107540.208580) can1 0CF00400#FF7D7D000000FFFF
(1708107540.211613) can1 0CEF0017#811B00000032FFFF
(1708107540.213390) can1 0CEF0100#B020000000625300
(1708107540.218128) can1 04EF001C#855AAE8F9B264F0C
(1708107540.218658) can1 0CEF1100#AAE6C08EC3440F4D
(1708107540.219248) can1 18E8FF00#02FFFFFFFF00EF00
(1708107540.223220) can1 09F8021C#FFFC00000000FFFF
(1708107540.223820) can1 18FFDC00#8014010000507C19
(1708107540.224369) can1 09F8011C#0000000000000000
(1708107540.225272) can1 19FA031C#FFC2000000000000
(1708107540.226253) can1 0DF0101C#FF00000000000000
(1708107540.227258) can1 18FEE81C#FFFFFFFFFFFFFFFF
(1708107540.227848) can1 18FF1080#000000FFFFFFFD00
(1708107540.228421) can1 04EF001C#965D851088216493
(1708107540.228971) can1 0CF00300#DF004FFF00FFFFFF
(1708107540.229547) can1 0CF00400#FF7D7D000000FFFF
(1708107540.230130) can1 18FF1180#0400FCFDFFFF02FF
(1708107540.230726) can1 18FFDC00#8100000000A4FFA3
(1708107540.231311) can1 19FA041C#001BFFFF02100000
(1708107540.231863) can1 0CEF0017#811B00000032FFFF
(1708107540.232456) can1 19FA041C#0100000000FFFFFF
(1708107540.233359) can1 19FA041C#02FFFF2C00000000
(1708107540.233956) can1 09F20000#000000FFFFFFFFFF
(1708107540.234537) can1 0CEF0100#B020000000625300
(1708107540.235102) can1 18FFDC00#82FFFF6E921B00FF
(1708107540.235698) can1 19FA041C#030000FFFFFFFFFF
(1708107540.238360) can1 04EF001C#0540FA951B3C1B16
(1708107540.238934) can1 18E8FF00#02FFFFFFFF00EF00
(1708107540.248391) can1 0CF00400#FF7D7D000000FFFF
(1708107540.248929) can1 04EF001C#C4422D9FDA3ECC1C
(1708107540.251614) can1 0CEF0017#811B00000032FFFF
(1708107540.253402) can1 0CEF0100#B020000000625300
(1708107540.258399) can1 18FEF200#0000FFFFFFFF37FF
(1708107540.258967) can1 04EF001C#F0452038EE19C19B
(1708107540.259522) can1 18E8FF00#02FFFFFFFF00EF00
(1708107540.268389) can1 0CF00400#FF7D7D000000FFFF
(1708107540.268951) can1 04EF001C#AF4815CDB114F46E
(1708107540.269461) can1 0CEF1100#6FE6F7E6B9A43DDA
(1708107540.271619) can1 0CEF0017#811B00000032FFFF
(1708107540.273394) can1 18FFDC00#A014010000507B19
(1708107540.273975) can1 0CEF0100#B020000000625300
(1708107540.278388) can1 18FFDC00#A100000000A4FFA3
(1708107540.278921) can1 04EF001C#934B302E8D17D18D
(1708107540.279510) can1 0CF00300#DF004FFF00FFFFFF
(1708107540.280098) can1 18E8FF00#02FFFFFFFF00EF00
(1708107540.280695) can1 0DF50B9B#01FFFFFFFF0000FF
(1708107540.283365) can1 18FFDC00#A2FFFF6E921B00FF
(1708107540.288387) can1 0CF00400#FF7D7D000000FFFF
(1708107540.288955) can1 04EF001C#8B4E00EB9512E148
(1708107540.291617) can1 0CEF0017#811B00000032FFFF
(1708107540.293406) can1 0CEF0100#B020000000625300
(1708107540.298391) can1 18FEF100#FF0000F0FFC71FFF
(1708107540.298987) can1 18E8FF00#02FFFFFFFF00EF00
(1708107540.299511) can1 04EF001C#EF5097D5F10C7676
(1708107540.308396) can1 0CF00400#FF7D7D000000FFFF
(1708107540.309143) can1 04EF001C#4453218E5A2FC00D
(1708107540.311630) can1 18FF1CF3#0000000000000000
(1708107540.313402) can1 0CEF0100#B020000000625300
(1708107540.318365) can1 0CEF1100#579180388407EA2A
(1708107540.319252) can1 04EF001C#05564A831BCAABE0
(1708107540.323377) can1 18FFDC00#C014010000507B19
(1708107540.327841) can1 18FF1080#000000FFFFFFFD00
(1708107540.328438) can1 0CF00300#DF004FFF00FFFFFF
(1708107540.328990) can1 0CF00400#FF7D7D000000FFFF
(1708107540.329565) can1 04EF001C#C458FD85DAC41CE6
(1708107540.330151) can1 18FF1180#0400FCFDFFFF02FF
(1708107540.330742) can1 18FFDC00#C100000000A4FFA3
(1708107540.331280) can1 18FF1380#000000003FD5C006
(1708107540.331907) can1 0CEF0017#811B00000032FFFF
(1708107540.333375) can1 18FFDC00#C2FFFF6E921B00FF
(1708107540.333970) can1 09F20000#000000FFFFFFFFFF
(1708107540.334540) can1 0CEF0100#B020000000625300
(1708107540.338406) can1 18E8FF00#02FFFFFFFF00EF00
(1708107540.339477) can1 04EF001C#865BA59698C744F5
(1708107540.348375) can1 0CF00400#FF7D7D000000FFFF
(1708107540.349572) can1 04EF001C#AF5EA5DBB1224458
(1708107540.351627) can1 0CEF0017#811B00000032FFFF
(1708107540.353402) can1 0CEF0100#B020000000625300
(1708107540.358398) can1 18FEF200#0000FFFFFFFF37FF
(1708107540.358980) can1 18E8FF00#02FFFFFFFF00EF00
(1708107540.359749) can1 04EF001C#2A41DCEC341D3D4F
(1708107540.368383) can1 0CF00400#FF7D7D000000FFFF
(1708107540.368913) can1 0CEF1100#9695967142F54C5C
(1708107540.369510) can1 18FF1C17#0001500000000000
(1708107540.370077) can1 04EF001C#EA430AEEF47FEB2D
(1708107540.371624) can1 0CEF0017#811B00000032FFFF
(1708107540.373404) can1 18FFDC00#E014010000507C19
(1708107540.373968) can1 0CEF0100#B020000000625300
(1708107540.378388) can1 18FFDC00#E100000000A4FFA3
(1708107540.378969) can1 0CF00300#DF004FFF00FFFFFF
(1708107540.379544) can1 15FD069B#017973FFFFFFFFFF
(1708107540.380077) can1 04EF001C#AA4660EBB47A8128
(1708107540.380645) can1 18E8FF00#02FFFFFFFF00EF00
(1708107540.383356) can1 18FFDC00#E2FFFF6E921B00FF
(1708107540.388392) can1 0CF00400#FF7D7D000000FFFF
(1708107540.390003) can1 04EF001C#A14913BCBC95F19F
(1708107540.391631) can1 0CEF0017#811B00000032FFFF
(1708107540.393389) can1 0CEF0100#B020000000625300
(1708107540.398380) can1 18FEF100#FF0000F0FFC71FFF
(1708107540.398966) can1 18E8FF00#02FFFFFFFF00EF00
(1708107540.400149) can1 04EF001C#EC4C74D1F1D096B2
(1708107540.408385) can1 0CF00400#FF7D7D000000FFFF
(1708107540.410240) can1 04EF001C#F84E7073E53292F0
(1708107540.411627) can1 0CEF0017#811B00000032FFFF
(1708107540.413406) can1 0CEF0100#B020000000625300
(1708107540.418362) can1 0CEF1100#FABA361BCCFDD327
(1708107540.418990) can1 18E8FF00#02FFFFFFFF00EF00
(1708107540.420384) can1 04EF001C#4F5222D7522EC054
(1708107540.423383) can1 18FFDC00#0014010000507C19
(1708107540.428368) can1 18FFDC00#0100000000A4FFA3
(1708107540.428960) can1 0CF00300#DF004FFF00FFFFFF
(1708107540.429528) can1 0CF00400#FF7D7D000000FFFF
(1708107540.430112) can1 18FF1080#000000FFFFFFFD00
(1708107540.430679) can1 04EF001C#A154FBA1BC681962
(1708107540.431269) can1 18FF1180#0400FCFDFFFF02FF
(1708107540.431848) can1 18FF1CF3#0000000000000000
(1708107540.433385) can1 18FFDC00#02FFFF6E921B00FF
(1708107540.433977) can1 09F20000#000000FFFFFFFFFF
(1708107540.434549) can1 0CEF0100#B020000000625300
(1708107540.440582) can1 04EF001C#6F572BD2726BC911
(1708107540.448393) can1 0CF00400#FF7D7D000000FFFF
(1708107540.450675) can1 04EF001C#F859C864E5452A87
(1708107540.451635) can1 0CEF0017#811B00000032FFFF
(1708107540.453401) can1 0CEF0100#B020000000625300
(1708107540.458397) can1 18FEF200#0000FFFFFFFF37FF
(1708107540.458967) can1 18E8FF00#02FFFFFFFF00EF00
(1708107540.460855) can1 04EF001C#835D90B89FA173BB
(1708107540.468386) can1 0CF00400#FF7D7D000000FFFF
(1708107540.468953) can1 0CEF1100#C6BB70FB35D0F3EE
(1708107540.470900) can1 04EF001C#B15FB32AADE35069
(1708107540.471643) can1 0CEF0017#810400000000FFFF
(1708107540.473403) can1 18FFDC00#2014010000507C19
(1708107540.473995) can1 0CEF0100#B020000000625300
(1708107540.478385) can1 18FFDC00#2100000000A4FFA3
(1708107540.478964) can1 0CF00300#DF004FFF00FFFFFF
(1708107540.479524) can1 18E8FF00#02FFFFFFFF00EF00
(1708107540.481050) can1 04EF001C#F2421A2FEEDEF94C
(1708107540.483356) can1 18FFDC00#22FFFF6E921B00FF
(1708107540.488391) can1 0CF00400#FF7D7D000000FFFF
(1708107540.491120) can1 04EF001C#C4441D99D818FE3A
(1708107540.491730) can1 18FF1CF3#0000000000000000
(1708107540.493402) can1 0CEF0100#B020000000625300
(1708107540.498393) can1 18FEF100#FF0000F0FFC71FFF
(1708107540.501221) can1 04EF001C#EE472ECAF27BCD09
(1708107540.508389) can1 0CF00400#FF7D7D000000FFFF
(1708107540.511342) can1 04EF001C#434AEEAF5F560D4C
(1708107540.513405) can1 0CEF0100#B020000000625300
(1708107540.518362) can1 0CEF1100#0FB54412CE346712
(1708107540.521452) can1 04EF001C#6D4DF9D871511A3B
(1708107540.523407) can1 18FFDC00#4014010000507C19
(1708107540.528372) can1 18FFDC00#4100000000A4FFA3
(1708107540.528960) can1 0CF00300#DF004FFF00FFFFFF
(1708107540.529523) can1 0CF00400#FF7D7D000000FFFF
(1708107540.530179) can1 18FF1080#000000FFFFFFFD00
(1708107540.530831) can1 18FF1180#0400FCFDFFFF02FF
(1708107540.531598) can1 04EF001C#F74F770AEB7394C9
(1708107540.532165) can1 18FF1380#000000003FD5C006
(1708107540.533359) can1 18FFDC00#42FFFF6E921B00FF
(1708107540.533968) can1 09F20000#000000FFFFFFFFFF
(1708107540.534535) can1 0CEF0100#B020000000625300
(1708107540.541685) can1 04EF001C#EF5287D7F36E6414
(1708107540.548390) can1 0CF00400#FF7D7D000000FFFF
(1708107540.551651) can1 18FF1CF3#0000000000000000
(1708107540.552196) can1 04EF001C#435516B05F69F573
(1708107540.553390) can1 0CEF0100#B020000000625300
(1708107540.558398) can1 18FEF200#0000FFFFFFFF37FF
(1708107540.561913) can1 04EF001C#25581B8D3944F86E
(1708107540.568386) can1 0CF00400#FF7D7D000000FFFF
(1708107540.568948) can1 0CEF1100#5FA8FA95ADDC700A
(1708107540.572011) can1 04EF001C#C45AED87D8460E64
(1708107540.573432) can1 18FFDC00#6014010000507C19
(1708107540.573965) can1 0CEF0100#B020000000625300
(1708107540.578383) can1 18FFDC00#6100000000A4FFA3
(1708107540.578990) can1 0CF00300#DF004FFF00FFFFFF
(1708107540.582124) can1 04EF001C#855D96889941756B
(1708107540.583354) can1 18FFDC00#62FFFF6E921B00FF
(1708107540.588393) can1 0CF00400#FF7D7D000000FFFF
(1708107540.592232) can1 04EF001C#4440B99D585C5A7E
(1708107540.593390) can1 0CEF0100#B020000000625300
(1708107540.598253) can1 18FF1C17#0001500000000000
(1708107540.598847) can1 18FEF100#FF0000F0FFC71FFF
(1708107540.602358) can1 04EF001C#0543E296195F0175
(1708107540.608389) can1 0CF00400#FF7D7D000000FFFF
(1708107540.612455) can1 04EF001C#C4451598D859F67B
(1708107540.613398) can1 0CEF0100#B020000000625300
(1708107540.618358) can1 0CEF1100#6CD877D29D6ACD53
(1708107540.622571) can1 04EF001C#85483E9D9EB4DA9E
(1708107540.623481) can1 18FFDC00#8014010000507C19
(1708107540.628365) can1 18FFDC00#8100000000A4FFA3
(1708107540.628944) can1 0CF00300#DF004FFF00FFFFFF
(1708107540.629528) can1 0CF00400#FF7D7D000000FFFF
(1708107540.630128) can1 18FF1080#000000FFFFFFFD00
(1708107540.630848) can1 18FF1180#0400FCFDFFFF02FF
(1708107540.632696) can1 04EF001C#A44B0696BFB7E295
(1708107540.633399) can1 18FFDC00#82FFFF6E921B00FF
(1708107540.633974) can1 09F20000#000000FFFFFFFFFF
(1708107540.634567) can1 0CEF0100#B020000000625300
(1708107540.642796) can1 04EF001C#044E8B931FB26F90
(1708107540.648390) can1 0CF00400#FF7D7D000000FFFF
(1708107540.651655) can1 18FF1CF3#0000000000000000
(1708107540.652912) can1 04EF001C#C550BC85DEAC5886
(1708107540.653493) can1 0CEF0100#B020000000625300
(1708107540.654081) can1 18FEEF00#FFFFFF00FFFFFFFF
(1708107540.658398) can1 18FEF200#0000FFFFFFFF37FF
(1708107540.663022) can1 04EF001C#8453E78E9FEF03CD
(1708107540.668384) can1 0CF00400#FF7D7D000000FFFF
(1708107540.668947) can1 0CEF1100#29D864BA72B00B6D
(1708107540.673132) can1 04EF001C#43560EB358EAEAF0
(1708107540.673729) can1 0CEF0100#B020000000625300
(1708107540.674288) can1 18FFDC00#A014010000507C19
(1708107540.678389) can1 18FFDC00#A100000000A4FFA3
(1708107540.678959) can1 0CF00300#DF004FFF00FFFFFF
(1708107540.683250) can1 04EF001C#045933841FE5D7C7
(1708107540.683831) can1 0CEF1700#018400000000FFFF
(1708107540.684417) can1 18FFDC00#A2FFFF6E921B00FF
(1708107540.688373) can1 0CF00400#FF7D7D000000FFFF
(1708107540.693368) can1 04EF001C#C35BE2BED8E706FD
(1708107540.693972) can1 0CEF0100#B020000000625300
(1708107540.694517) can1 18FEF600#FFFF3C2AFFFFFFFF
(1708107540.698394) can1 18FEF100#FF0000F0FFC71FFF
(1708107540.703451) can1 04EF001C#855E8E8B9EE26AC8
(1708107540.708383) can1 0CF00400#FF7D7D000000FFFF
(1708107540.713406) can1 0CEF0100#B020000000625300
(1708107540.713958) can1 04EF001C#4541B0945EDD54F7
(1708107540.718364) can1 0CEF1100#E4CA4196A0DDD6BA
(1708107540.723379) can1 18FFDC00#C014010000507C19
(1708107540.723989) can1 04EF001C#0444DB991FF83FDA
(1708107540.725748) can1 09F8021C#FFFC00000000FFFF
(1708107540.726766) can1 09F8011C#0000000000000000
(1708107540.727787) can1 19FA031C#FFC2000000000000
(1708107540.728385) can1 18FFDC00#C100000000A4FFA3
(1708107540.728992) can1 0CF00300#DF004FFF00FFFFFF
(1708107540.729577) can1 0CF00400#FF7D7D000000FFFF
(1708107540.730175) can1 0DF0101C#FF00000000000000
(1708107540.730776) can1 18FF1080#000000FFFFFFFD00
(1708107540.731291) can1 18FEE81C#FFFFFFFFFFFFFFFF
(1708107540.731940) can1 18FF1180#0400FCFDFFFF02FF
(1708107540.732834) can1 18FF1380#000000003FD5C006
(1708107540.733424) can1 19FA041C#206FFFFF09010000
(1708107540.734000) can1 09F20000#000000FFFFFFFFFF
(1708107540.734612) can1 0CEF0100#B020000000625300
(1708107540.735153) can1 04EF001C#8F474CC294FBA881
(1708107540.735695) can1 18FFDC00#C2FFFF6E921B00FF
(1708107540.736269) can1 19FA041C#006FFFFF09010000
(1708107540.736981) can1 19FA041C#0100000000FFFFFF
(1708107540.737937) can1 19FA041C#02FFFF0500000000
(1708107540.738940) can1 19FA041C#030000FFFFFFFFFF
(1708107540.739958) can1 19FA041C#040F000000000000
(1708107540.740959) can1 19FA041C#05FFFFFFFFFF1000
(1708107540.741979) can1 19FA041C#060000000000FFFF
(1708107540.742986) can1 19FA041C#07FFFFFF12000000
(1708107540.743919) can1 04EF001C#344A9A172F967E34
(1708107540.745030) can1 19FA041C#08000000FFFFFFFF
(1708107540.746018) can1 19FA041C#09FF190000000000
(1708107540.747017) can1 19FA041C#0A00FFFFFFFFFF1D
(1708107540.748049) can1 19FA041C#0B000000000000FF
(1708107540.748635) can1 0CF00400#FF7D7D000000FFFF
(1708107540.749211) can1 19FA041C#0CFFFFFFFF2C0000
(1708107540.750104) can1 19FA041C#0D00000000FFFFFF
(1708107540.751079) can1 19FA041C#0EFFFF3000000000
(1708107540.752082) can1 19FA041C#0F0000FFFFFFFFFF
(1708107540.753402) can1 0CEF0100#B020000000625300
(1708107540.754065) can1 04EF001C#434CDEA958B03AAA
(1708107540.758402) can1 18FEF200#0000FFFFFFFF37FF
(1708107540.764140) can1 04EF001C#054F829A19536179
(1708107540.768392) can1 0CF00400#FF7D7D000000FFFF
(1708107540.768948) can1 0CEF1100#A5CE73DF4D148995
(1708107540.771668) can1 18FF1CF3#0000000000000000
(1708107540.773393) can1 18FFDC00#E014010000507C19
(1708107540.773991) can1 0CEF0100#B020000000625300
(1708107540.774513) can1 04EF001C#C351B2B4D8AD56B7
(1708107540.778390) can1 18FFDC00#E100000000A4FFA3
