(1708107955.908232) can1 0CF00400#FF7D7D000000FFFF
(1708107955.908963) can1 18E8FF00#02FFFFFFFF00EF00
(1708107955.910905) can1 04EF001C#6C57D7316DB7D6D5
(1708107955.913273) can1 0CEF0100#B020000000625400
(1708107955.916027) can1 18FF1080#000000FFFFFFFD00
(1708107955.917079) can1 18FF1180#0300FBFDFFFF00FF
(1708107955.918001) can1 18FF1380#000000003FC0C006
(1708107955.918543) can1 0CEF1100#DCDECAC112822455
(1708107955.919194) can1 0CEA1C00#00EE000000000000
(1708107955.919984) can1 18EEFF1C#0204450E00000042
(1708107955.920943) can1 04EF001C#B65A63ECB7BA6208
(1708107955.923199) can1 18FFDC00#C014010000507B19
(1708107955.928193) can1 18FFDC00#C100000000A4FFA3
(1708107955.928757) can1 0CF00300#CF004FFF00FFFFFF
(1708107955.929356) can1 0CF00400#FF7D7D000000FFFF
(1708107955.931040) can1 04EF001C#4D5DA7334CFDA697
(1708107955.933198) can1 18FFDC00#C2FFFF6E921B00FF
(1708107955.933823) can1 09F20000#000000FFFFFFFFFF
(1708107955.934371) can1 0CEF0100#B020000000625400
(1708107955.938861) can1 18FF1CF3#0000000000000000
(1708107955.941163) can1 04EF001C#785F839979FF823D
(1708107955.947250) can1 09F8021C#14FC1E120200FFFF
(1708107955.948205) can1 0CF00400#FF7D7D000000FFFF
(1708107955.948748) can1 09F8011C#AC6D26185E6B5BC1
(1708107955.950292) can1 19FA031C#14D252009D006500
(1708107955.951274) can1 04EF001C#8642927487C293F0
(1708107955.952365) can1 0DF0101C#14F0A34D90E5B32B
(1708107955.953224) can1 0CEF0100#B020000000625400
(1708107955.953814) can1 18FEE81C#4A0D00002064627E
(1708107955.955405) can1 19FA041C#80AB14FF0E017512
(1708107955.956384) can1 19FA041C#81FAC86810FFFFFF
(1708107955.957406) can1 19FA041C#82FFFF05A627D020
(1708107955.958216) can1 18FEF200#0000FFFFFFFF37FF
(1708107955.958822) can1 19FA041C#830410FFFFFFFFFF
(1708107955.960421) can1 19FA041C#840C0D020C7B6C07
(1708107955.961365) can1 04EF001C#B44599E3B5C59867
(1708107955.962458) can1 19FA041C#85FFFFFFFFFF0D82
(1708107955.963452) can1 19FA041C#861476486810FFFF
(1708107955.964463) can1 19FA041C#87FFFFFF0FED172C
(1708107955.965486) can1 19FA041C#88650410FFFFFFFF
(1708107955.966487) can1 19FA041C#89FF10AF0096E100
(1708107955.967512) can1 19FA041C#8A00FFFFFFFFFF12
(1708107955.968230) can1 0CF00400#FF7D7D000000FFFF
(1708107955.968749) can1 0CEF1100#ECD3EF42F3B7C75F
(1708107955.969305) can1 19FA041C#8BB61C3EC63011FF
(1708107955.970533) can1 19FA041C#8CFFFFFFFF14D313
(1708107955.971120) can1 18FF1C17#0000000000000000
(1708107955.971704) can1 04EF001C#6248215E6308201A
(1708107955.972562) can1 19FA041C#8D2E22B80BFFFFFF
(1708107955.973211) can1 18FFDC00#E014010000507B19
(1708107955.973884) can1 0CEF0100#B020000000625400
(1708107955.974374) can1 19FA041C#8EFFFF174E0C2099
(1708107955.975600) can1 19FA041C#8F6C07FFFFFFFFFF
(1708107955.976597) can1 19FA041C#90194E0C748BE40C
(1708107955.977619) can1 19FA041C#91FFFFFFFFFF1AFD
(1708107955.978203) can1 18FFDC00#E100000000A4FFA3
(1708107955.978807) can1 0CF00300#CF004FFF00FFFFFF
(1708107955.979332) can1 19FA041C#920C14CD3C0FFFFF
(1708107955.980651) can1 19FA041C#93FFFFFF1D283CF6
(1708107955.981631) can1 04EF001C#264B7F7D276B7E59
(1708107955.982680) can1 19FA041C#949FA00FFFFFFFFF
(1708107955.983246) can1 18FFDC00#E2FFFF6E921B00FF
(1708107955.983794) can1 19FA041C#95FF2CB61CFC85CC
(1708107955.984719) can1 19FA041C#9610FFFFFFFFFF30
(1708107955.985691) can1 19FA041C#97A91A308E3C0FFF
(1708107955.986740) can1 19FA041C#98FFFFFFFFFFFFFF
(1708107955.988197) can1 0CF00400#FF7D7D000000FFFF
(1708107955.991718) can1 04EF001C#354D5CE3344D5DE7
(1708107955.993225) can1 0CEF0100#B020000000625400
(1708107955.998199) can1 18FEF100#FF0000F5FF11DFFF
(1708107955.998998) can1 0CEF0017#812B8813CD0AFFFF
(1708107956.001836) can1 04EF001C#8750036E8650026A
(1708107956.008199) can1 0CF00400#FF7D7D000000FFFF
(1708107956.008769) can1 18E8FF00#02FFFFFFFF00EF00
(1708107956.011933) can1 04EF001C#4453DE754553DF71
(1708107956.013230) can1 0CEF0100#B020000000625400
(1708107956.017027) can1 18FF1080#000000FFFFFFFD00
(1708107956.018017) can1 18FF1180#0300FBFDFFFF00FF
(1708107956.018627) can1 0CEF1100#B0CCC2A51DDF572B
(1708107956.019155) can1 18FF1CF3#0000000000000000
(1708107956.022059) can1 04EF001C#E0554F53E0B54FB7
(1708107956.023214) can1 18FFDC00#0014010000507B19
(1708107956.028194) can1 18FFDC00#0100000000A4FFA3
(1708107956.028756) can1 0CF00300#CF004FFF00FFFFFF
(1708107956.029359) can1 0CF00400#FF7D7D000000FFFF
(1708107956.032157) can1 04EF001C#A1586456A1B864B2
(1708107956.033200) can1 18FFDC00#02FFFF6E921B00FF
(1708107956.033840) can1 09F20000#000000FFFFFFFFFF
(1708107956.034412) can1 0CEF0100#B020000000625400
(1708107956.042283) can1 04EF001C#875B5B65865B5A61
(1708107956.048202) can1 0CF00400#FF7D7D000000FFFF
(1708107956.052380) can1 04EF001C#225ED348237ED26C
(1708107956.053236) can1 0CEF0100#B020000000625400
(1708107956.058221) can1 18FEF200#0000FFFFFFFF37FF
(1708107956.058956) can1 0CEF0017#812B8813CD0AFFFF
(1708107956.062524) can1 04EF001C#07410F7F06010E3B
(1708107956.068199) can1 0CF00400#FF7D7D000000FFFF
(1708107956.068747) can1 0CEF1100#7CC5FFC7752DB76E
(1708107956.069418) can1 18E8FF00#02FFFFFFFF00EF00
(1708107956.072600) can1 04EF001C#3843218539C32001
(1708107956.073212) can1 18FFDC00#2014010000507B19
(1708107956.073817) can1 0CEF0100#B020000000625400
(1708107956.078204) can1 18FFDC00#2100000000A4FFA3
(1708107956.078808) can1 0CF00300#CF004FFF00FFFFFF
(1708107956.082718) can1 04EF001C#F945D68BF8E5D72F
(1708107956.083302) can1 18FFDC00#22FFFF6E921B00FF
(1708107956.088199) can1 0CF00400#FF7D7D000000FFFF
(1708107956.092813) can1 04EF001C#B748F2F6B6A8F312
(1708107956.093420) can1 0CEF0100#B020000000625400
(1708107956.098215) can1 18FEF100#FF0000F5FF11DFFF
(1708107956.102929) can1 04EF001C#794B228578AB2361
(1708107956.108199) can1 0CF00400#FF7D7D000000FFFF
(1708107956.113040) can1 04EF001C#354E44E034CE4564
(1708107956.113645) can1 0CEF0100#B020000000625400
(1708107956.117049) can1 18FF1080#000000FFFFFFFD00
(1708107956.118018) can1 18FF1180#0300FBFDFFFF00FF
(1708107956.118576) can1 0CEF1100#0AFC69F8D41217E9
(1708107956.119152) can1 18FF1380#000000003FC0C006
(1708107956.119743) can1 18FF1CF3#0000000000000000
(1708107956.123186) can1 04EF001C#F9507E9EF8F07F3A
(1708107956.123781) can1 18FFDC00#4014010000507B19
(1708107956.128188) can1 18FFDC00#4100000000A4FFA3
(1708107956.128780) can1 0CF00300#CF004FFF00FFFFFF
(1708107956.129338) can1 0CF00400#FF7D7D000000FFFF
(1708107956.133192) can1 18FFDC00#42FFFF6E921B00FF
(1708107956.133724) can1 04EF001C#B8532595B9F32431
(1708107956.134367) can1 09F20000#000000FFFFFFFFFF
(1708107956.134923) can1 0CEF0100#B020000000625400
(1708107956.138226) can1 09F20100#C016000300FFFFC9
(1708107956.138932) can1 0CEF0017#812B8813CD0AFFFF
(1708107956.143195) can1 09F20100#C172C90400006E92
(1708107956.143723) can1 04EF001C#7956CA987896CB5C
(1708107956.144410) can1 18FEE500#36270000FFFFFFFF
(1708107956.148204) can1 0CF00400#FF7D7D000000FFFF
(1708107956.148769) can1 09F20100#C21B00FFFFFFFF00
(1708107956.149350) can1 18E8FF00#02FFFFFFFF00EF00
(1708107956.149932) can1 18FEEE00#3DFFFFFFFFFF42FF
(1708107956.153217) can1 09F20100#C30100FFFFFFFFFF
(1708107956.153754) can1 04EF001C#3559FCF734F9FD53
(1708107956.154337) can1 0CEF0100#B020000000625400
(1708107956.154965) can1 18FEEF00#FFFFFF00FFFFFFFF
(1708107956.158227) can1 18FEF200#0000FFFFFFFF37FF
(1708107956.162169) can1 18FF1C17#0000000000000000
(1708107956.163194) can1 18FEF700#FFFF1A01F500F600
(1708107956.163765) can1 04EF001C#F95B2695F83B27F1
(1708107956.168203) can1 0CF00400#FF7D7D000000FFFF
(1708107956.168750) can1 0CEF1100#C5F68C420EFCD2FC
(1708107956.173215) can1 18FFDC00#6014010000507B19
(1708107956.173746) can1 04EF001C#B95E4C90B81E4DD4
(1708107956.174329) can1 0CEF0100#B020000000625400
(1708107956.178204) can1 18FFDC00#6100000000A4FFA3
(1708107956.178797) can1 0CF00300#CF004FFF00FFFFFF
(1708107956.183184) can1 18FFDC00#62FFFF6E921B00FF
(1708107956.183745) can1 0CEF1700#01AB8813CD0AFFFF
(1708107956.184287) can1 04EF001C#78417387790172C3
(1708107956.188202) can1 0CF00400#FF7D7D000000FFFF
(1708107956.188782) can1 18FEFC00#FFA3FFFFFFFFFFFF
(1708107956.193233) can1 0CEF0100#B020000000625400
(1708107956.193839) can1 18FEF600#FFFF3D2AFFFFFFFF
(1708107956.194353) can1 04EF001C#38441982396418A6
(1708107956.198214) can1 18FEF100#FF0000F5FF11DFFF
(1708107956.204069) can1 04EF001C#5F4765B95E4764BD
(1708107956.208202) can1 0CF00400#FF7D7D000000FFFF
(1708107956.213221) can1 0CEF0100#B020000000625400
(1708107956.214190) can1 04EF001C#434A1154424A1050
(1708107956.218043) can1 18FF1080#000000FFFFFFFD00
(1708107956.218627) can1 0CEF1100#92E23B3FF68230FA
(1708107956.219184) can1 18FF1180#0300FBFDFFFF00FF
(1708107956.223211) can1 18FFDC00#8014010000507B19
(1708107956.224312) can1 04EF001C#E14C8642E04C8746
(1708107956.228192) can1 18FFDC00#8100000000A4FFA3
(1708107956.228860) can1 0CF00300#CF004FFF00FFFFFF
(1708107956.229371) can1 0CF00400#FF7D7D000000FFFF
(1708107956.233207) can1 18FFDC00#82FFFF6E921B00FF
(1708107956.233815) can1 09F20000#000000FFFFFFFFFF
(1708107956.234377) can1 0CEF0100#B020000000625400
(1708107956.234922) can1 04EF001C#EB4F9411EBAF94F5
(1708107956.238869) can1 0CEF0017#812B8813CD0AFFFF
(1708107956.244511) can1 04EF001C#8552117C85B21198
(1708107956.248203) can1 0CF00400#FF7D7D000000FFFF
(1708107956.248861) can1 18E8FF00#02FFFFFFFF00EF00
(1708107956.253231) can1 0CEF0100#B020000000625400
(1708107956.254648) can1 04EF001C#4A55E0034A95E0C7
(1708107956.258227) can1 18FEF200#0000FFFFFFFF37FF
(1708107956.258975) can1 18FF1CF3#0000000000000000
(1708107956.264741) can1 04EF001C#E2575D41E2975D85
(1708107956.268199) can1 0CF00400#FF7D7D000000FFFF
(1708107956.268731) can1 0CEF1100#4CE1D24F3253495C
(1708107956.273211) can1 18FFDC00#A014010000507B19
(1708107956.273824) can1 0CEF0100#B020000000625400
(1708107956.274847) can1 04EF001C#925A46CC929A4608
(1708107956.278213) can1 18FFDC00#A100000000A4FFA3
(1708107956.278789) can1 0CF00300#CF004FFF00FFFFFF
(1708107956.282062) can1 0DF50B9B#A6FFFFFFFF0000FF
(1708107956.283180) can1 18FFDC00#A2FFFF6E921B00FF
(1708107956.284940) can1 04EF001C#2D5DC4332D9DC4F7
(1708107956.288197) can1 0CF00400#FF7D7D000000FFFF
(1708107956.290273) can1 18FF2117#06FFFFFF00FFFFFF
(1708107956.293224) can1 0CEF0100#B020000000625400
(1708107956.295047) can1 04EF001C#EC5F1339ECBF13DD
(1708107956.298209) can1 18FEF100#FF0000F5FF11DFFF
(1708107956.298910) can1 0CEF0017#812B8813CD0AFFFF
(1708107956.305148) can1 04EF001C#78426B8479426A80
(1708107956.308202) can1 0CF00400#FF7D7D000000FFFF
(1708107956.308842) can1 18E8FF00#02FFFFFFFF00EF00
(1708107956.313231) can1 0CEF0100#B020000000625400
(1708107956.315260) can1 04EF001C#6D45462B6C25474F
(1708107956.318031) can1 18FF1080#000000FFFFFFFD00
(1708107956.318607) can1 0CEF1100#7A90166001EEED5D
(1708107956.319167) can1 18FF1180#0300FBFDFFFF00FF
(1708107956.319737) can1 18FF1CF3#0000000000000000
(1708107956.320310) can1 18FF1380#000000003FC0C006
(1708107956.323208) can1 18FFDC00#C014010000507B19
(1708107956.325391) can1 04EF001C#2F486E362E886FF2
(1708107956.328193) can1 18FFDC00#C100000000A4FFA3
(1708107956.328863) can1 0CF00300#CF004FFF00FFFFFF
(1708107956.329362) can1 0CF00400#FF7D7D000000FFFF
(1708107956.333192) can1 18FFDC00#C2FFFF6E921B00FF
(1708107956.333779) can1 09F20000#000000FFFFFFFFFF
(1708107956.334388) can1 0CEF0100#B020000000625400
(1708107956.335505) can1 04EF001C#EC4ABB2CEE4AB928
(1708107956.345619) can1 04EF001C#794D12837B2D10E7
(1708107956.348201) can1 0CF00400#FF7D7D000000FFFF
(1708107956.353219) can1 0CEF0100#B020000000625400
(1708107956.355705) can1 04EF001C#6C50EF366EF0ED92
(1708107956.358226) can1 18FEF200#0000FFFFFFFF37FF
(1708107956.365846) can1 04EF001C#F8526F94FAB26D70
(1708107956.368201) can1 0CF00400#FF7D7D000000FFFF
(1708107956.368764) can1 0CEF1100#B097DAB17712FC6B
(1708107956.373223) can1 18FFDC00#E014010000507B19
(1708107956.373830) can1 0CEF0100#B020000000625400
(1708107956.375941) can1 04EF001C#EC554333EEB541D7
(1708107956.378207) can1 18FFDC00#E100000000A4FFA3
(1708107956.378792) can1 0CF00300#CF004FFF00FFFFFF
(1708107956.379319) can1 0CEF0017#812B8813CD0AFFFF
(1708107956.383194) can1 18FFDC00#E2FFFF6E921B00FF
(1708107956.386040) can1 04EF001C#7958BA967BB8B872
(1708107956.386890) can1 15FD069B#50E873FFFFFFFFFF
(1708107956.388200) can1 0CF00400#FF7D7D000000FFFF
(1708107956.388782) can1 18E8FF00#02FFFFFFFF00EF00
(1708107956.393227) can1 0CEF0100#B020000000625400
(1708107956.396183) can1 04EF001C#395BE0953BBBE271
(1708107956.398202) can1 18FEF100#FF0000F5FF11DFFF
(1708107956.402319) can1 18FF1C17#0000000000000000
(1708107956.406287) can1 04EF001C#625E9158614E925C
(1708107956.408204) can1 0CF00400#FF7D7D000000FFFF
(1708107956.413220) can1 0CEF0100#B020000000625400
(1708107956.416403) can1 04EF001C#22412B4721512843
(1708107956.418189) can1 0CEF1100#E28604A585660F7C
(1708107956.419027) can1 18FF1080#000000FFFFFFFD00
(1708107956.420020) can1 18FF1180#0300FBFDFFFF00FF
(1708107956.423223) can1 18FFDC00#0014010000507B19
(1708107956.426523) can1 04EF001C#084428120AB42AF6
(1708107956.428194) can1 18FFDC00#0100000000A4FFA3
(1708107956.428759) can1 0CF00300#CF004FFF00FFFFFF
(1708107956.429343) can1 0CF00400#FF7D7D000000FFFF
(1708107956.433199) can1 18FFDC00#02FFFF6E921B00FF
(1708107956.433818) can1 09F20000#000000FFFFFFFFFF
(1708107956.434403) can1 0CEF0100#B020000000625400
(1708107956.436614) can1 04EF001C#D946EF98DB96ED5C
(1708107956.446744) can1 04EF001C#6249294F60F92BEB
(1708107956.448205) can1 0CF00400#FF7D7D000000FFFF
(1708107956.453218) can1 0CEF0100#B020000000625400
(1708107956.456856) can1 04EF001C#464C246A441C262E
(1708107956.457928) can1 09F8021C#15FC1E120000FFFF
(1708107956.458521) can1 18FEF200#0000FFFFFFFF37FF
(1708107956.459044) can1 09F8011C#A86D26185A6B5BC1
(1708107956.459603) can1 18FF1CF3#0000000000000000
(1708107956.460162) can1 19FA031C#15D252009D006500
(1708107956.460923) can1 0DF0101C#15F0A34D90E5B32B
(1708107956.461927) can1 18FEE81C#4A0D00002064627E
(1708107956.463023) can1 19FA041C#A0AB15FF0E017512
(1708107956.463996) can1 19FA041C#A1FAC86810FFFFFF
(1708107956.465025) can1 19FA041C#A2FFFF05A627D020
(1708107956.466028) can1 19FA041C#A33C0FFFFFFFFFFF
(1708107956.466975) can1 04EF001C#AF4FD221AEBFD3C5
(1708107956.468144) can1 19FA041C#A40C0D020C7B6C07
(1708107956.468643) can1 0CEF1100#2485EB154D9A18BB
(1708107956.469222) can1 0CF00400#FF7D7D000000FFFF
(1708107956.469759) can1 19FA041C#A5FFFFFFFFFF0D82
(1708107956.471052) can1 19FA041C#A6147648A00FFFFF
(1708107956.472068) can1 19FA041C#A7FFFFFF0FED172C
(1708107956.473091) can1 19FA041C#A8653011FFFFFFFF
(1708107956.473687) can1 0CEF0100#B020000000625400
(1708107956.474254) can1 18FFDC00#2014010000507B19
(1708107956.474826) can1 19FA041C#A9FF10AF0096E100
(1708107956.476116) can1 19FA041C#AA00FFFFFFFFFF12
(1708107956.477078) can1 04EF001C#DC5152A7DDC15323
(1708107956.478137) can1 19FA041C#ABB61C3EC63011FF
(1708107956.478751) can1 0CF00300#CF004FFF00FFFFFF
(1708107956.479258) can1 0CEF0017#812B8813CD0AFFFF
(1708107956.479834) can1 18FFDC00#2100000000A4FFA3
(1708107956.480406) can1 19FA041C#ACFFFFFFFF14D313
(1708107956.481189) can1 19FA041C#AD2E221C0CFFFFFF
(1708107956.482179) can1 19FA041C#AEFFFF174E0C2099
(1708107956.483185) can1 18FFDC00#22FFFF6E921B00FF
(1708107956.483770) can1 19FA041C#AF6C07FFFFFFFFFF
(1708107956.485224) can1 19FA041C#B0194E0C748BE40C
(1708107956.486228) can1 19FA041C#B1FFFFFFFFFF1AFD
(1708107956.487168) can1 04EF001C#9E543AB29F643B96
(1708107956.488201) can1 0CF00400#FF7D7D000000FFFF
(1708107956.488775) can1 18E8FF00#02FFFFFFFF00EF00
(1708107956.489349) can1 19FA041C#B20C14CD3C0FFFFF
(1708107956.490298) can1 19FA041C#B3FFFFFF1D283CF6
(1708107956.491289) can1 19FA041C#B49FA00FFFFFFFFF
(1708107956.492279) can1 19FA041C#B5FF2CB61CFC85CC
(1708107956.493217) can1 0CEF0100#B020000000625400
(1708107956.493794) can1 19FA041C#B610FFFFFFFFFF30
(1708107956.495318) can1 19FA041C#B7A91A308E0410FF
(1708107956.496342) can1 19FA041C#B8FFFFFFFFFFFFFF
(1708107956.497289) can1 04EF001C#3B5782993B87825D
(1708107956.498202) can1 18FEF100#FF0100F5FF11DFFF
(1708107956.507390) can1 04EF001C#7859B38F7869B3AB
(1708107956.508207) can1 0CF00400#FF7D7D000000FFFF
(1708107956.513222) can1 0CEF0100#B020000000625400
(1708107956.517512) can1 04EF001C#395CD882C6EB2721
(1708107956.518172) can1 0CEF1100#6AB432E8F0D956DD
(1708107956.518916) can1 18FF1CF3#0000000000000000
(1708107956.519520) can1 18FF1080#000000FFFFFFFD00
(1708107956.521037) can1 18FF1180#0300FBFDFFFF00FF
(1708107956.522026) can1 18FF1380#000000003FC0C006
(1708107956.523201) can1 18FFDC00#4014010000507B19
(1708107956.527619) can1 04EF001C#F65E01E80979FECB
(1708107956.528194) can1 18FFDC00#4100000000A4FFA3
(1708107956.528780) can1 0CF00300#CF004FFF00FFFFFF
(1708107956.529348) can1 0CF00400#FF7D7D000000FFFF
(1708107956.533195) can1 18FFDC00#42FFFF6E921B00FF
(1708107956.533832) can1 09F20000#000000FFFFFFFFFF
(1708107956.534374) can1 0CEF0100#B020000000625400
(1708107956.537741) can1 04EF001C#B541B8EF4B86462C
(1708107956.538914) can1 0CEF0017#812B8813CD0AFFFF
(1708107956.547851) can1 04EF001C#78445B8286E3A521
(1708107956.548450) can1 0CF00400#FF7D7D000000FFFF
(1708107956.548981) can1 18E8FF00#02FFFFFFFF00EF00
(1708107956.553223) can1 0CEF0100#B020000000625400
(1708107956.557976) can1 04EF001C#39470089C7C0FE0A
(1708107956.558554) can1 18FEF200#0000FFFFFFFF37FF
(1708107956.568080) can1 04EF001C#F849B78F06CE490C
(1708107956.568637) can1 0CEF1100#B5AE53D6000C4E9D
(1708107956.569187) can1 0CF00400#FF7D7D000000FFFF
(1708107956.573216) can1 18FFDC00#6014010000507B19
(1708107956.573829) can1 0CEF0100#B020000000625400
(1708107956.578174) can1 04EF001C#B54CD0E24BCB2E61
(1708107956.578727) can1 0CF00300#CF004FFF00FFFFFF
(1708107956.579304) can1 18FFDC00#6100000000A4FFA3
(1708107956.583188) can1 18FFDC00#62FFFF6E921B00FF
(1708107956.588206) can1 0CF00400#FF7D7D000000FFFF
(1708107956.588743) can1 04EF001C#784F038986E8FD2A
(1708107956.593223) can1 0CEF0100#B020000000625400
(1708107956.598207) can1 18FEF100#FF0100F5FF11DFFF
(1708107956.598789) can1 04EF001C#3852A994C6955757
(1708107956.608211) can1 0CF00400#FF7D7D000000FFFF
(1708107956.608744) can1 04EF001C#86552A6378B2D480
(1708107956.613231) can1 0CEF0100#B020000000625400
(1708107956.618181) can1 0CEF1100#01D84B685DD4216E
(1708107956.618779) can1 04EF001C#2158E056DE1F1F15
(1708107956.619302) can1 0CEF0017#812B8813CD0AFFFF
(1708107956.620023) can1 18FF1080#000000FFFFFFFD00
(1708107956.621015) can1 18FF1180#0300FBFDFFFF00FF
(1708107956.623203) can1 18FFDC00#8014010000507B19
(1708107956.628198) can1 18FFDC00#8100000000A4FFA3
(1708107956.628779) can1 0CF00300#CF004FFF00FFFFFF
(1708107956.629372) can1 04EF001C#E25A354C1DDDCACF
(1708107956.629885) can1 0CF00400#FF7D7D000000FFFF
(1708107956.630449) can1 18E8FF00#02FFFFFFFF00EF00
(1708107956.633209) can1 18FFDC00#82FFFF6E921B00FF
(1708107956.633782) can1 09F20000#000000FFFFFFFFFF
(1708107956.634495) can1 0CEF0100#B020000000625400
(1708107956.638863) can1 04EF001C#C65D286B39FAD7C8
(1708107956.639471) can1 18FF1CF3#0000000000000000
(1708107956.648199) can1 0CF00400#FF7D7D000000FFFF
(1708107956.648991) can1 04EF001C#624061569DA79EB5
(1708107956.653216) can1 18FEEF00#FFFFFF00FFFFFFFF
(1708107956.653821) can1 0CEF0100#B020000000625400
(1708107956.658220) can1 18FEF200#0000FFFFFFFF37FF
(1708107956.659098) can1 04EF001C#2143384D21433849
(1708107956.662161) can1 18FF1C17#0000000000000000
(1708107956.668212) can1 0CF00400#FF7D7D000000FFFF
(1708107956.668835) can1 0CEF1100#CBDD17B9AFA8B47C
(1708107956.669326) can1 04EF001C#0646367006663654
(1708107956.673202) can1 18FFDC00#A014010000507B19
(1708107956.673823) can1 0CEF0100#B020000000625400
(1708107956.678210) can1 18FFDC00#A100000000A4FFA3
(1708107956.678814) can1 0CF00300#CF004FFF00FFFFFF
(1708107956.679337) can1 04EF001C#3848798E380879CA
(1708107956.683197) can1 18FFDC00#A2FFFF6E921B00FF
(1708107956.683795) can1 0CEF1700#01AB8813CD0AFFFF
(1708107956.688213) can1 0CF00400#FF7D7D000000FFFF
(1708107956.689431) can1 04EF001C#644B3F6D640B3F29
(1708107956.693235) can1 0CEF0100#B020000000625400
(1708107956.693786) can1 18FEF600#FFFF3D2AFFFFFFFF
(1708107956.698210) can1 18FEF100#FF0100F5FF11DFFF
(1708107956.698916) can1 0CEF0017#812B8813CD0AFFFF
(1708107956.699574) can1 04EF001C#DB4DB593DB0DB5D7
(1708107956.708210) can1 0CF00400#FF7D7D000000FFFF
(1708107956.708867) can1 18E8FF00#02FFFFFFFF00EF00
(1708107956.709702) can1 04EF001C#9B501F8E9B501F8A
(1708107956.713230) can1 0CEF0100#B020000000625400
(1708107956.718161) can1 0CEF1100#9DCE588DD8558A47
(1708107956.718910) can1 18FF1CF3#0000000000000000
(1708107956.719797) can1 04EF001C#5A53C085A5943F46
(1708107956.720393) can1 18FF1080#000000FFFFFFFD00
(1708107956.721013) can1 18FF1180#0300FBFDFFFF00FF
(1708107956.722025) can1 18FF1380#000000003FC0C006
(1708107956.723202) can1 18FFDC00#C014010000507B19
(1708107956.728206) can1 18FFDC00#C100000000A4FFA3
(1708107956.728758) can1 0CF00300#CF004FFF00FFFFFF
(1708107956.729332) can1 0CF00400#FF7D7D000000FFFF
(1708107956.729903) can1 04EF001C#5256E0C0AD911F03
(1708107956.733197) can1 18FFDC00#C2FFFF6E921B00FF
(1708107956.733795) can1 09F20000#000000FFFFFFFFFF
(1708107956.734372) can1 0CEF0100#B020000000625400
(1708107956.739968) can1 04EF001C#B55870F64AFF8F55
(1708107956.748206) can1 0CF00400#FF7D7D000000FFFF
(1708107956.750057) can1 04EF001C#AE5B732D51DC8CAE
(1708107956.753224) can1 0CEF0100#B020000000625400
(1708107956.758224) can1 18FEF200#0000FFFFFFFF37FF
(1708107956.760176) can1 04EF001C#6A5E990895D9668B
(1708107956.768214) can1 0CF00400#FF7D7D000000FFFF
(1708107956.768789) can1 0CEF1100#52C20D368F3AC33F
(1708107956.770320) can1 04EF001C#54415EE7AB06A1A4
(1708107956.773218) can1 18FFDC00#E014010000507B19
(1708107956.773814) can1 0CEF0100#B020000000625400
(1708107956.778207) can1 18FFDC00#E100000000A4FFA3
(1708107956.778785) can1 0CF00300#CF004FFF00FFFFFF
(1708107956.779353) can1 0CEF0017#812B8813CD0AFFFF
(1708107956.780398) can1 04EF001C#4B44691AB4039659
(1708107956.783180) can1 18FFDC00#E2FFFF6E921B00FF
(1708107956.788215) can1 0CF00400#FF7D7D000000FFFF
(1708107956.788849) can1 18E8FF00#02FFFFFFFF00EF00
(1708107956.790515) can1 04EF001C#E446D3601B612C43
(1708107956.793226) can1 0CEF0100#B020000000625400
(1708107956.798208) can1 18FEF100#FF0100F5FF11DFFF
(1708107956.800633) can1 04EF001C#69492207966EDD24
(1708107956.808214) can1 0CF00400#FF7D7D000000FFFF
(1708107956.810742) can1 04EF001C#BB4CDE92446B21B1
(1708107956.813232) can1 0CEF0100#B020000000625400
(1708107956.818187) can1 0CEF1100#31FC66E0A4ABD2AC
(1708107956.818920) can1 18FF1CF3#0000000000000000
(1708107956.820875) can1 04EF001C#1F4F67B1E00898F2
(1708107956.821472) can1 18FF1080#000000FFFFFFFD00
(1708107956.823008) can1 18FF1180#0300FBFDFFFF00FF
(1708107956.823594) can1 18FFDC00#0014010000507B19
(1708107956.828210) can1 18FFDC00#0100000000A4FFA3
(1708107956.828787) can1 0CF00300#CF004FFF00FFFFFF
(1708107956.829336) can1 0CF00400#FF7D7D000000FFFF
(1708107956.830993) can1 04EF001C#9B520F8C6455F08F
(1708107956.833206) can1 18FFDC00#02FFFF6E921B00FF
(1708107956.833840) can1 09F20000#000000FFFFFFFFFF
(1708107956.834386) can1 0CEF0100#B020000000625400
(1708107956.841091) can1 04EF001C#C354654A3C339A29
(1708107956.848209) can1 0CF00400#FF7D7D000000FFFF
(1708107956.848861) can1 18FECA00#40FF00000000FFFF
(1708107956.851192) can1 04EF001C#97572BE968F0D44A
(1708107956.853243) can1 0CEF0100#B020000000625400
(1708107956.858220) can1 18FEF200#0000FFFFFFFF37FF
(1708107956.858926) can1 0CEF0017#812B8813CD0AFFFF
(1708107956.861323) can1 04EF001C#215AF054DE9D0F97
(1708107956.862159) can1 18FF1C17#0000000000000000
(1708107956.868210) can1 0CF00400#FF7D7D000000FFFF
(1708107956.868741) can1 0CEF1100#FEF4135AF0DE4BCD
(1708107956.869311) can1 18E8FF00#02FFFFFFFF00EF00
(1708107956.871400) can1 04EF001C#D25C34CA2D9BCB09
(1708107956.873222) can1 18FFDC00#2014010000507B19
(1708107956.873822) can1 0CEF0100#B020000000625400
(1708107956.878204) can1 18FFDC00#2100000000A4FFA3
(1708107956.878796) can1 0CF00300#CF004FFF00FFFFFF
(1708107956.881536) can1 04EF001C#395FC091C6B83F72
(1708107956.883184) can1 18FFDC00#22FFFF6E921B00FF
(1708107956.884964) can1 15FD069B#51E873FFFFFFFFFF
(1708107956.888202) can1 0CF00400#FF7D7D000000FFFF
(1708107956.891652) can1 04EF001C#F841F787F841F783
(1708107956.893227) can1 0CEF0100#B020000000625400
(1708107956.898204) can1 18FEF100#FF0100F5FF11DFFF
(1708107956.901750) can1 04EF001C#B8449D82B8049DC6
(1708107956.908207) can1 0CF00400#FF7D7D000000FFFF
(1708107956.911854) can1 04EF001C#78474381782743E5
(1708107956.913225) can1 0CEF0100#B020000000625400
(1708107956.918177) can1 0CEF1100#A5E237478F3BF6F7
(1708107956.921040) can1 18FF1080#000000FFFFFFFD00
(1708107956.921969) can1 04EF001C#374A66F437CA6670
(1708107956.922585) can1 18FF1180#0300FBFDFFFF00FF
(1708107956.923223) can1 18FFDC00#4014010000507B19
(1708107956.924025) can1 18FF1380#000000003FC0C006
(1708107956.928191) can1 18FFDC00#4100000000A4FFA3
(1708107956.928750) can1 0CF00300#CF004FFF00FFFFFF
(1708107956.929336) can1 0CF00400#FF7D7D000000FFFF
(1708107956.932092) can1 04EF001C#F84C9F8AF88C9F4E
(1708107956.933202) can1 18FFDC00#42FFFF6E921B00FF
(1708107956.933788) can1 09F20000#000000FFFFFFFFFF
(1708107956.934381) can1 0CEF0100#B020000000625400
(1708107956.938934) can1 0CEA1C00#00EE000000000000
(1708107956.940220) can1 18EEFF1C#0204450E00000042
(1708107956.942196) can1 04EF001C#B84FC589B94FC48D
(1708107956.948210) can1 0CF00400#FF7D7D000000FFFF
(1708107956.952291) can1 04EF001C#7852EB947972EAB0
(1708107956.953228) can1 0CEF0100#B020000000625400
(1708107956.958226) can1 18FEF200#0000FFFFFFFF37FF
(1708107956.958956) can1 18FF1CF3#0000000000000000
(1708107956.962427) can1 04EF001C#3955909B387591BF
(1708107956.966509) can1 09F8021C#16FC1E120000FFFF
(1708107956.967471) can1 09F8011C#A66D2618546B5BC1
(1708107956.968206) can1 0CF00400#FF7D7D000000FFFF
(1708107956.968753) can1 0CEF1100#60E4B02E785A480D
(1708107956.969317) can1 19FA031C#16D252009D006500
(1708107956.970515) can1 0DF0101C#16F0A34DA00CB42B
(1708107956.971534) can1 18FEE81C#4A0D00002064627E
(1708107956.972530) can1 04EF001C#4758856647B88582
(1708107956.973224) can1 18FFDC00#6014010000507B19
(1708107956.973838) can1 0CEF0100#B020000000625400
(1708107956.974340) can1 19FA041C#C0AB16FF0E017512
(1708107956.975635) can1 19FA041C#C1FAC86810FFFFFF
(1708107956.976642) can1 19FA041C#C2FFFF05A627D020
(1708107956.977658) can1 19FA041C#C30410FFFFFFFFFF
(1708107956.978232) can1 0CF00300#CF004FFF00FFFFFF
(1708107956.978823) can1 18FFDC00#6100000000A4FFA3
(1708107956.979391) can1 0CEF0017#812B8813CD0AFFFF
(1708107956.979940) can1 19FA041C#C40C0D020C7B6C07
(1708107956.980683) can1 19FA041C#C5FFFFFFFFFF0D82
(1708107956.981691) can1 19FA041C#C6147648A00FFFFF
(1708107956.982640) can1 04EF001C#6A5BB10D6AFBB1A9
(1708107956.983275) can1 18FFDC00#62FFFF6E921B00FF
(1708107956.983802) can1 19FA041C#C7FFFFFF0FED172C
(1708107956.984748) can1 19FA041C#C8653011FFFFFFFF
(1708107956.985729) can1 19FA041C#C9FF10AF0096E100
(1708107956.986755) can1 19FA041C#CA00FFFFFFFFFF12
(1708107956.987752) can1 19FA041C#CBB61C3EC63011FF
(1708107956.988330) can1 0CF00400#FF7D7D000000FFFF
(1708107956.988912) can1 18E8FF00#02FFFFFFFF00EF00
(1708107956.989490) can1 19FA041C#CCFFFFFFFF14D313
(1708107956.990816) can1 19FA041C#CD2E22280AFFFFFF
(1708107956.991805) can1 19FA041C#CEFFFF174E0C2099
(1708107956.992756) can1 04EF001C#2C5EDD382C3EDD5C
(1708107956.993343) can1 0CEF0100#B020000000625400
(1708107956.993921) can1 19FA041C#CFD007FFFFFFFFFF
(1708107956.994854) can1 19FA041C#D0194E0C748B480D
(1708107956.995852) can1 19FA041C#D1FFFFFFFFFF1AFD
(1708107956.996882) can1 19FA041C#D20C14CD3C0FFFFF
(1708107956.997872) can1 19FA041C#D3FFFFFF1D283CF6
(1708107956.998433) can1 18FEF100#FF0100F5FF11DFFF
(1708107956.999011) can1 19FA041C#D49F0410FFFFFFFF
(1708107956.999898) can1 19FA041C#D5FF2CB61CFC85CC
(1708107957.000928) can1 19FA041C#D610FFFFFFFFFF30
(1708107957.001905) can1 19FA041C#D7A91A308EA00FFF
(1708107957.002875) can1 04EF001C#EE40E936EE00E972
(1708107957.003963) can1 19FA041C#D8FFFFFFFFFFFFFF
(1708107957.008212) can1 0CF00400#FF7D7D000000FFFF
(1708107957.012999) can1 04EF001C#5F4345BD5FC34539
(1708107957.013605) can1 0CEF0100#B020000000625400
(1708107957.018173) can1 0CEF1100#53928D68C56D7939
(1708107957.018906) can1 0CEF0017#812B8813CD0AFFFF
(1708107957.022036) can1 18FF1080#000000FFFFFFFD00
(1708107957.023023) can1 18FF1180#0300FBFDFFFF00FF
(1708107957.023588) can1 04EF001C#2246135022E613F4
(1708107957.024169) can1 18FFDC00#8014010000507B19
(1708107957.028188) can1 18FFDC00#8100000000A4FFA3
(1708107957.028856) can1 0CF00300#CF004FFF00FFFFFF
(1708107957.029364) can1 0CF00400#FF7D7D000000FFFF
(1708107957.029907) can1 18E8FF00#02FFFFFFFF00EF00
(1708107957.033199) can1 18FFDC00#82FFFF6E921B00FF
(1708107957.033749) can1 04EF001C#0849400F088940CB
(1708107957.034352) can1 09F20000#000000FFFFFFFFFF
(1708107957.034932) can1 0CEF0100#B020000000625400
(1708107957.038931) can1 18FF1CF3#0000000000000000
(1708107957.043337) can1 04EF001C#A24BFF5DA2ABFFB9
(1708107957.048208) can1 0CF00400#FF7D7D000000FFFF
(1708107957.053226) can1 0CEF0100#B020000000625400
(1708107957.053763) can1 04EF001C#604E134860AE13AC
(1708107957.058226) can1 18FEF200#0000FFFFFFFF37FF
(1708107957.063545) can1 04EF001C#4651CC674691CCA3
(1708107957.068211) can1 0CF00400#FF7D7D000000FFFF
(1708107957.068739) can1 0CEF1100#6F915B88B2DB0584
(1708107957.073215) can1 18FFDC00#A014010000507B19
(1708107957.073755) can1 04EF001C#BE5323A5BEF32301
(1708107957.074340) can1 0CEF0100#B020000000625400
(1708107957.078209) can1 18FFDC00#A100000000A4FFA3
(1708107957.078818) can1 0CF00300#CF004FFF00FFFFFF
(1708107957.083191) can1 18FFDC00#A2FFFF6E921B00FF
(1708107957.083790) can1 04EF001C#375686E837F6864C
(1708107957.088200) can1 0CF00400#FF7D7D000000FFFF
(1708107957.093220) can1 0CEF0100#B020000000625400
(1708107957.093914) can1 04EF001C#FA583D8EFAF83D2A
(1708107957.098208) can1 18FEF100#FF0100F5FF11DFFF
(1708107957.098914) can1 0CEF0017#812B8813CD0AFFFF
(1708107957.103973) can1 04EF001C#B55B68F5B5DB6871
(1708107957.108198) can1 0CF00400#FF7D7D000000FFFF
(1708107957.108845) can1 18E8FF00#02FFFFFFFF00EF00
(1708107957.113223) can1 0CEF0100#B020000000625400
(1708107957.114105) can1 04EF001C#785E8B9878DE8B1C
(1708107957.118194) can1 0CEF1100#BB80A02CE002BA16
(1708107957.122040) can1 18FF1080#000000FFFFFFFD00
(1708107957.123022) can1 18FF1180#0300FBFDFFFF00FF
(1708107957.123601) can1 18FFDC00#C014010000507B19
(1708107957.124275) can1 18FF1380#000000003FC0C006
(1708107957.124760) can1 04EF001C#3941308F39C1300B
(1708107957.128193) can1 18FFDC00#C100000000A4FFA3
(1708107957.128855) can1 0CF00300#CF004FFF00FFFFFF
(1708107957.129362) can1 0CF00400#FF7D7D000000FFFF
(1708107957.130687) can1 18FF1C17#0000000000000000
(1708107957.133198) can1 18FFDC00#C2FFFF6E921B00FF
(1708107957.133803) can1 09F20000#000000FFFFFFFFFF
(1708107957.134422) can1 04EF001C#F843E785F8C3E701
(1708107957.134936) can1 0CEF0100#B020000000625400
(1708107957.138226) can1 09F20100#E016000000FFFFC8
(1708107957.143187) can1 09F20100#E172C90400006E92
(1708107957.144421) can1 04EF001C#B54680E8B50680AC
(1708107957.148201) can1 0CF00400#FF7D7D000000FFFF
(1708107957.148788) can1 09F20100#E21B00FFFFFFFF00
(1708107957.149358) can1 18FEEE00#3DFFFFFFFFFF42FF
(1708107957.153213) can1 09F20100#E30100FFFFFFFFFF
(1708107957.153827) can1 0CEF0100#B020000000625400
(1708107957.154404) can1 18FEEF00#FFFFFF00FFFFFFFF
(1708107957.154914) can1 04EF001C#76493DFF89AEC21C
(1708107957.158225) can1 18FEF200#0000FFFFFFFF37FF
(1708107957.158966) can1 18FF1CF3#0000000000000000
(1708107957.163201) can1 18FEF700#FFFF1A01F500F600
(1708107957.164659) can1 04EF001C#5A4C389AA5CBC719
(1708107957.168196) can1 0CF00400#FF7D7D000000FFFF
(1708107957.168837) can1 0CEF1100#FD85DB9D8E44D8E5
(1708107957.173217) can1 18FFDC00#E014010000507B19
(1708107957.173829) can1 0CEF0100#B020000000625400
(1708107957.174793) can1 04EF001C#1B4F6391E4689CB2
(1708107957.178211) can1 18FFDC00#E100000000A4FFA3
(1708107957.178790) can1 0CF00300#CF004FFF00FFFFFF
(1708107957.179351) can1 0CEF0017#812B8813CD0AFFFF
(1708107957.183190) can1 18FFDC00#E2FFFF6E921B00FF
(1708107957.183788) can1 0CEF1700#01AB8813CD0AFFFF
(1708107957.184903) can1 04EF001C#3D52ACBCC395527F
(1708107957.188202) can1 0CF00400#FF7D7D000000FFFF
(1708107957.188784) can1 18E8FF00#02FFFFFFFF00EF00
(1708107957.189362) can1 18FEFC00#FFA3FFFFFFFFFFFF
(1708107957.193223) can1 0CEF0100#B020000000625400
(1708107957.193831) can1 18FEF600#FFFF3D2AFFFFFFFF
(1708107957.194999) can1 04EF001C#D35475CA2DF38B69
(1708107957.198213) can1 18FEF100#FF0100F5FF11DFFF
(1708107957.205110) can1 04EF001C#C3577D493D90838A
(1708107957.208203) can1 0CF00400#FF7D7D000000FFFF
(1708107957.213220) can1 0CEF0100#B020000000625400
(1708107957.215224) can1 04EF001C#C25A144C3D7DEB6F
(1708107957.218195) can1 0CEF1100#03B6BBE09ACB5FCD
(1708107957.218945) can1 18FF1CF3#0000000000000000
(1708107957.223036) can1 18FF1080#000000FFFFFFFD00
(1708107957.223622) can1 18FFDC00#0014010000507B19
(1708107957.224190) can1 18FF1180#0300FBFDFFFF00FF
(1708107957.225329) can1 04EF001C#785D939B871A6CD8
(1708107957.228189) can1 18FFDC00#0100000000A4FFA3
(1708107957.228756) can1 0CF00300#CF004FFF00FFFFFF
(1708107957.229344) can1 0CF00400#FF7D7D000000FFFF
(1708107957.233202) can1 18FFDC00#02FFFF6E921B00FF
(1708107957.233812) can1 09F20000#000000FFFFFFFFFF
(1708107957.234467) can1 0CEF0100#B020000000625400
(1708107957.235484) can1 04EF001C#3E403FB6C107C0F5
(1708107957.245577) can1 04EF001C#C742D17C38252E1F
(1708107957.248199) can1 0CF00400#FF7D7D000000FFFF
(1708107957.253216) can1 0CEF0100#B020000000625400
(1708107957.255663) can1 04EF001C#9745BBFB68224498
(1708107957.258226) can1 18FEF200#0000FFFFFFFF37FF
(1708107957.258920) can1 0CEF0017#812B8813CD0AFFFF
(1708107957.265784) can1 04EF001C#4448066EBB0FF92D
(1708107957.268199) can1 0CF00400#FF7D7D000000FFFF
(1708107957.268784) can1 0CEF1100#5BA997277FB15EE1
(1708107957.269315) can1 18E8FF00#02FFFFFFFF00EF00
(1708107957.273229) can1 18FFDC00#2014010000507B19
(1708107957.273793) can1 0CEF0100#B020000000625400
(1708107957.275876) can1 04EF001C#AC4AF92C530D066F
(1708107957.278204) can1 18FFDC00#2100000000A4FFA3
(1708107957.278802) can1 0CF00300#CF004FFF00FFFFFF
(1708107957.283188) can1 18FFDC00#22FFFF6E921B00FF
(1708107957.284687) can1 0DF50B9B#A7FFFFFFFF0000FF
(1708107957.285977) can1 04EF001C#374D5EF3C82AA190
(1708107957.288202) can1 0CF00400#FF7D7D000000FFFF
(1708107957.293220) can1 0CEF0100#B020000000625400
(1708107957.296119) can1 04EF001C#F84F878907E8782A
(1708107957.298194) can1 18FEF100#FF0100F5FF11DFFF
(1708107957.306208) can1 04EF001C#B75222ECB75222E8
(1708107957.308203) can1 0CF00400#FF7D7D000000FFFF
(1708107957.313215) can1 0CEF0100#B020000000625400
(1708107957.316306) can1 04EF001C#7855D3937875D3B7
(1708107957.318178) can1 0CEF1100#8BA48DA413669184
(1708107957.318950) can1 18FF1CF3#0000000000000000
(1708107957.322163) can1 18FF1C17#0000000000000000
(1708107957.323038) can1 18FF1080#000000FFFFFFFD00
(1708107957.323627) can1 18FFDC00#4014010000507B19
(1708107957.324189) can1 18FF1180#0300FBFDFFFF00FF
(1708107957.325065) can1 18FF1380#000000003FC0C006
(1708107957.326422) can1 04EF001C#3558F4F63518F4B2
(1708107957.328197) can1 18FFDC00#4100000000A4FFA3
(1708107957.328853) can1 0CF00300#CF004FFF00FFFFFF
(1708107957.329340) can1 0CF00400#FF7D7D000000FFFF
(1708107957.333194) can1 18FFDC00#42FFFF6E921B00FF
(1708107957.333817) can1 09F20000#000000FFFFFFFFFF
(1708107957.334396) can1 0CEF0100#B020000000625400
(1708107957.336542) can1 04EF001C#2D5BF4352D1BF471
(1708107957.338922) can1 0CEF0017#812B8813CD0AFFFF
(1708107957.346644) can1 04EF001C#B55D58F3B57D58D7
(1708107957.348198) can1 0CF00400#FF7D7D000000FFFF
(1708107957.348894) can1 18E8FF00#02FFFFFFFF00EF00
(1708107957.353230) can1 0CEF0100#B020000000625400
(1708107957.356767) can1 04EF001C#78407B8678407B82
(1708107957.358212) can1 18FEF200#0000FFFFFFFF37FF
(1708107957.366873) can1 04EF001C#37432EFDC8A4D11E
(1708107957.368197) can1 0CF00400#FF7D7D000000FFFF
(1708107957.368757) can1 0CEF1100#37DB9F58A2EF3317
(1708107957.373213) can1 18FFDC00#6014010000507B19
(1708107957.373783) can1 0CEF0100#B020000000625400
(1708107957.376996) can1 04EF001C#F645D9F309822630
(1708107957.378198) can1 18FFDC00#6100000000A4FFA3
(1708107957.378785) can1 0CF00300#CF004FFF00FFFFFF
(1708107957.382953) can1 15FD069B#52E873FFFFFFFFFF
(1708107957.383548) can1 18FFDC00#62FFFF6E921B00FF
(1708107957.387096) can1 04EF001C#B848FD8E478F024D
(1708107957.388203) can1 0CF00400#FF7D7D000000FFFF
(1708107957.393221) can1 0CEF0100#B020000000625400
(1708107957.397208) can1 04EF001C#784B238D87ACDC6E
(1708107957.398207) can1 18FEF100#FF0000F5FF11DFFF
(1708107957.407339) can1 04EF001C#9F4EEBB060891473
(1708107957.408205) can1 0CF00400#FF7D7D000000FFFF
(1708107957.413228) can1 0CEF0100#B020000000625400
(1708107957.417458) can1 04EF001C#845108777BF6F7D4
(1708107957.418225) can1 0CEF1100#E3CA64FCF0368C85
(1708107957.418952) can1 0CEF0017#812B8813CD0AFFFF
(1708107957.423212) can1 18FFDC00#8014010000507B19
(1708107957.424038) can1 18FF1080#000000FFFFFFFD00
(1708107957.425071) can1 18FF1180#0300FBFDFFFF00FF
(1708107957.427562) can1 04EF001C#4354E14ABCD31EC9
(1708107957.428222) can1 18FFDC00#8100000000A4FFA3
(1708107957.428775) can1 0CF00300#CF004FFF00FFFFFF
(1708107957.429342) can1 0CF00400#FF7D7D000000FFFF
(1708107957.429905) can1 18E8FF00#02FFFFFFFF00EF00
(1708107957.433203) can1 18FFDC00#82FFFF6E921B00FF
(1708107957.433831) can1 09F20000#000000FFFFFFFFFF
(1708107957.434370) can1 0CEF0100#B020000000625400
(1708107957.437688) can1 04EF001C#DF5669A8203196CB
(1708107957.438956) can1 18FF1CF3#0000000000000000
(1708107957.447781) can1 04EF001C#C659086F393EF70C
(1708107957.448400) can1 0CF00400#FF7D7D000000FFFF
(1708107957.453231) can1 0CEF0100#B020000000625400
(1708107957.457900) can1 04EF001C#845C607A7B7B9F59
(1708107957.458509) can1 18FEF200#0000FFFFFFFF37FF
(1708107957.468019) can1 04EF001C#1F5FE7A1E0781882
(1708107957.468563) can1 0CEF1100#AACCC4F59B6DC59E
(1708107957.469123) can1 0CF00400#FF7D7D000000FFFF
(1708107957.473218) can1 18FFDC00#A014010000507B19
(1708107957.473804) can1 0CEF0100#B020000000625400
(1708107957.474485) can1 09F8021C#17FC1E120100FFFF
(1708107957.475115) can1 09F8011C#A26D2618506B5BC1
(1708107957.476100) can1 19FA031C#17D252009D006500
(1708107957.477095) can1 0DF0101C#17F0A34DA00CB42B
(1708107957.478110) can1 04EF001C#B641BBF7496644D4
(1708107957.478676) can1 0CF00300#CF004FFF00FFFFFF
(1708107957.479264) can1 18FEE81C#4A0D00002064637E
(1708107957.479851) can1 18FFDC00#A100000000A4FFA3
(1708107957.480384) can1 19FA041C#E0AB17FF0E017512
(1708107957.481299) can1 19FA041C#E1FAC8CC10FFFFFF
(1708107957.482223) can1 19FA041C#E2FFFF05A627D020
(1708107957.483182) can1 18FFDC00#A2FFFF6E921B00FF
(1708107957.483773) can1 19FA041C#E36810FFFFFFFFFF
(1708107957.485248) can1 19FA041C#E40C0D020C7B0807
(1708107957.486267) can1 19FA041C#E5FFFFFFFFFF0D82
(1708107957.487260) can1 19FA041C#E6147648D80EFFFF
(1708107957.488205) can1 0CF00400#FF7D7D000000FFFF
(1708107957.488748) can1 04EF001C#EB44CC1A14633339
(1708107957.490338) can1 19FA041C#E7FFFFFF0FED172C
(1708107957.491321) can1 19FA041C#E8653011FFFFFFFF
(1708107957.492316) can1 19FA041C#E9FF10AF0096E100
(1708107957.493215) can1 0CEF0100#B020000000625400
(1708107957.493798) can1 19FA041C#EA00FFFFFFFFFF12
(1708107957.495351) can1 19FA041C#EBB61C3EC63011FF
(1708107957.496372) can1 19FA041C#ECFFFFFFFF14D313
(1708107957.497383) can1 19FA041C#ED2E22800CFFFFFF
(1708107957.498204) can1 18FEF100#FF0000F5FF11DFFF
(1708107957.498752) can1 04EF001C#A847950157006A42
(1708107957.499325) can1 0CEF0017#812B8813CD0AFFFF
(1708107957.499870) can1 19FA041C#EEFFFF174E0C2099
(1708107957.501455) can1 19FA041C#EFD007FFFFFFFFFF
(1708107957.502434) can1 19FA041C#F0194E0C748B480D
(1708107957.503453) can1 19FA041C#F1FFFFFFFFFF1AFD
(1708107957.504459) can1 19FA041C#F20C14CD740EFFFF
(1708107957.505478) can1 19FA041C#F3FFFFFF1D283CF6
(1708107957.506487) can1 19FA041C#F49FA00FFFFFFFFF
(1708107957.507478) can1 19FA041C#F5FF2CB61CFC8568
(1708107957.508201) can1 0CF00400#FF7D7D000000FFFF
(1708107957.508774) can1 04EF001C#734A20D48C2DDFB7
(1708107957.509349) can1 18E8FF00#02FFFFFFFF00EF00
(1708107957.509916) can1 19FA041C#F610FFFFFFFFFF30
(1708107957.510541) can1 19FA041C#F7A91A308EA00FFF
(1708107957.511545) can1 19FA041C#F8FFFFFFFFFFFFFF
(1708107957.513226) can1 0CEF0100#B020000000625400
(1708107957.518203) can1 0CEF1100#5DFEEE808FF280F6
(1708107957.518741) can1 04EF001C#764C15FA890BEAB9
(1708107957.519331) can1 18FF1CF3#0000000000000000
(1708107957.521924) can1 18FF1C17#0000000000000000
(1708107957.523200) can1 18FFDC00#C014010000507B19
(1708107957.524040) can1 18FF1080#000000FFFFFFFD00
(1708107957.525018) can1 18FF1180#0300FBFDFFFF00FF
(1708107957.526022) can1 18FF1380#000000003FC0C006
(1708107957.528196) can1 18FFDC00#C100000000A4FFA3
(1708107957.528778) can1 04EF001C#354F4CE1CA08B3A2
(1708107957.529304) can1 0CF00300#CF004FFF00FFFFFF
(1708107957.529901) can1 0CF00400#FF7D7D000000FFFF
(1708107957.533202) can1 18FFDC00#C2FFFF6E921B00FF
(1708107957.533819) can1 09F20000#000000FFFFFFFFFF
(1708107957.534436) can1 0CEF0100#B020000000625400
(1708107957.538776) can1 04EF001C#F65179E7097686C4
(1708107957.548205) can1 0CF00400#FF7D7D000000FFFF
(1708107957.548968) can1 04EF001C#B55410FA4A73EFD9
(1708107957.553231) can1 0CEF0100#B020000000625400
(1708107957.558217) can1 18FEF200#0000FFFFFFFF37FF
(1708107957.559019) can1 04EF001C#7857C39187703CB2
(1708107957.568197) can1 0CF00400#FF7D7D000000FFFF
(1708107957.568757) can1 0CEF1100#12F29F3B4DA73D27
(1708107957.569336) can1 04EF001C#385AE99CC71D16DF
(1708107957.573221) can1 18FFDC00#E014010000507B19
(1708107957.573787) can1 0CEF0100#B020000000625400
(1708107957.578207) can1 18FFDC00#E100000000A4FFA3
(1708107957.578802) can1 0CF00300#CF004FFF00FFFFFF
(1708107957.579330) can1 04EF001C#F75C10E2083BEF81
(1708107957.579883) can1 0CEF0017#812B8813CD0AFFFF
(1708107957.583191) can1 18FFDC00#E2FFFF6E921B00FF
(1708107957.588204) can1 0CF00400#FF7D7D000000FFFF
(1708107957.588769) can1 18E8FF00#02FFFFFFFF00EF00
(1708107957.589360) can1 04EF001C#B85F459947D8BA1A
(1708107957.593230) can1 0CEF0100#B020000000625400
(1708107957.598207) can1 18FEF100#FF0000F5FF11DFFF
(1708107957.599453) can1 04EF001C#9D4289AC62C5762F
(1708107957.608198) can1 0CF00400#FF7D7D000000FFFF
(1708107957.609597) can1 04EF001C#EE45C13311823EF0
(1708107957.613221) can1 0CEF0100#B020000000625400
(1708107957.618184) can1 0CEF1100#F1ECD0E40F1E4FF5
(1708107957.619689) can1 04EF001C#AF48EA36AF68EA12
(1708107957.623215) can1 18FFDC00#0014010000507B19
(1708107957.625033) can1 18FF1080#000000FFFFFFFD00
(1708107957.626031) can1 18FF1180#0300FBFDFFFF00FF
(1708107957.628192) can1 18FFDC00#0100000000A4FFA3
(1708107957.628844) can1 0CF00300#CF004FFF00FFFFFF
(1708107957.629363) can1 0CF00400#FF7D7D000000FFFF
(1708107957.629917) can1 04EF001C#4A4B101D4A0B1059
(1708107957.633200) can1 18FFDC00#02FFFF6E921B00FF
(1708107957.633807) can1 09F20000#000000FFFFFFFFFF
(1708107957.634375) can1 0CEF0100#B020000000625400
(1708107957.638982) can1 18FF1CF3#0000000000000000
(1708107957.639900) can1 04EF001C#044E7468040E742C
(1708107957.648198) can1 0CF00400#FF7D7D000000FFFF
(1708107957.650025) can1 04EF001C#FA507D86FA107DC2
(1708107957.652043) can1 04EF001C#634650586306501C
(1708107957.653041) can1 04EF001C#1E509EA61E109EE2
(1708107957.653630) can1 0CEF0100#B020000000625400
(1708107957.654209) can1 18FEEF00#FFFFFF00FFFFFFFF
(1708107957.658224) can1 18FEF200#0000FFFFFFFF37FF
(1708107957.658943) can1 0CEF0017#812B8813CD0AFFFF
(1708107957.659518) can1 04EF001C#8349CF578329CF33
(1708107957.668198) can1 0CF00400#FF7D7D000000FFFF
(1708107957.668741) can1 0CEF1100#BDE759867656DF3D
(1708107957.669379) can1 04EF001C#634C0052630C0016
(1708107957.669877) can1 18E8FF00#02FFFFFFFF00EF00
(1708107957.673223) can1 18FFDC00#2014010000507B19
(1708107957.673841) can1 0CEF0100#B020000000625400
(1708107957.678203) can1 18FFDC00#2100000000A4FFA3
(1708107957.678789) can1 0CF00300#CF004FFF00FFFFFF
(1708107957.679376) can1 04EF001C#994EED80996EEDA4
(1708107957.683195) can1 18FFDC00#22FFFF6E921B00FF
(1708107957.683782) can1 0CEF1700#01AB8813CD0AFFFF
(1708107957.688199) can1 0CF00400#FF7D7D000000FFFF
(1708107957.689468) can1 04EF001C#7B51F08F7B71F0AB
(1708107957.693229) can1 0CEF0100#B020000000625400
(1708107957.693785) can1 18FEF600#FFFF3D2AFFFFFFFF
(1708107957.698214) can1 18FEF100#FF0000F5FF11DFFF
(1708107957.699569) can1 04EF001C#3B549A8A3B549A8E
(1708107957.708200) can1 0CF00400#FF7D7D000000FFFF
(1708107957.709734) can1 04EF001C#FD564AB8FD564ABC
(1708107957.713234) can1 0CEF0100#B020000000625400
(1708107957.718182) can1 0CEF1100#05929A58EE55ADE0
(1708107957.718975) can1 18FF1CF3#0000000000000000
(1708107957.719762) can1 04EF001C#F3593CC7F3793CE3
(1708107957.723214) can1 18FFDC00#4014010000507B19
(1708107957.725037) can1 18FF1080#000000FFFFFFFD00
(1708107957.726029) can1 18FF1180#0300FBFDFFFF00FF
(1708107957.727033) can1 18FF1380#000000003FC0C006
(1708107957.728189) can1 18FFDC00#4100000000A4FFA3
(1708107957.728757) can1 0CF00300#CF004FFF00FFFFFF
(1708107957.729335) can1 0CF00400#FF7D7D000000FFFF
(1708107957.729951) can1 04EF001C#DC5C3ABADC3C3ADE
(1708107957.733193) can1 18FFDC00#42FFFF6E921B00FF
(1708107957.733787) can1 09F20000#000000FFFFFFFFFF
(1708107957.734385) can1 0CEF0100#B020000000625400
(1708107957.738966) can1 0CEF0017#812B8813CD0AFFFF
(1708107957.739999) can1 04EF001C#195FE19119FFE135
(1708107957.748199) can1 0CF00400#FF7D7D000000FFFF
(1708107957.748851) can1 18E8FF00#02FFFFFFFF00EF00
(1708107957.750136) can1 04EF001C#344225E434822520
(1708107957.753213) can1 0CEF0100#B020000000625400
(1708107957.758224) can1 18FEF200#0000FFFFFFFF37FF
(1708107957.760208) can1 04EF001C#CD44EB2ACD84EBEE
(1708107957.768201) can1 0CF00400#FF7D7D000000FFFF
(1708107957.768745) can1 0CEF1100#4296A9A182119F43
(1708107957.770410) can1 04EF001C#EA47D511EA87D5D5
(1708107957.770935) can1 18FF2117#06FFFFFF00FFFFFF
(1708107957.773222) can1 18FFDC00#6014010000507B19
(1708107957.773833) can1 0CEF0100#B020000000625400
(1708107957.778206) can1 18FFDC00#6100000000A4FFA3
(1708107957.778762) can1 0CF00300#CF004FFF00FFFFFF
(1708107957.780442) can1 04EF001C#AE4AFB3CAE8AFBF8
(1708107957.783175) can1 18FFDC00#62FFFF6E921B00FF
(1708107957.788202) can1 0CF00400#FF7D7D000000FFFF
(1708107957.790549) can1 04EF001C#0C4D642B0CAD64CF
(1708107957.793232) can1 0CEF0100#B020000000625400
(1708107957.798208) can1 18FEF100#FF0000F5FF11DFFF
(1708107957.800669) can1 04EF001C#5B50D98E5B90D94A
(1708107957.808200) can1 0CF00400#FF7D7D000000FFFF
(1708107957.810779) can1 04EF001C#1D5385BD1D938579
(1708107957.813223) can1 0CEF0100#B020000000625400
(1708107957.818189) can1 0CEF1100#9180ABFCDEC69160
(1708107957.820904) can1 04EF001C#82552E4382F52EE7
(1708107957.822091) can1 18FF1C17#0000000000000000
(1708107957.823202) can1 18FFDC00#8014010000507B19
(1708107957.825040) can1 18FF1080#000000FFFFFFFD00
(1708107957.826056) can1 18FF1180#0300FBFDFFFF00FF
(1708107957.828195) can1 18FFDC00#8100000000A4FFA3
(1708107957.828751) can1 0CF00300#CF004FFF00FFFFFF
(1708107957.829332) can1 0CF00400#FF7D7D000000FFFF
(1708107957.831014) can1 04EF001C#FE5839AEFE98396A
(1708107957.833204) can1 18FFDC00#82FFFF6E921B00FF
(1708107957.833802) can1 09F20000#000000FFFFFFFFFF
(1708107957.834384) can1 0CEF0100#B020000000625400
(1708107957.841144) can1 04EF001C#275BFE6527FBFEC1
(1708107957.848205) can1 0CF00400#FF7D7D000000FFFF
(1708107957.848852) can1 18FECA00#40FF00000000FFFF
(1708107957.851240) can1 04EF001C#F65D19EBF6DD196F
(1708107957.853225) can1 0CEF0100#B020000000625400
(1708107957.858222) can1 18FEF200#0000FFFFFFFF37FF
(1708107957.859017) can1 0CEF0017#812B8813CD0AFFFF
(1708107957.861381) can1 04EF001C#7F407CBE7F007CFA
(1708107957.868200) can1 0CF00400#FF7D7D000000FFFF
(1708107957.868734) can1 0CEF1100#F5BBA9D375C26D36
(1708107957.869308) can1 18E8FF00#02FFFFFFFF00EF00
(1708107957.871438) can1 04EF001C#0943110D09631129
(1708107957.873213) can1 18FFDC00#A014010000507B19
(1708107957.873815) can1 0CEF0100#B020000000625400
(1708107957.878207) can1 18FFDC00#A100000000A4FFA3
(1708107957.878787) can1 0CF00300#CF004FFF00FFFFFF
(1708107957.879370) can1 18FF1CF3#0000000000000000
(1708107957.881034) can1 15FD069B#53E873FFFFFFFFFF
(1708107957.881558) can1 04EF001C#9645BAF369A24510
(1708107957.883187) can1 18FFDC00#A2FFFF6E921B00FF
(1708107957.888199) can1 0CF00400#FF7D7D000000FFFF
(1708107957.891665) can1 04EF001C#554817E6AAEFE845
(1708107957.893227) can1 0CEF0100#B020000000625400
(1708107957.898211) can1 18FEF100#FF0000F5FF11DFFF
(1708107957.899036) can1 0CEF0017#812B8813CD0AFFFF
(1708107957.901795) can1 04EF001C#164B4EFDE92CB19E
(1708107957.908199) can1 0CF00400#FF7D7D000000FFFF
(1708107957.908857) can1 18E8FF00#02FFFFFFFF00EF00
(1708107957.911884) can1 04EF001C#D54DBBE32A6A44C0
(1708107957.913230) can1 0CEF0100#B020000000625400
(1708107957.918194) can1 0CEF1100#3DB6B5901F231462
(1708107957.918982) can1 0CEA1C00#00EE000000000000
(1708107957.920027) can1 18EEFF1C#0204450E00000042
(1708107957.922016) can1 04EF001C#965012E66897EC25
(1708107957.923196) can1 18FFDC00#C014010000507B19
(1708107957.926028) can1 18FF1080#000000FFFFFFFD00
(1708107957.927020) can1 18FF1180#0300FBFDFFFF00FF
(1708107957.928032) can1 18FF1380#000000003FC0C006
(1708107957.928626) can1 0CF00300#CF004FFF00FFFFFF
(1708107957.929179) can1 0CF00400#FF7D7D000000FFFF
(1708107957.929788) can1 18FFDC00#C100000000A4FFA3
(1708107957.932117) can1 04EF001C#8953151D77F4EBBE
(1708107957.933253) can1 18FFDC00#C2FFFF6E921B00FF
(1708107957.933794) can1 09F20000#000000FFFFFFFFFF
(1708107957.934425) can1 0CEF0100#B020000000625400
(1708107957.939003) can1 18FF1CF3#0000000000000000
(1708107957.942230) can1 04EF001C#1656A6E0E8D15863
(1708107957.948197) can1 0CF00400#FF7D7D000000FFFF
(1708107957.952340) can1 04EF001C#D65810EE287FEECD
(1708107957.953227) can1 0CEF0100#B020000000625400
(1708107957.958223) can1 18FEF200#0000FFFFFFFF37FF
(1708107957.962450) can1 04EF001C#965B4AED6B9CB72E
(1708107957.968200) can1 0CF00400#FF7D7D000000FFFF
(1708107957.968742) can1 0CEF1100#60A8D03F4D48D9B6
(1708107957.972550) can1 04EF001C#555EA7F0A8D95A73
(1708107957.973213) can1 18FFDC00#E014010000507B19
(1708107957.973807) can1 0CEF0100#B020000000625400
(1708107957.978209) can1 18FFDC00#E100000000A4FFA3
(1708107957.978800) can1 0CF00300#CF004FFF00FFFFFF
(1708107957.979362) can1 0CEF0017#812B8813CD0AFFFF
(1708107957.981710) can1 09F8021C#18FC1E120000FFFF
(1708107957.982680) can1 04EF001C#6341685F9E06951C
(1708107957.983245) can1 18FFDC00#E2FFFF6E921B00FF
(1708107957.983808) can1 09F8011C#A06D26184E6B5BC1
(1708107957.984731) can1 19FA031C#18D252009D006500
(1708107957.985745) can1 0DF0101C#18F0A34DB033B42B
(1708107957.986733) can1 18FEE81C#4A0D00002064637E
(1708107957.987811) can1 19FA041C#00AB18FF0E017512
(1708107957.988387) can1 0CF00400#FF7D7D000000FFFF
(1708107957.988955) can1 18E8FF00#02FFFFFFFF00EF00
(1708107957.989531) can1 19FA041C#01FAC86810FFFFFF
(1708107957.990837) can1 19FA041C#02FFFF05A627D020
(1708107957.991848) can1 19FA041C#036810FFFFFFFFFF
(1708107957.992802) can1 04EF001C#7C445FA28163A281
(1708107957.993398) can1 0CEF0100#B020000000625400
(1708107957.993970) can1 19FA041C#040C0D020C7B6C07
(1708107957.994905) can1 19FA041C#05FFFFFFFFFF0D82
(1708107957.995887) can1 19FA041C#06147648A00FFFFF
(1708107957.996911) can1 19FA041C#07FFFFFF0FED172C
(1708107957.997912) can1 19FA041C#08653011FFFFFFFF
(1708107957.998490) can1 18FEF100#FF0000F5FF11DFFF
(1708107957.999078) can1 19FA041C#09FF10AF0096E100
(1708107957.999956) can1 19FA041C#0A00FFFFFFFFFF12
(1708107958.000964) can1 19FA041C#0BB61C3EC63011FF
(1708107958.001960) can1 19FA041C#0CFFFFFFFF14D313
(1708107958.002917) can1 04EF001C#D147EFC92DA0132A
(1708107958.004008) can1 19FA041C#0D2E221C0CFFFFFF
(1708107958.005009) can1 19FA041C#0EFFFF174E0C2099
(1708107958.006025) can1 19FA041C#0FD007FFFFFFFFFF
(1708107958.007014) can1 19FA041C#10194E0C748B480D
(1708107958.008040) can1 19FA041C#11FFFFFFFFFF1AFD
(1708107958.008620) can1 0CF00400#FF7D7D000000FFFF
(1708107958.009195) can1 19FA041C#120C14CDD80EFFFF
(1708107958.010109) can1 19FA041C#13FFFFFF1D283CF6
(1708107958.011093) can1 19FA041C#149FA00FFFFFFFFF
(1708107958.012064) can1 19FA041C#15FF2CB61CFC85CC
(1708107958.013028) can1 04EF001C#A04AF54C5D6D086F
(1708107958.013603) can1 0CEF0100#B020000000625400
(1708107958.014178) can1 19FA041C#1610FFFFFFFFFF30
(1708107958.015128) can1 19FA041C#17A91A308EA00FFF
(1708107958.016133) can1 19FA041C#18FFFFFFFFFFFFFF
(1708107958.018173) can1 0CEF1100#A2A75EAC21BF9252
(1708107958.018992) can1 18FF1CF3#0000000000000000
(1708107958.021893) can1 18FF1C17#0000000000000000
(1708107958.023130) can1 04EF001C#A64CC37A5B6B3E59
(1708107958.023706) can1 18FFDC00#0014010000507B19
(1708107958.026030) can1 18FF1080#000000FFFFFFFD00
(1708107958.027028) can1 18FF1180#0300FBFDFFFF00FF
(1708107958.028194) can1 18FFDC00#0100000000A4FFA3
(1708107958.028846) can1 0CF00300#CF004FFF00FFFFFF
(1708107958.029357) can1 0CF00400#FF7D7D000000FFFF
(1708107958.033204) can1 18FFDC00#02FFFF6E921B00FF
(1708107958.033794) can1 04EF001C#3F4F46B1C208BBF2
(1708107958.034403) can1 09F20000#000000FFFFFFFFFF
(1708107958.034998) can1 0CEF0100#B020000000625400
(1708107958.043363) can1 04EF001C#2652B764DBF54AC7
(1708107958.048199) can1 0CF00400#FF7D7D000000FFFF
(1708107958.053223) can1 0CEF0100#B020000000625400
(1708107958.053774) can1 04EF001C#E454437219F3BED1
(1708107958.058222) can1 18FEF200#0000FFFFFFFF37FF
(1708107958.058973) can1 0CEF0017#812B8813CD0AFFFF
(1708107958.063586) can1 04EF001C#82573E417FB0C3A2
(1708107958.068201) can1 0CF00400#FF7D7D000000FFFF
(1708107958.068754) can1 0CEF1100#1AD90570D964E38B
(1708107958.069338) can1 18E8FF00#02FFFFFFFF00EF00
(1708107958.073221) can1 18FFDC00#2014010000507B19
(1708107958.073757) can1 04EF001C#D859169F261EE8DC
(1708107958.074340) can1 0CEF0100#B020000000625400
(1708107958.078195) can1 18FFDC00#2100000000A4FFA3
(1708107958.078802) can1 0CF00300#CF004FFF00FFFFFF
(1708107958.083226) can1 18FFDC00#22FFFF6E921B00FF
(1708107958.083852) can1 04EF001C#965C72EA68DB8C69
(1708107958.088197) can1 0CF00400#FF7D7D000000FFFF
(1708107958.093220) can1 0CEF0100#B020000000625400
(1708107958.093934) can1 04EF001C#575FADE1A85852E2
(1708107958.098212) can1 18FEF100#FF0000F5FF11DFFF
(1708107958.104028) can1 04EF001C#1A420A94E525F5F7
(1708107958.108199) can1 0CF00400#FF7D7D000000FFFF
(1708107958.113215) can1 0CEF0100#B020000000625400
(1708107958.114131) can1 04EF001C#D644F0F229E30F51
(1708107958.118194) can1 0CEF1100#D4D418833208F753
(1708107958.119002) can1 18FF1CF3#0000000000000000
(1708107958.123206) can1 18FFDC00#4014010000507B19
(1708107958.124251) can1 04EF001C#9847A48167A05B62
(1708107958.127034) can1 18FF1080#000000FFFFFFFD00
(1708107958.128027) can1 18FF1180#0300FBFDFFFF00FF
(1708107958.128629) can1 0CF00300#CF004FFF00FFFFFF
(1708107958.129170) can1 0CF00400#FF7D7D000000FFFF
(1708107958.129756) can1 18FF1380#000000003FC0C006
(1708107958.130334) can1 18FFDC00#4100000000A4FFA3
(1708107958.133197) can1 18FFDC00#42FFFF6E921B00FF
(1708107958.133792) can1 09F20000#000000FFFFFFFFFF
(1708107958.134364) can1 0CEF0100#B020000000625400
(1708107958.134910) can1 04EF001C#C24A945CC24A9458
(1708107958.138229) can1 09F20100#0016000200FFFFC9
(1708107958.138976) can1 0CEF0017#812B8813CD0AFFFF
(1708107958.143190) can1 09F20100#0172C90400006E92
(1708107958.143793) can1 18FEE500#36270000FFFFFFFF
(1708107958.144490) can1 04EF001C#194D7183192D71E7
(1708107958.148197) can1 0CF00400#FF7D7D000000FFFF
(1708107958.148859) can1 09F20100#021B00FFFFFFFF00
(1708107958.149372) can1 18E8FF00#02FFFFFFFF00EF00
(1708107958.149945) can1 18FEEE00#3DFFFFFFFFFF42FF
(1708107958.153229) can1 09F20100#030100FFFFFFFFFF
(1708107958.153829) can1 0CEF0100#B020000000625400
(1708107958.154389) can1 18FEEF00#FFFFFF00FFFFFFFF
(1708107958.154982) can1 04EF001C#D74FA9F1D7EFA955
(1708107958.158222) can1 18FEF200#0000FFFFFFFF37FF
(1708107958.163205) can1 18FEF700#FFFF1A01F500F600
(1708107958.164688) can1 04EF001C#BD5228BCBDB22858
(1708107958.168205) can1 0CF00400#FF7D7D000000FFFF
(1708107958.168737) can1 0CEF1100#F4C9B9844D1C1CAC
(1708107958.173213) can1 18FFDC00#6014010000507B19
(1708107958.173841) can1 0CEF0100#B020000000625400
(1708107958.174830) can1 04EF001C#7D55D6BB7C75D79F
(1708107958.178238) can1 18FFDC00#6100000000A4FFA3
(1708107958.178779) can1 0CF00300#CF004FFF00FFFFFF
(1708107958.183186) can1 18FFDC00#62FFFF6E921B00FF
(1708107958.183786) can1 0CEF1700#01AB8813CD0AFFFF
(1708107958.184942) can1 04EF001C#7458B7FE75D8B67A
(1708107958.188204) can1 0CF00400#FF7D7D000000FFFF
(1708107958.188846) can1 18FEFC00#FFA3FFFFFFFFFFFF
(1708107958.193229) can1 0CEF0100#B020000000625400
(1708107958.193832) can1 18FEF600#FFFF3D2AFFFFFFFF
(1708107958.195046) can1 04EF001C#345BEDFD359BEC39
(1708107958.198211) can1 18FEF100#FF0000F5FF11DFFF
(1708107958.205142) can1 04EF001C#035EF34002BEF2A4
(1708107958.208201) can1 0CF00400#FF7D7D000000FFFF
(1708107958.213217) can1 0CEF0100#B020000000625400
(1708107958.215261) can1 04EF001C#2041294722412B43
(1708107958.218199) can1 0CEF1100#80FAFF29FA250C19
(1708107958.219080) can1 0CEF0017#812B8813CD0AFFFF
(1708107958.223215) can1 18FFDC00#8014010000507B19
(1708107958.225354) can1 04EF001C#DE43C0B5DC63C291
(1708107958.227056) can1 18FF1080#000000FFFFFFFD00
(1708107958.228028) can1 18FF1180#0300FBFDFFFF00FF
(1708107958.228624) can1 0CF00300#CF004FFF00FFFFFF
(1708107958.229177) can1 0CF00400#FF7D7D000000FFFF
(1708107958.229746) can1 18E8FF00#02FFFFFFFF00EF00
(1708107958.230314) can1 18FFDC00#8100000000A4FFA3
(1708107958.233203) can1 18FFDC00#82FFFF6E921B00FF
(1708107958.233794) can1 09F20000#000000FFFFFFFFFF
(1708107958.234379) can1 0CEF0100#B020000000625400
(1708107958.235507) can1 04EF001C#A0469540A2269724
(1708107958.239028) can1 18FF1CF3#0000000000000000
(1708107958.245578) can1 04EF001C#03494B5701294933
(1708107958.248201) can1 0CF00400#FF7D7D000000FFFF
(1708107958.253220) can1 0CEF0100#B020000000625400
(1708107958.255701) can1 04EF001C#1F4C7FB21D2C7DD6
(1708107958.258222) can1 18FEF200#0000FFFFFFFF37FF
(1708107958.265808) can1 04EF001C#834EF750810EF514
(1708107958.268198) can1 0CF00400#FF7D7D000000FFFF
(1708107958.268845) can1 0CEF1100#4EF912D930CB89CE
(1708107958.273212) can1 18FFDC00#A014010000507B19
(1708107958.273820) can1 0CEF0100#B020000000625400
(1708107958.275898) can1 04EF001C#0C5184370E718613
(1708107958.278216) can1 18FFDC00#A100000000A4FFA3
(1708107958.278784) can1 0CF00300#CF004FFF00FFFFFF
(1708107958.280725) can1 0DF50B9B#A8FFFFFFFF0000FF
(1708107958.283181) can1 18FFDC00#A2FFFF6E921B00FF
(1708107958.286009) can1 04EF001C#96530AE597B30B01
(1708107958.288200) can1 0CF00400#FF7D7D000000FFFF
(1708107958.290447) can1 18FF1C17#0000000000000000
(1708107958.293223) can1 0CEF0100#B020000000625400
(1708107958.296128) can1 04EF001C#5556E7F854D6E67C
(1708107958.298199) can1 18FEF100#FF0000F5FF11DFFF
(1708107958.306241) can1 04EF001C#1659DEEF16B9DE0B
(1708107958.308200) can1 0CF00400#FF7D7D000000FFFF
(1708107958.313220) can1 0CEF0100#B020000000625400
(1708107958.316343) can1 04EF001C#D55B0BF5D53B0B91
(1708107958.318179) can1 0CEF1100#1CE8CCCDC2BF7AD9
(1708107958.323201) can1 18FFDC00#C014010000507B19
(1708107958.326475) can1 04EF001C#975E63E0975E63E4
(1708107958.328041) can1 18FF1080#000000FFFFFFFD00
(1708107958.328605) can1 0CF00300#CF004FFF00FFFFFF
(1708107958.329181) can1 0CF00400#FF7D7D000000FFFF
(1708107958.329779) can1 18FF1180#0300FBFDFFFF00FF
(1708107958.330344) can1 18FFDC00#C100000000A4FFA3
(1708107958.331097) can1 18FF1380#000000003FC0C006
(1708107958.333199) can1 18FFDC00#C2FFFF6E921B00FF
(1708107958.333790) can1 09F20000#000000FFFFFFFFFF
(1708107958.334371) can1 0CEF0100#B020000000625400
(1708107958.336576) can1 04EF001C#8A41861775C67994
(1708107958.346683) can1 04EF001C#164436F2E903C9B1
(1708107958.348200) can1 0CF00400#FF7D7D000000FFFF
(1708107958.353222) can1 0CEF0100#B020000000625400
(1708107958.356802) can1 04EF001C#D546E3E82BA11D0B
(1708107958.358210) can1 18FEF200#0000FFFFFFFF37FF
(1708107958.358988) can1 0CEF0017#812B8813CD0AFFFF
(1708107958.366907) can1 04EF001C#9649DAFF68CE247C
(1708107958.368201) can1 0CF00400#FF7D7D000000FFFF
(1708107958.368839) can1 0CEF1100#D2E3613F104837CC
(1708107958.369324) can1 18E8FF00#02FFFFFFFF00EF00
(1708107958.373218) can1 18FFDC00#E014010000507B19
(1708107958.373826) can1 0CEF0100#B020000000625400
(1708107958.377024) can1 04EF001C#564C34FAA82BCA99
(1708107958.378197) can1 18FFDC00#E100000000A4FFA3
(1708107958.378775) can1 0CF00300#CF004FFF00FFFFFF
(1708107958.379344) can1 18FF1CF3#0000000000000000
(1708107958.383191) can1 18FFDC00#E2FFFF6E921B00FF
(1708107958.385566) can1 15FD069B#54E873FFFFFFFFFF
(1708107958.387139) can1 04EF001C#164F6EF9E8E8905A
(1708107958.388207) can1 0CF00400#FF7D7D000000FFFF
(1708107958.393251) can1 0CEF0100#B020000000625400
(1708107958.397260) can1 04EF001C#D5515BFF2B36A59C
(1708107958.398203) can1 18FEF100#FF0000F5FF11DFFF
(1708107958.398992) can1 0CEF0017#812B8813CD0AFFFF
(1708107958.407378) can1 04EF001C#28558113D6D27F90
(1708107958.408210) can1 0CF00400#FF7D7D000000FFFF
(1708107958.408840) can1 18E8FF00#02FFFFFFFF00EF00
(1708107958.413230) can1 0CEF0100#B020000000625400
(1708107958.417484) can1 04EF001C#D857669126F09832
(1708107958.418192) can1 0CEF1100#F09EC0B33DDBE63F
(1708107958.419022) can1 18FF1CF3#0000000000000000
(1708107958.423214) can1 18FFDC00#0014010000507B19
(1708107958.427593) can1 04EF001C#825A564C7CBDA8AF
(1708107958.428198) can1 18FF1080#000000FFFFFFFD00
(1708107958.428758) can1 0CF00300#CF004FFF00FFFFFF
(1708107958.429331) can1 0CF00400#FF7D7D000000FFFF
(1708107958.429904) can1 18FF1180#0300FBFDFFFF00FF
(1708107958.430476) can1 18FFDC00#0100000000A4FFA3
(1708107958.433196) can1 18FFDC00#02FFFF6E921B00FF
(1708107958.433817) can1 09F20000#000000FFFFFFFFFF
(1708107958.434403) can1 0CEF0100#B020000000625400
(1708107958.437713) can1 04EF001C#635D88439C5A7740
(1708107958.447832) can1 04EF001C#174017FEE807E8BD
(1708107958.448403) can1 0CF00400#FF7D7D000000FFFF
(1708107958.453225) can1 0CEF0100#B020000000625400
(1708107958.457943) can1 04EF001C#BF42AABC400555FF
(1708107958.458553) can1 18FEF200#0000FFFFFFFF37FF
(1708107958.459069) can1 0CEF0017#812B8813CD0AFFFF
(1708107958.468034) can1 04EF001C#A44589635B427660
(1708107958.468583) can1 0CEF1100#3C97FDD15529067A
(1708107958.469165) can1 0CF00400#FF7D7D000000FFFF
(1708107958.469729) can1 18E8FF00#02FFFFFFFF00EF00
(1708107958.473209) can1 18FFDC00#2014010000507B19
(1708107958.473843) can1 0CEF0100#B020000000625400
(1708107958.478153) can1 04EF001C#D547EBE92B80152A
(1708107958.478742) can1 0CF00300#CF004FFF00FFFFFF
(1708107958.479305) can1 18FFDC00#2100000000A4FFA3
(1708107958.481956) can1 18FF1C17#0000000000000000
(1708107958.483181) can1 18FFDC00#22FFFF6E921B00FF
(1708107958.486272) can1 09F8021C#19FC1E120100FFFF
(1708107958.487238) can1 09F8011C#9E6D26184A6B5BC1
(1708107958.488202) can1 0CF00400#FF7D7D000000FFFF
(1708107958.488869) can1 04EF001C#D64A80FC288D7E3F
(1708107958.490315) can1 19FA031C#19D252009D006500
(1708107958.491299) can1 0DF0101C#19F0A34DB033B42B
(1708107958.492313) can1 18FEE81C#4A0D00002064637E
(1708107958.493225) can1 0CEF0100#B020000000625400
(1708107958.493776) can1 19FA041C#20AB19FF0E017512
(1708107958.495407) can1 19FA041C#21FAC80410FFFFFF
(1708107958.496415) can1 19FA041C#22FFFF05A627D020
(1708107958.497429) can1 19FA041C#236810FFFFFFFFFF
(1708107958.498253) can1 18FEF100#FF0000F5FF11DFFF
(1708107958.498751) can1 04EF001C#FC4D93AB02EA6D08
(1708107958.499523) can1 19FA041C#240C0D020C7B0807
(1708107958.500460) can1 19FA041C#25FFFFFFFFFF0D82
(1708107958.501460) can1 19FA041C#261476480410FFFF
(1708107958.502478) can1 19FA041C#27FFFFFF0FED172C
(1708107958.503485) can1 19FA041C#28653011FFFFFFFF
(1708107958.504487) can1 19FA041C#29FF10AF0096E100
(1708107958.505518) can1 19FA041C#2A00FFFFFFFFFF12
(1708107958.506517) can1 19FA041C#2BB61C3EC69411FF
(1708107958.507522) can1 19FA041C#2CFFFFFFFF14D313
(1708107958.508203) can1 0CF00400#FF7D7D000000FFFF
(1708107958.508746) can1 04EF001C#C25044463C97BA85
(1708107958.509580) can1 19FA041C#2D2E22C409FFFFFF
(1708107958.510555) can1 19FA041C#2EFFFF174E0C2099
(1708107958.511600) can1 19FA041C#2FD007FFFFFFFFFF
(1708107958.512577) can1 19FA041C#30194E0C748B480D
(1708107958.513219) can1 0CEF0100#B020000000625400
(1708107958.513808) can1 19FA041C#31FFFFFFFFFF1AFD
(1708107958.514636) can1 19FA041C#320C14CD3C0FFFFF
(1708107958.515620) can1 19FA041C#33FFFFFF1D283CF6
(1708107958.516634) can1 19FA041C#349F6810FFFFFFFF
(1708107958.517626) can1 19FA041C#35FF2CB61CFC85CC
(1708107958.518183) can1 0CEF1100#6B834AACAD57E47C
(1708107958.518728) can1 04EF001C#90530CD56E94F216
(1708107958.519308) can1 18FF1CF3#0000000000000000
(1708107958.519899) can1 19FA041C#3610FFFFFFFFFF30
(1708107958.520666) can1 19FA041C#37A91A308E3C0FFF
(1708107958.521684) can1 19FA041C#38FFFFFFFFFFFFFF
(1708107958.523196) can1 18FFDC00#4014010000507B19
(1708107958.528188) can1 18FFDC00#4100000000A4FFA3
(1708107958.528726) can1 04EF001C#9855349366B2CA70
(1708107958.529293) can1 0CF00300#CF004FFF00FFFFFF
(1708107958.529893) can1 0CF00400#FF7D7D000000FFFF
(1708107958.530497) can1 18FF1080#000000FFFFFFFD00
(1708107958.532036) can1 18FF1180#0300FBFDFFFF00FF
(1708107958.533049) can1 18FF1380#000000003FC0C006
(1708107958.533638) can1 09F20000#000000FFFFFFFFFF
(1708107958.534221) can1 0CEF0100#B020000000625400
(1708107958.534844) can1 18FFDC00#42FFFF6E921B00FF
(1708107958.538818) can1 04EF001C#58589A9EA73F65FD
(1708107958.548199) can1 0CF00400#FF7D7D000000FFFF
(1708107958.549045) can1 04EF001C#185BC09DE7BC3F7E
(1708107958.553231) can1 0CEF0100#B020000000625400
(1708107958.558219) can1 18FEF200#0000FFFFFFFF37FF
(1708107958.559042) can1 04EF001C#D75D39E3D75D39E7
(1708107958.568199) can1 0CF00400#FF7D7D000000FFFF
(1708107958.568737) can1 0CEF1100#A38616ED6BB5804A
(1708107958.569298) can1 04EF001C#98409C8698609CA2
(1708107958.573217) can1 18FFDC00#6014010000507B19
(1708107958.573798) can1 0CEF0100#B020000000625400
(1708107958.578208) can1 18FFDC00#6100000000A4FFA3
(1708107958.578760) can1 0CF00300#CF004FFF00FFFFFF
(1708107958.579390) can1 04EF001C#55434FED55434FE9
(1708107958.579882) can1 0CEF0017#812B8813CD0AFFFF
(1708107958.583187) can1 18FFDC00#62FFFF6E921B00FF
(1708107958.588202) can1 0CF00400#FF7D7D000000FFFF
(1708107958.588861) can1 18E8FF00#02FFFFFFFF00EF00
(1708107958.589431) can1 04EF001C#8346B7587CA148BB
(1708107958.593231) can1 0CEF0100#B020000000625400
(1708107958.598213) can1 18FEF100#FF0000F5FF11DFFF
(1708107958.599533) can1 04EF001C#FB48BC96FB48BC92
(1708107958.608203) can1 0CF00400#FF7D7D000000FFFF
(1708107958.609613) can1 04EF001C#4D4C2F224D4C2F26
(1708107958.613231) can1 0CEF0100#B020000000625400
(1708107958.618186) can1 0CEF1100#D2B03929D68681EE
(1708107958.619007) can1 0CEF0017#812B8813CD0AFFFF
(1708107958.619748) can1 04EF001C#E74E907018A96F93
(1708107958.623218) can1 18FFDC00#8014010000507B19
(1708107958.628186) can1 18FFDC00#8100000000A4FFA3
(1708107958.628751) can1 0CF00300#CF004FFF00FFFFFF
(1708107958.629328) can1 0CF00400#FF7D7D000000FFFF
(1708107958.629919) can1 04EF001C#0352934CFCB56CAF
(1708107958.630550) can1 18E8FF00#02FFFFFFFF00EF00
(1708107958.631077) can1 18FF1080#000000FFFFFFFD00
(1708107958.632037) can1 18FF1180#0300FBFDFFFF00FF
(1708107958.633206) can1 18FFDC00#82FFFF6E921B00FF
(1708107958.633807) can1 09F20000#000000FFFFFFFFFF
(1708107958.634381) can1 0CEF0100#B020000000625400
(1708107958.639047) can1 18FF1CF3#0000000000000000
(1708107958.639936) can1 04EF001C#6354C04A6354C04E
(1708107958.648212) can1 0CF00400#FF7D7D000000FFFF
(1708107958.650049) can1 04EF001C#3B5782893B3782ED
(1708107958.653246) can1 18FEEF00#FFFFFF00FFFFFFFF
(1708107958.653784) can1 0CEF0100#B020000000625400
(1708107958.658221) can1 18FEF200#0000FFFFFFFF37FF
(1708107958.660169) can1 04EF001C#1A5ACA8C1ADACA08
(1708107958.668204) can1 0CF00400#FF7D7D000000FFFF
(1708107958.668856) can1 0CEF1100#2BB420A0141101BB
(1708107958.670291) can1 04EF001C#045DEC7B04DDECFF
(1708107958.673221) can1 18FFDC00#A014010000507B19
(1708107958.673804) can1 0CEF0100#B020000000625400
(1708107958.678211) can1 18FFDC00#A100000000A4FFA3
(1708107958.678795) can1 0CF00300#CF004FFF00FFFFFF
(1708107958.680369) can1 04EF001C#695F9211691F9255
(1708107958.682193) can1 18FF1C17#0000000000000000
(1708107958.683195) can1 18FFDC00#A2FFFF6E921B00FF
(1708107958.683765) can1 0CEF1700#01AB8813CD0AFFFF
(1708107958.688215) can1 0CF00400#FF7D7D000000FFFF
(1708107958.690478) can1 04EF001C#CD41C32FCC61C20B
(1708107958.693216) can1 0CEF0100#B020000000625400
(1708107958.693820) can1 18FEF600#FFFF3D2AFFFFFFFF
(1708107958.698211) can1 18FEF100#FF0000F5FF11DFFF
(1708107958.699053) can1 0CEF0017#812B8813CD0AFFFF
(1708107958.700594) can1 04EF001C#8C44A8228E64AA06
(1708107958.708214) can1 0CF00400#FF7D7D000000FFFF
(1708107958.708769) can1 18E8FF00#02FFFFFFFF00EF00
(1708107958.710704) can1 04EF001C#8247BE518327BF35
(1708107958.713233) can1 0CEF0100#B020000000625400
(1708107958.718185) can1 0CEF1100#7AA6266CE063025C
(1708107958.719041) can1 18FF1CF3#0000000000000000
(1708107958.720807) can1 04EF001C#D849968FD889964B
(1708107958.723199) can1 18FFDC00#C014010000507B19
(1708107958.728198) can1 18FFDC00#C100000000A4FFA3
(1708107958.728779) can1 0CF00300#CF004FFF00FFFFFF
(1708107958.729340) can1 0CF00400#FF7D7D000000FFFF
(1708107958.730036) can1 18FF1080#000000FFFFFFFD00
(1708107958.730918) can1 04EF001C#2C4D452B2CAD45CF
(1708107958.731523) can1 18FF1180#0300FBFDFFFF00FF
(1708107958.733051) can1 18FF1380#000000003FC0C006
(1708107958.733658) can1 09F20000#000000FFFFFFFFFF
(1708107958.734231) can1 0CEF0100#B020000000625400
(1708107958.734907) can1 18FFDC00#C2FFFF6E921B00FF
(1708107958.741048) can1 04EF001C#574F2DF1566F2CD5
(1708107958.748212) can1 0CF00400#FF7D7D000000FFFF
(1708107958.751152) can1 04EF001C#165286E4175287E0
(1708107958.753230) can1 0CEF0100#B020000000625400
(1708107958.758218) can1 18FEF200#0000FFFFFFFF37FF
(1708107958.761278) can1 04EF001C#D55473FAD534739E
(1708107958.768209) can1 0CF00400#FF7D7D000000FFFF
(1708107958.768769) can1 0CEF1100#43DAC9F8435BC91A
(1708107958.771369) can1 04EF001C#96572AE169F0D542
(1708107958.773221) can1 18FFDC00#E014010000507B19
(1708107958.773830) can1 0CEF0100#B020000000625400
(1708107958.778205) can1 18FFDC00#E100000000A4FFA3
(1708107958.778806) can1 0CF00300#CF004FFF00FFFFFF
(1708107958.781491) can1 04EF001C#555A87F4AA3D7897
(1708107958.783185) can1 18FFDC00#E2FFFF6E921B00FF
(1708107958.788211) can1 0CF00400#FF7D7D000000FFFF
(1708107958.791610) can1 04EF001C#195DF193E6FA0E30
(1708107958.793227) can1 0CEF0100#B020000000625400
(1708107958.798213) can1 18FEF100#FF0000F5FF11DFFF
(1708107958.801734) can1 04EF001C#1B401B9EE427E4FD
(1708107958.808210) can1 0CF00400#FF7D7D000000FFFF
(1708107958.811826) can1 04EF001C#24433D65DAA4C386
(1708107958.813232) can1 0CEF0100#B020000000625400
(1708107958.818190) can1 0CEF1100#02D42BB38C0AD723
(1708107958.819020) can1 0CEF0017#812B8813CD0AFFFF
(1708107958.821936) can1 04EF001C#E345CC5B1DA232B8
(1708107958.823210) can1 18FFDC00#0014010000507B19
(1708107958.828200) can1 18FFDC00#0100000000A4FFA3
(1708107958.828916) can1 0CF00300#CF004FFF00FFFFFF
(1708107958.829338) can1 0CF00400#FF7D7D000000FFFF
(1708107958.829902) can1 18E8FF00#02FFFFFFFF00EF00
(1708107958.830515) can1 18FF1080#000000FFFFFFFD00
(1708107958.832034) can1 18FF1180#0300FBFDFFFF00FF
(1708107958.832572) can1 04EF001C#B748F2F649AF0C15
(1708107958.833195) can1 18FFDC00#02FFFF6E921B00FF
(1708107958.833895) can1 09F20000#000000FFFFFFFFFF
(1708107958.834430) can1 0CEF0100#B020000000625400
(1708107958.839061) can1 18FF1CF3#0000000000000000
(1708107958.842180) can1 04EF001C#644B3F6D9AACC18E
(1708107958.848209) can1 0CF00400#FF7D7D000000FFFF
(1708107958.848844) can1 18FECA00#40FF00000000FFFF
(1708107958.852272) can1 04EF001C#244E5568DAE9ABCB
(1708107958.853225) can1 0CEF0100#B020000000625400
(1708107958.858218) can1 18FEF200#0000FFFFFFFF37FF
(1708107958.859021) can1 0CEF0017#812B8813CD0AFFFF
(1708107958.862409) can1 04EF001C#BF503AAE4137C4CD
(1708107958.868211) can1 0CF00400#FF7D7D000000FFFF
(1708107958.868741) can1 0CEF1100#DECD925570C2E7C3
(1708107958.869318) can1 18E8FF00#02FFFFFFFF00EF00
(1708107958.872480) can1 04EF001C#17538FEDE97471CE
(1708107958.873219) can1 18FFDC00#2014010000507B19
(1708107958.873809) can1 0CEF0100#B020000000625400
(1708107958.878216) can1 18FFDC00#2100000000A4FFA3
(1708107958.878760) can1 0CF00300#CF004FFF00FFFFFF
(1708107958.882615) can1 04EF001C#D5557BFB2B5285F8
(1708107958.883208) can1 18FFDC00#22FFFF6E921B00FF
(1708107958.884083) can1 15FD069B#55E873FFFFFFFFFF
(1708107958.888199) can1 0CF00400#FF7D7D000000FFFF
(1708107958.892704) can1 04EF001C#975853E6697FADC5
(1708107958.893322) can1 0CEF0100#B020000000625400
(1708107958.898218) can1 18FEF100#FF0000F5FF11DFFF
(1708107958.899091) can1 0CEA1C00#00EE000000000000
(1708107958.899864) can1 18EEFF1C#0204450E00000042
(1708107958.902827) can1 04EF001C#565B8CEDABBC710E
(1708107958.908212) can1 0CF00400#FF7D7D000000FFFF
(1708107958.912940) can1 04EF001C#175EE7E0EAD91A63
(1708107958.913557) can1 0CEF0100#B020000000625400
(1708107958.918180) can1 0CEF1100#94C48A87B2869353
(1708107958.919059) can1 18FF1CF3#0000000000000000
(1708107958.923054) can1 04EF001C#D540D3EE28072EAD
(1708107958.923650) can1 18FFDC00#4014010000507B19
(1708107958.928197) can1 18FFDC00#4100000000A4FFA3
(1708107958.928840) can1 0CF00300#CF004FFF00FFFFFF
(1708107958.929355) can1 0CF00400#FF7D7D000000FFFF
(1708107958.931042) can1 18FF1080#000000FFFFFFFD00
(1708107958.932034) can1 18FF1180#0300FBFDFFFF00FF
(1708107958.933062) can1 18FF1380#000000003FC0C006
(1708107958.933579) can1 04EF001C#96438AF56AA47616
(1708107958.934229) can1 09F20000#000000FFFFFFFFFF
(1708107958.934767) can1 0CEF0100#B020000000625400
(1708107958.935325) can1 18FFDC00#42FFFF6E921B00FF
(1708107958.939038) can1 0CEF0017#812B8813CD0AFFFF
(1708107958.942158) can1 18FF1C17#0000000000000000
(1708107958.943257) can1 04EF001C#554667E8A9E19B4B
(1708107958.948211) can1 0CF00400#FF7D7D000000FFFF
(1708107958.948780) can1 18E8FF00#02FFFFFFFF00EF00
(1708107958.953230) can1 0CEF0100#B020000000625400
(1708107958.953807) can1 04EF001C#16495EFFEAEEA25C
(1708107958.958221) can1 18FEF200#0000FFFFFFFF37FF
(1708107958.963507) can1 04EF001C#D74B89F52B8C7536
(1708107958.968207) can1 0CF00400#FF7D7D000000FFFF
(1708107958.968740) can1 0CEF1100#76FB8D190E2F2639
(1708107958.973213) can1 18FFDC00#6014010000507B19
(1708107958.973756) can1 04EF001C#964EE2F86B491FFB
(1708107958.974346) can1 0CEF0100#B020000000625400
(1708107958.978210) can1 18FFDC00#6100000000A4FFA3
(1708107958.978794) can1 0CF00300#CF004FFF00FFFFFF
(1708107958.983192) can1 18FFDC00#62FFFF6E921B00FF
(1708107958.983739) can1 04EF001C#5551DFFFA85622FC
(1708107958.988208) can1 0CF00400#FF7D7D000000FFFF
(1708107958.991861) can1 09F8021C#1AFC1E120000FFFF
(1708107958.992825) can1 09F8011C#9E6D26184A6B5BC1
(1708107958.993389) can1 0CEF0100#B020000000625400
(1708107958.993964) can1 04EF001C#5354F1CAAE730CE9
(1708107958.994872) can1 19FA031C#1AD252009D006500
(1708107958.995856) can1 0DF0101C#1AF0A34DC05AB42B
(1708107958.996892) can1 18FEE81C#4A0D00002064637E
(1708107958.997958) can1 19FA041C#40AB1AFF0E017512
(1708107958.998522) can1 18FEF100#FF0000F5FF11DFFF
(1708107958.999105) can1 19FA041C#41FAC80410FFFFFF
(1708107958.999986) can1 19FA041C#42FFFF05A627D020
(1708107959.000996) can1 19FA041C#436810FFFFFFFFFF
(1708107959.001984) can1 19FA041C#440C0D020C7BA406
(1708107959.003003) can1 19FA041C#45FFFFFFFFFF0D82
(1708107959.003954) can1 04EF001C#EA5755011730A862
(1708107959.005050) can1 19FA041C#46147648A00FFFFF
(1708107959.006038) can1 19FA041C#47FFFFFF0FED172C
(1708107959.007053) can1 19FA041C#48653011FFFFFFFF
(1708107959.008065) can1 19FA041C#49FF10AF0096E100
(1708107959.008666) can1 0CF00400#FF7D7D000000FFFF
(1708107959.009243) can1 19FA041C#4A00FFFFFFFFFF12
(1708107959.010127) can1 19FA041C#4BB61C3EC63011FF
(1708107959.011090) can1 19FA041C#4CFFFFFFFF14D313
(1708107959.012113) can1 19FA041C#4D2E22280AFFFFFF
(1708107959.013117) can1 19FA041C#4EFFFF174E0C2099
(1708107959.013730) can1 0CEF0100#B020000000625400
(1708107959.014244) can1 04EF001C#B95A6C9444DD9117
(1708107959.015206) can1 19FA041C#4FD007FFFFFFFFFF
(1708107959.016155) can1 19FA041C#50194E0C748BE40C
(1708107959.017186) can1 19FA041C#51FFFFFFFFFF1AFD
(1708107959.018179) can1 19FA041C#520C14CD3C0FFFFF
(1708107959.018724) can1 0CEF1100#21EB1A65FF50CC76
(1708107959.019297) can1 19FA041C#53FFFFFF1D283CF6
(1708107959.020253) can1 19FA041C#549F0410FFFFFFFF
(1708107959.021206) can1 19FA041C#55FF2CB61CFC85CC
(1708107959.022225) can1 19FA041C#5610FFFFFFFFFF30
(1708107959.023202) can1 18FFDC00#8014010000507B19
(1708107959.023757) can1 19FA041C#57A91A308EA00FFF
(1708107959.025199) can1 04EF001C#9F5D73A362BA8E40
(1708107959.026277) can1 19FA041C#57A91A308EA00FFF
(1708107959.027274) can1 19FA041C#58FFFFFFFFFFFFFF
(1708107959.028190) can1 18FFDC00#8100000000A4FFA3
(1708107959.028794) can1 0CF00300#CF004FFF00FFFFFF
(1708107959.029357) can1 0CF00400#FF7D7D000000FFFF
(1708107959.031035) can1 18FF1080#000000FFFFFFFD00
(1708107959.032037) can1 18FF1180#0300FBFDFFFF00FF
(1708107959.033198) can1 18FFDC00#82FFFF6E921B00FF
(1708107959.033785) can1 09F20000#000000FFFFFFFFFF
(1708107959.034352) can1 04EF001C#A45F59795A58A77A
(1708107959.034931) can1 0CEF0100#B020000000625400
(1708107959.044413) can1 04EF001C#3F422EBCC125D0DF
(1708107959.048204) can1 0CF00400#FF7D7D000000FFFF
(1708107959.053218) can1 0CEF0100#B020000000625400
(1708107959.054538) can1 04EF001C#2A450313D482FDD0
(1708107959.058221) can1 18FEF200#0000FFFFFFFF37FF
(1708107959.059038) can1 0CEF0017#812B8813CD0AFFFF
(1708107959.064624) can1 04EF001C#E347DC591C40235A
(1708107959.068202) can1 0CF00400#FF7D7D000000FFFF
(1708107959.068836) can1 0CEF1100#EAED9EFC8BAE8D10
(1708107959.069318) can1 18E8FF00#02FFFFFFFF00EF00
(1708107959.073216) can1 18FFDC00#A014010000507B19
(1708107959.073828) can1 0CEF0100#B020000000625400
(1708107959.074769) can1 04EF001C#3E4A6FBCC12D90DF
(1708107959.078213) can1 18FFDC00#A100000000A4FFA3
(1708107959.078805) can1 0CF00300#CF004FFF00FFFFFF
(1708107959.079359) can1 18FF1CF3#0000000000000000
(1708107959.083203) can1 18FFDC00#A2FFFF6E921B00FF
(1708107959.084831) can1 04EF001C#324D5BDBCDCAA458
(1708107959.088203) can1 0CF00400#FF7D7D000000FFFF
(1708107959.093221) can1 0CEF0100#B020000000625400
(1708107959.094942) can1 04EF001C#CD4FB32132E84C82
(1708107959.098210) can1 18FEF100#FF0000F5FF11DFFF
(1708107959.099041) can1 0CEF0017#812B8813CD0AFFFF
(1708107959.105052) can1 04EF001C#5952CB9CA695345F
(1708107959.108206) can1 0CF00400#FF7D7D000000FFFF
(1708107959.108895) can1 18E8FF00#02FFFFFFFF00EF00
(1708107959.113231) can1 0CEF0100#B020000000625400
(1708107959.115151) can1 04EF001C#4D55E73BB2B218D8
(1708107959.118181) can1 0CEF1100#DC987AD2B1122158
(1708107959.119064) can1 18FF1CF3#0000000000000000
(1708107959.123211) can1 18FFDC00#C014010000507B19
(1708107959.125290) can1 04EF001C#0C58CC3E0C78CC1A
(1708107959.128197) can1 18FFDC00#C100000000A4FFA3
(1708107959.128773) can1 0CF00300#CF004FFF00FFFFFF
(1708107959.129341) can1 0CF00400#FF7D7D000000FFFF
(1708107959.132037) can1 18FF1080#000000FFFFFFFD00
(1708107959.133049) can1 18FF1180#0300FBFDFFFF00FF
(1708107959.133634) can1 09F20000#000000FFFFFFFFFF
(1708107959.134213) can1 0CEF0100#B020000000625400
(1708107959.134887) can1 18FF1380#000000003FC0C006
(1708107959.135388) can1 18FFDC00#C2FFFF6E921B00FF
(1708107959.135958) can1 04EF001C#005BD85D001BD819
(1708107959.138229) can1 09F20100#2016000100FFFFC9
(1708107959.142112) can1 18FF1C17#0000000000000000
(1708107959.143183) can1 09F20100#2172C90400006E92
(1708107959.145501) can1 04EF001C#585DB29B58DDB21F
(1708107959.148204) can1 0CF00400#FF7D7D000000FFFF
(1708107959.148798) can1 09F20100#221B00FFFFFFFF00
(1708107959.149416) can1 18FEEE00#3DFFFFFFFFFF42FF
(1708107959.153226) can1 09F20100#230100FFFFFFFFFF
(1708107959.153833) can1 0CEF0100#B020000000625400
(1708107959.154379) can1 18FEEF00#FFFFFF00FFFFFFFF
(1708107959.155632) can1 04EF001C#724071D672E07172
(1708107959.158224) can1 18FEF200#0000FFFFFFFF37FF
(1708107959.163188) can1 18FEF700#FFFF1A01F500F600
(1708107959.165729) can1 04EF001C#0A4312150AC31291
(1708107959.168203) can1 0CF00400#FF7D7D000000FFFF
(1708107959.168786) can1 0CEF1100#1C9D24D375E2D77E
(1708107959.173220) can1 18FFDC00#E014010000507B19
(1708107959.173818) can1 0CEF0100#B020000000625400
(1708107959.175824) can1 04EF001C#CA45E413CAC5E497
(1708107959.178203) can1 18FFDC00#E100000000A4FFA3
(1708107959.178785) can1 0CF00300#CF004FFF00FFFFFF
(1708107959.179319) can1 0CEF0017#812B8813CD0AFFFF
(1708107959.183197) can1 18FFDC00#E2FFFF6E921B00FF
(1708107959.183791) can1 0CEF1700#01AB8813CD0AFFFF
(1708107959.185951) can1 04EF001C#8A48CE1E8A08CE5A
(1708107959.188202) can1 0CF00400#FF7D7D000000FFFF
(1708107959.188784) can1 18E8FF00#02FFFFFFFF00EF00
(1708107959.189383) can1 18FEFC00#FFA3FFFFFFFFFFFF
(1708107959.193233) can1 0CEF0100#B020000000625400
(1708107959.193784) can1 18FEF600#FFFF3D2AFFFFFFFF
(1708107959.196059) can1 04EF001C#4A4B101D4A6B1039
(1708107959.198231) can1 18FEF100#FF0000F5FF11DFFF
(1708107959.206192) can1 04EF001C#424E3058BDA9CFBB
(1708107959.208196) can1 0CF00400#FF7D7D000000FFFF
(1708107959.213233) can1 0CEF0100#B020000000625400
(1708107959.216294) can1 04EF001C#2451AD77DB9652B4
(1708107959.218173) can1 0CEF1100#308E76B79C75A336
(1708107959.219160) can1 18FF1CF3#0000000000000000
(1708107959.223222) can1 18FFDC00#0014010000507B19
(1708107959.226416) can1 04EF001C#C1535F5D3EF4A0FE
(1708107959.228193) can1 18FFDC00#0100000000A4FFA3
(1708107959.228768) can1 0CF00300#CF004FFF00FFFFFF
(1708107959.229339) can1 0CF00400#FF7D7D000000FFFF
(1708107959.232036) can1 18FF1080#000000FFFFFFFD00
(1708107959.233046) can1 18FF1180#0300FBFDFFFF00FF
(1708107959.233635) can1 09F20000#000000FFFFFFFFFF
(1708107959.234215) can1 0CEF0100#B020000000625400
(1708107959.234800) can1 18FFDC00#02FFFF6E921B00FF
(1708107959.236524) can1 04EF001C#1557ADF9EA30529A
(1708107959.246634) can1 04EF001C#6559AE779ADE51F4
(1708107959.248203) can1 0CF00400#FF7D7D000000FFFF
(1708107959.250345) can1 18FF2117#06FFFFFF00FFFFFF
(1708107959.253230) can1 0CEF0100#B020000000625400
(1708107959.256744) can1 04EF001C#FF5B20A5003CDFC6
(1708107959.258215) can1 18FEF200#0000FFFFFFFF37FF
(1708107959.266871) can1 04EF001C#BF5E4AA04039B5C3
(1708107959.268207) can1 0CF00400#FF7D7D000000FFFF
(1708107959.268744) can1 0CEF1100#768DBD077FB24DA8
(1708107959.273225) can1 18FFDC00#2014010000507B19
(1708107959.273789) can1 0CEF0100#B020000000625400
(1708107959.276977) can1 04EF001C#17411FFFE8C6E07C
(1708107959.278191) can1 18FFDC00#2100000000A4FFA3
(1708107959.278783) can1 0CF00300#CF004FFF00FFFFFF
(1708107959.279362) can1 0CEF0017#812B8813CD0AFFFF
(1708107959.283198) can1 18FFDC00#22FFFF6E921B00FF
(1708107959.283756) can1 0DF50B9B#A9FFFFFFFF0000FF
(1708107959.287059) can1 04EF001C#D643C8F529C43776
(1708107959.288274) can1 0CF00400#FF7D7D000000FFFF
(1708107959.288877) can1 18E8FF00#02FFFFFFFF00EF00
(1708107959.293228) can1 0CEF0100#B020000000625400
(1708107959.297192) can1 04EF001C#9846AC8067C15303
(1708107959.298202) can1 18FEF100#FF0000F5FF11DFFF
(1708107959.307286) can1 04EF001C#59491387A6EEEC24
(1708107959.308208) can1 0CF00400#FF7D7D000000FFFF
(1708107959.313227) can1 0CEF0100#B020000000625400
(1708107959.317406) can1 04EF001C#174C77F2E88B8831
(1708107959.318176) can1 0CEF1100#84BC4E1AECA695BC
(1708107959.319081) can1 18FF1CF3#0000000000000000
(1708107959.323213) can1 18FFDC00#4014010000507B19
(1708107959.327519) can1 04EF001C#D64EA0F829A95F1B
(1708107959.328234) can1 18FFDC00#4100000000A4FFA3
(1708107959.328764) can1 0CF00300#CF004FFF00FFFFFF
(1708107959.329339) can1 0CF00400#FF7D7D000000FFFF
(1708107959.333071) can1 18FF1080#000000FFFFFFFD00
(1708107959.333643) can1 09F20000#000000FFFFFFFFFF
(1708107959.334242) can1 0CEF0100#B020000000625400
(1708107959.334856) can1 18FF1180#0300FBFDFFFF00FF
(1708107959.335370) can1 18FFDC00#42FFFF6E921B00FF
(1708107959.336154) can1 18FF1380#000000003FC0C006
(1708107959.337632) can1 04EF001C#CD51433FCD51433B
(1708107959.339050) can1 0CEF0017#812B8813CD0AFFFF
(1708107959.347745) can1 04EF001C#5554F7FA5554F7FE
(1708107959.348326) can1 0CF00400#FF7D7D000000FFFF
(1708107959.348882) can1 18E8FF00#02FFFFFFFF00EF00
(1708107959.353227) can1 0CEF0100#B020000000625400
(1708107959.357849) can1 04EF001C#1657AEE1E9905122
(1708107959.358439) can1 18FEF200#0000FFFFFFFF37FF
(1708107959.367959) can1 04EF001C#D65918EF29DEE76C
(1708107959.368494) can1 0CEF1100#C3B68DE0A1603610
(1708107959.369096) can1 0CF00400#FF7D7D000000FFFF
(1708107959.373205) can1 18FFDC00#6014010000507B19
(1708107959.373820) can1 0CEF0100#B020000000625400
(1708107959.378068) can1 04EF001C#965C72EA697B8DC9
(1708107959.378661) can1 0CF00300#CF004FFF00FFFFFF
(1708107959.379258) can1 18FFDC00#6100000000A4FFA3
(1708107959.381711) can1 15FD069B#56E973FFFFFFFFFF
(1708107959.383175) can1 18FFDC00#62FFFF6E921B00FF
(1708107959.388185) can1 04EF001C#565FACE9A898522A
(1708107959.388771) can1 0CF00400#FF7D7D000000FFFF
(1708107959.393230) can1 0CEF0100#B020000000625400
(1708107959.398210) can1 18FEF100#FF0000F5FF11DFFF
(1708107959.398761) can1 04EF001C#174207FCE9C5F97F
(1708107959.408210) can1 0CF00400#FF7D7D000000FFFF
(1708107959.408846) can1 04EF001C#3F4516BBC1C2E838
(1708107959.413229) can1 0CEF0100#B020000000625400
(1708107959.418192) can1 0CEF1100#12A08F2D7D331CB7
(1708107959.418726) can1 04EF001C#2848690ED6CF978D
(1708107959.419289) can1 0CEF0017#812B8813CD0AFFFF
(1708107959.423212) can1 18FFDC00#8014010000507B19
(1708107959.428188) can1 18FFDC00#8100000000A4FFA3
(1708107959.428730) can1 04EF001C#C14A97443FED69E7
(1708107959.429303) can1 0CF00300#CF004FFF00FFFFFF
(1708107959.429874) can1 0CF00400#FF7D7D000000FFFF
(1708107959.430445) can1 18E8FF00#02FFFFFFFF00EF00
(1708107959.433065) can1 18FF1080#000000FFFFFFFD00
(1708107959.433669) can1 09F20000#000000FFFFFFFFFF
(1708107959.434247) can1 0CEF0100#B020000000625400
(1708107959.434851) can1 18FF1180#0300FBFDFFFF00FF
(1708107959.435413) can1 18FFDC00#82FFFF6E921B00FF
(1708107959.438766) can1 04EF001C#814DED437F8A1380
(1708107959.439377) can1 18FF1CF3#0000000000000000
(1708107959.448214) can1 0CF00400#FF7D7D000000FFFF
(1708107959.448889) can1 04EF001C#6450E7769A9719B5
(1708107959.450603) can1 18FF1C17#0000000000000000
(1708107959.453236) can1 0CEF0100#B020000000625400
(1708107959.458213) can1 18FEF200#0000FFFFFFFF37FF
(1708107959.459016) can1 04EF001C#00539855FEB466B6
(1708107959.468219) can1 0CF00400#FF7D7D000000FFFF
(1708107959.468740) can1 0CEF1100#4BA4BBA49CD72DF9
(1708107959.469297) can1 04EF001C#C1556F5B3FB291B8
(1708107959.473213) can1 18FFDC00#A014010000507B19
(1708107959.473839) can1 0CEF0100#B020000000625400
(1708107959.478203) can1 18FFDC00#A100000000A4FFA3
(1708107959.478804) can1 0CF00300#CF004FFF00FFFFFF
(1708107959.479341) can1 04EF001C#1658D6EEE8BF280D
(1708107959.483198) can1 18FFDC00#A2FFFF6E921B00FF
(1708107959.488212) can1 0CF00400#FF7D7D000000FFFF
(1708107959.489326) can1 04EF001C#D55A03F42BBDFD17
(1708107959.493227) can1 0CEF0100#B020000000625400
(1708107959.496407) can1 09F8021C#1BFC1E120200FFFF
(1708107959.497377) can1 09F8011C#9E6D26184E6B5BC1
(1708107959.498234) can1 18FEF100#FF0000F5FF11DFFF
(1708107959.498768) can1 19FA031C#1BD252009D006500
(1708107959.499439) can1 04EF001C#105EE0D8EEB91E3B
(1708107959.500420) can1 0DF0101C#1BF0A34DC05AB42B
(1708107959.501453) can1 18FEE81C#4A0D00002064637E
(1708107959.502524) can1 19FA041C#60AB1BFF0E017512
(1708107959.503538) can1 19FA041C#61FAC86810FFFFFF
(1708107959.504534) can1 19FA041C#62FFFF05A627D020
(1708107959.505550) can1 19FA041C#630410FFFFFFFFFF
(1708107959.506548) can1 19FA041C#640C0D020C7BA406
(1708107959.507570) can1 19FA041C#65FFFFFFFFFF0D82
(1708107959.508254) can1 0CF00400#FF7D7D000000FFFF
(1708107959.508804) can1 19FA041C#661476483C0FFFFF
(1708107959.509546) can1 04EF001C#32413BD7CC86C514
(1708107959.510600) can1 19FA041C#67FFFFFF0FED172C
(1708107959.511606) can1 19FA041C#6865CC10FFFFFFFF
(1708107959.512609) can1 19FA041C#69FF10AF0096E100
(1708107959.513229) can1 0CEF0100#B020000000625400
(1708107959.513800) can1 19FA041C#6A00FFFFFFFFFF12
(1708107959.514666) can1 19FA041C#6BB61C3EC63011FF
(1708107959.515647) can1 19FA041C#6CFFFFFFFF14D313
(1708107959.516655) can1 19FA041C#6D2E22280AFFFFFF
(1708107959.517666) can1 19FA041C#6EFFFF174E0C2099
(1708107959.518247) can1 0CEF1100#7AD7EE73EA257212
(1708107959.518804) can1 19FA041C#6F9808FFFFFFFFFF
(1708107959.519355) can1 0CEF0017#812B8813CD0AFFFF
(1708107959.519908) can1 04EF001C#E443FB651AE405C6
(1708107959.520705) can1 19FA041C#70194E0C748BB80B
(1708107959.521735) can1 19FA041C#71FFFFFFFFFF1AFD
(1708107959.522731) can1 19FA041C#720C14CD100EFFFF
(1708107959.523300) can1 18FFDC00#C014010000507B19
(1708107959.523866) can1 19FA041C#73FFFFFF1D283CF6
(1708107959.524782) can1 19FA041C#749FA00FFFFFFFFF
(1708107959.525748) can1 19FA041C#75FF2CB61CFC85CC
(1708107959.526776) can1 19FA041C#7610FFFFFFFFFF30
(1708107959.527773) can1 19FA041C#77A91A308EA00FFF
(1708107959.528341) can1 0CF00300#CF004FFF00FFFFFF
(1708107959.528929) can1 0CF00400#FF7D7D000000FFFF
(1708107959.529501) can1 18E8FF00#02FFFFFFFF00EF00
(1708107959.530060) can1 18FFDC00#C100000000A4FFA3
(1708107959.530830) can1 04EF001C#7F464CB881C1B23B
(1708107959.533183) can1 18FFDC00#C2FFFF6E921B00FF
(1708107959.533806) can1 09F20000#000000FFFFFFFFFF
(1708107959.534413) can1 0CEF0100#B020000000625400
(1708107959.534961) can1 18FF1080#000000FFFFFFFD00
(1708107959.536039) can1 18FF1180#0300FBFDFFFF00FF
(1708107959.537054) can1 18FF1380#000000003FC0C006
(1708107959.539090) can1 18FF1CF3#0000000000000000
(1708107959.539849) can1 04EF001C#9A48DE9E64EF203D
(1708107959.548198) can1 0CF00400#FF7D7D000000FFFF
(1708107959.549955) can1 04EF001C#8C4BD02D72AC2ECE
(1708107959.553226) can1 0CEF0100#B020000000625400
(1708107959.558219) can1 18FEF200#0000FFFFFFFF37FF
(1708107959.560077) can1 04EF001C#4D4E3F20B249C023
(1708107959.568202) can1 0CF00400#FF7D7D000000FFFF
(1708107959.568837) can1 0CEF1100#20CA5224B55ADE6E
(1708107959.570206) can1 04EF001C#3351BACFCC16458C
(1708107959.573222) can1 18FFDC00#E014010000507B19
(1708107959.573807) can1 0CEF0100#B020000000625400
(1708107959.578208) can1 18FFDC00#E100000000A4FFA3
(1708107959.578764) can1 0CF00300#CF004FFF00FFFFFF
(1708107959.579441) can1 0CEF0017#812B8813CD0AFFFF
(1708107959.580332) can1 04EF001C#F3536CCD0C3493AE
(1708107959.583190) can1 18FFDC00#E2FFFF6E921B00FF
(1708107959.588215) can1 0CF00400#FF7D7D000000FFFF
(1708107959.588781) can1 18E8FF00#02FFFFFFFF00EF00
(1708107959.590401) can1 04EF001C#EC565B3013D1A4B3
(1708107959.593232) can1 0CEF0100#B020000000625400
(1708107959.598209) can1 18FEF100#FF0000F5FF11DFFF
(1708107959.600531) can1 04EF001C#7159BAD78EFE4574
(1708107959.608208) can1 0CF00400#FF7D7D000000FFFF
(1708107959.610638) can1 04EF001C#9D5C79B2629B8671
(1708107959.613228) can1 0CEF0100#B020000000625400
(1708107959.618192) can1 0CEF1100#E3C494FFDBAFC5DA
(1708107959.619097) can1 18FF1CF3#0000000000000000
(1708107959.620768) can1 04EF001C#555FAFF1555FAFF5
(1708107959.623203) can1 18FFDC00#0014010000507B19
(1708107959.628208) can1 18FFDC00#0100000000A4FFA3
(1708107959.628776) can1 0CF00300#CF004FFF00FFFFFF
(1708107959.629340) can1 0CF00400#FF7D7D000000FFFF
(1708107959.630882) can1 04EF001C#4542576C45625748
(1708107959.633206) can1 18FFDC00#02FFFF6E921B00FF
(1708107959.633792) can1 09F20000#000000FFFFFFFFFF
(1708107959.634377) can1 0CEF0100#B020000000625400
(1708107959.634960) can1 18FF1080#000000FFFFFFFD00
(1708107959.636048) can1 18FF1180#0300FBFDFFFF00FF
(1708107959.640986) can1 04EF001C#A4448162A4648146
(1708107959.641978) can1 18FF1C17#0000000000000000
(1708107959.648208) can1 0CF00400#FF7D7D000000FFFF
(1708107959.651084) can1 04EF001C#5C4766A15C0766E5
(1708107959.653215) can1 18FEEF00#FFFFFF00FFFFFFFF
(1708107959.653835) can1 0CEF0100#B020000000625400
(1708107959.658223) can1 18FEF200#0000FFFFFFFF37FF
(1708107959.659102) can1 0CEF0017#812B8813CD0AFFFF
(1708107959.661218) can1 04EF001C#014A5144016A5160
(1708107959.668210) can1 0CF00400#FF7D7D000000FFFF
(1708107959.668845) can1 0CEF1100#9BFF91307794C6B5
(1708107959.669334) can1 18E8FF00#02FFFFFFFF00EF00
(1708107959.671291) can1 04EF001C#C24CA45AC24CA45E
(1708107959.673229) can1 18FFDC00#2014010000507B19
(1708107959.673810) can1 0CEF0100#B020000000625400
(1708107959.678209) can1 18FFDC00#2100000000A4FFA3
(1708107959.678789) can1 0CF00300#CF004FFF00FFFFFF
(1708107959.681425) can1 04EF001C#164F6EF9E988913A
(1708107959.683183) can1 18FFDC00#22FFFF6E921B00FF
(1708107959.683791) can1 0CEF1700#01AB8813CD0AFFFF
(1708107959.688212) can1 0CF00400#FF7D7D000000FFFF
(1708107959.691525) can1 04EF001C#D5515BFF2AF6A45C
(1708107959.693228) can1 0CEF0100#B020000000625400
(1708107959.693840) can1 18FEF600#FFFF3D2AFFFFFFFF
(1708107959.698213) can1 18FEF100#FF0000F5FF11DFFF
(1708107959.701647) can1 04EF001C#965432E269F3CD41
(1708107959.708208) can1 0CF00400#FF7D7D000000FFFF
(1708107959.711747) can1 04EF001C#5657ECE1A9301382
(1708107959.713217) can1 0CEF0100#B020000000625400
(1708107959.718184) can1 0CEF1100#4BEA4BB52D453866
(1708107959.721868) can1 04EF001C#165AC6ECE93D398F
(1708107959.723203) can1 18FFDC00#4014010000507B19
(1708107959.728196) can1 18FFDC00#4100000000A4FFA3
(1708107959.728786) can1 0CF00300#CF004FFF00FFFFFF
(1708107959.729330) can1 0CF00400#FF7D7D000000FFFF
(1708107959.731971) can1 04EF001C#D85C3E9A273BC1F9
(1708107959.733193) can1 18FFDC00#42FFFF6E921B00FF
(1708107959.733799) can1 09F20000#000000FFFFFFFFFF
(1708107959.734373) can1 0CEF0100#B020000000625400
(1708107959.735061) can1 18FF1080#000000FFFFFFFD00
(1708107959.736039) can1 18FF1180#0300FBFDFFFF00FF
(1708107959.737063) can1 18FF1380#000000003FC0C006
(1708107959.742107) can1 04EF001C#975F6BE168389482
(1708107959.748213) can1 0CF00400#FF7D7D000000FFFF
(1708107959.752177) can1 04EF001C#58424A84A725B5E7
(1708107959.753221) can1 0CEF0100#B020000000625400
(1708107959.758221) can1 18FEF200#0000FFFFFFFF37FF
(1708107959.759113) can1 18FF1CF3#0000000000000000
(1708107959.762321) can1 04EF001C#16453EF3E922C190
(1708107959.768210) can1 0CF00400#FF7D7D000000FFFF
(1708107959.768743) can1 0CEF1100#32ECE63C4069C54E
(1708107959.772420) can1 04EF001C#D647E8F129201792
(1708107959.773209) can1 18FFDC00#6014010000507B19
(1708107959.773791) can1 0CEF0100#B020000000625400
(1708107959.778206) can1 18FFDC00#6100000000A4FFA3
(1708107959.778760) can1 0CF00300#CF004FFF00FFFFFF
(1708107959.779332) can1 0CEF0017#812B8813CD0AFFFF
(1708107959.782546) can1 04EF001C#964AC2FC696D3DDF
(1708107959.783190) can1 18FFDC00#62FFFF6E921B00FF
(1708107959.788215) can1 0CF00400#FF7D7D000000FFFF
(1708107959.788784) can1 18E8FF00#02FFFFFFFF00EF00
(1708107959.792640) can1 04EF001C#554D3FE3AA4AC0E0
(1708107959.793264) can1 0CEF0100#B020000000625400
(1708107959.798216) can1 18FEF100#FF0000F5FF11DFFF
(1708107959.802778) can1 04EF001C#A45021765A97DFB5
(1708107959.808211) can1 0CF00400#FF7D7D000000FFFF
(1708107959.812881) can1 04EF001C#6353F84D9DD406CE
(1708107959.813503) can1 0CEF0100#B020000000625400
(1708107959.818191) can1 0CEF1100#819AFF7ADC7ED573
(1708107959.819088) can1 0CEF0017#812B8813CD0AFFFF
(1708107959.823004) can1 04EF001C#0256B240FC714C63
(1708107959.823586) can1 18FFDC00#8014010000507B19
(1708107959.828193) can1 18FFDC00#8100000000A4FFA3
(1708107959.828768) can1 0CF00300#CF004FFF00FFFFFF
(1708107959.829332) can1 0CF00400#FF7D7D000000FFFF
(1708107959.829905) can1 18E8FF00#02FFFFFFFF00EF00
(1708107959.833126) can1 04EF001C#E35824461D5FDA45
(1708107959.833709) can1 09F20000#000000FFFFFFFFFF
(1708107959.834360) can1 0CEF0100#B020000000625400
(1708107959.834859) can1 18FFDC00#82FFFF6E921B00FF
(1708107959.835438) can1 18FF1080#000000FFFFFFFD00
(1708107959.837065) can1 18FF1180#0300FBFDFFFF00FF
(1708107959.839112) can1 18FF1CF3#0000000000000000
(1708107959.842050) can1 18FF1C17#0000000000000000
(1708107959.843206) can1 04EF001C#A55B7875589C85B6
(1708107959.848207) can1 0CF00400#FF7D7D000000FFFF
(1708107959.848845) can1 18FECA00#40FF00000000FFFF
(1708107959.853215) can1 0CEF0100#B020000000625400
(1708107959.853788) can1 04EF001C#3F5ECEA0C2F93303
(1708107959.858225) can1 18FEF200#0000FFFFFFFF37FF
(1708107959.863442) can1 04EF001C#24412D67D9C6D0E4
(1708107959.868211) can1 0CF00400#FF7D7D000000FFFF
(1708107959.868742) can1 0CEF1100#C199357ABE345661
(1708107959.873218) can1 18FFDC00#A014010000507B19
(1708107959.873767) can1 04EF001C#56434CF5ABC4B176
(1708107959.874355) can1 0CEF0100#B020000000625400
(1708107959.878209) can1 18FFDC00#A100000000A4FFA3
(1708107959.878814) can1 0CF00300#CF004FFF00FFFFFF
(1708107959.883201) can1 18FFDC00#A2FFFF6E921B00FF
(1708107959.883731) can1 04EF001C#174627F8EA21DA9B
(1708107959.886237) can1 15FD069B#57E973FFFFFFFFFF
(1708107959.888201) can1 0CF00400#FF7D7D000000FFFF
(1708107959.893213) can1 0CEF0100#B020000000625400
(1708107959.893763) can1 04EF001C#D8489E8E252F63ED
(1708107959.898209) can1 18FEF100#FF0000F5FF11DFFF
(1708107959.899090) can1 0CEF0017#812B8813CD0AFFFF
(1708107959.903867) can1 04EF001C#994BC58564EC3826
(1708107959.908211) can1 0CF00400#FF7D7D000000FFFF
(1708107959.908786) can1 18E8FF00#02FFFFFFFF00EF00
(1708107959.913232) can1 0CEF0100#B020000000625400
(1708107959.914082) can1 04EF001C#564E24F8A849DAFB
(1708107959.918190) can1 0CEF1100#1D88CC9EEEFF7BE3
(1708107959.919111) can1 0CEA1C00#00EE000000000000
(1708107959.920098) can1 18EEFF1C#0204450E00000042
(1708107959.923208) can1 18FFDC00#C014010000507B19
(1708107959.924127) can1 04EF001C#16519EE7E87660C4
(1708107959.928201) can1 18FFDC00#C100000000A4FFA3
(1708107959.928775) can1 0CF00300#CF004FFF00FFFFFF
(1708107959.929392) can1 0CF00400#FF7D7D000000FFFF
(1708107959.933202) can1 18FFDC00#C2FFFF6E921B00FF
(1708107959.933824) can1 09F20000#000000FFFFFFFFFF
(1708107959.934364) can1 04EF001C#D5534BFD2B14B5BE
(1708107959.934949) can1 0CEF0100#B020000000625400
(1708107959.936056) can1 18FF1080#000000FFFFFFFD00
(1708107959.937063) can1 18FF1180#0300FBFDFFFF00FF
(1708107959.938041) can1 18FF1380#000000003FC0C006
(1708107959.939116) can1 18FF1CF3#0000000000000000
(1708107959.944323) can1 04EF001C#99562D9867D1D31B
(1708107959.948198) can1 0CF00400#FF7D7D000000FFFF
(1708107959.953212) can1 0CEF0100#B020000000625400
(1708107959.954450) can1 04EF001C#BF5972A7419E8C64
(1708107959.958226) can1 18FEF200#0000FFFFFFFF37FF
(1708107959.964540) can1 04EF001C#175CF7E2E99B0921
(1708107959.968199) can1 0CF00400#FF7D7D000000FFFF
(1708107959.968743) can1 0CEF1100#5D8F269F3BB5FD48
(1708107959.973223) can1 18FFDC00#E014010000507B19
(1708107959.973788) can1 0CEF0100#B020000000625400
(1708107959.974806) can1 04EF001C#FD5E0AB00399F473
(1708107959.978209) can1 18FFDC00#E100000000A4FFA3
(1708107959.978790) can1 0CF00300#CF004FFF00FFFFFF
(1708107959.979313) can1 0CEF0017#812B8813CD0AFFFF
(1708107959.983198) can1 18FFDC00#E2FFFF6E921B00FF
(1708107959.984779) can1 04EF001C#BB41B69F4586485C
(1708107959.988211) can1 0CF00400#FF7D7D000000FFFF
(1708107959.988917) can1 18E8FF00#02FFFFFFFF00EF00
(1708107959.993228) can1 0CEF0100#B020000000625400
(1708107959.994870) can1 04EF001C#B14494CA4F836A09
(1708107959.998214) can1 18FEF100#FF0000F5FF11DFFF
(1708107959.998981) can1 09F8021C#1CFC1E120200FFFF
(1708107959.999930) can1 09F8011C#A26D2618506B5BC1
(1708107960.000983) can1 19FA031C#1CD252009D006500
(1708107960.001971) can1 0DF0101C#1CF0A34DD081B42B
(1708107960.002995) can1 18FEE81C#4A0D00002064627E
(1708107960.004092) can1 19FA041C#60AB1CFF0E017512
(1708107960.005006) can1 04EF001C#A848ED0E56AF13ED
(1708107960.006085) can1 19FA041C#61FAC8A00FFFFFFF
(1708107960.007090) can1 19FA041C#62FFFF05A627D020
(1708107960.008125) can1 19FA041C#630410FFFFFFFFFF
(1708107960.008702) can1 0CF00400#FF7D7D000000FFFF
(1708107960.009278) can1 19FA041C#640C0D020C7B4006
(1708107960.010152) can1 19FA041C#65FFFFFFFFFF0D82
(1708107960.011126) can1 19FA041C#661476480410FFFF
(1708107960.012148) can1 19FA041C#67FFFFFF0FED172C
(1708107960.013175) can1 19FA041C#6865CC10FFFFFFFF
(1708107960.013776) can1 0CEF0100#B020000000625400
(1708107960.014335) can1 19FA041C#69FF10AF0096E100
(1708107960.015135) can1 04EF001C#494B1305B7ACEDE6
(1708107960.016203) can1 19FA041C#6A00FFFFFFFFFF12
(1708107960.017200) can1 19FA041C#6BB61C3EC66810FF
(1708107960.018168) can1 0CEF1100#B0BF9ABA2D18AEB1
